hour,t(sec),V1,VAngle1,V2,VAngle2,I1,IAngle1,I2,IAngle2,V3,Name,VAngle3,I3,IAngle3,V4,VAngle4,I4,IAngle4,kv,V1(PU),V2(PU),V3(PU)
1,0.0,,111.227,,0.0,20.2518,111.23,20.2518,-68.7698,2407.5,monload-611_runway,,,,,,,,2.4,,,1.003125
2,0.0,,111.22,,0.0,21.49,111.22,21.49,-68.7799,2407.29,monload-611_runway,,,,,,,,2.4,,,1.0030375
3,0.0,,111.24600000000001,,0.0,18.735,111.244,18.735,-68.7563,2408.43,monload-611_runway,,,,,,,,2.4,,,1.0035125
4,0.0,,111.251,,0.0,18.1696,111.251,18.1696,-68.7493,2408.68,monload-611_runway,,,,,,,,2.4,,,1.0036166666666666
5,0.0,,111.04799999999999,,0.0,18.3433,111.05,18.3433,-68.9501,2399.11,monload-611_runway,,,,,,,,2.4,,,0.9996291666666667
6,0.0,,110.916,,0.0,19.8621,110.917,19.8621,-69.0826,2392.69,monload-611_runway,,,,,,,,2.4,,,0.9969541666666667
7,0.0,,110.163,,0.0,29.8483,110.164,29.8483,-69.8363,2357.26,monload-611_runway,,,,,,,,2.4,,,0.9821916666666668
8,0.0,,110.257,,0.0,31.8618,110.257,31.8618,-69.7434,2361.74,monload-611_runway,,,,,,,,2.4,,,0.9840583333333333
9,0.0,,109.945,,0.0,44.0268,109.946,44.0268,-70.0545,2348.49,monload-611_runway,,,,,,,,2.4,,,0.9785375
10,0.0,,110.48299999999999,,0.0,37.8158,110.48299999999999,37.8158,-69.5172,2375.92,monload-611_runway,,,,,,,,2.4,,,0.9899666666666667
11,0.0,,111.098,,0.0,26.7204,111.1,26.7204,-68.9002,2406.69,monload-611_runway,,,,,,,,2.4,,,1.0027875
12,0.0,,112.051,,0.0,25.0426,112.055,25.0426,-67.9449,2439.57,monload-611_runway,,,,,,,,2.4,,,1.0164875
13,0.0,,111.27600000000001,,0.0,24.9564,111.277,24.9564,-68.7225,2400.66,monload-611_runway,,,,,,,,2.4,,,1.000275
14,0.0,,111.292,,0.0,24.9959,111.291,24.9959,-68.709,2400.9,monload-611_runway,,,,,,,,2.4,,,1.000375
15,0.0,,111.77799999999999,,0.0,24.9268,111.777,24.9268,-68.2228,2425.54,monload-611_runway,,,,,,,,2.4,,,1.0106416666666667
16,0.0,,112.344,,0.0,24.7866,112.344,24.7866,-67.6564,2454.49,monload-611_runway,,,,,,,,2.4,,,1.0227041666666665
17,0.0,,111.11,,0.0,25.989,111.111,25.989,-68.8892,2391.96,monload-611_runway,,,,,,,,2.4,,,0.99665
18,0.0,,110.053,,0.0,31.4301,110.053,31.4301,-69.9469,2337.14,monload-611_runway,,,,,,,,2.4,,,0.9738083333333333
19,0.0,,109.802,,0.0,43.1551,109.79799999999999,43.1551,-70.2017,2340.05,monload-611_runway,,,,,,,,2.4,,,0.9750208333333334
20,0.0,,109.806,,0.0,45.3034,109.805,45.3034,-70.1952,2340.36,monload-611_runway,,,,,,,,2.4,,,0.9751500000000001
21,0.0,,109.946,,0.0,47.8087,109.945,47.8087,-70.0553,2347.12,monload-611_runway,,,,,,,,2.4,,,0.9779666666666667
22,0.0,,110.111,,0.0,46.4444,110.109,46.4444,-69.8907,2355.27,monload-611_runway,,,,,,,,2.4,,,0.9813625
23,0.0,,110.59,,0.0,35.6973,110.584,35.6973,-69.416,2378.01,monload-611_runway,,,,,,,,2.4,,,0.9908375
24,0.0,,110.976,,0.0,22.9122,110.971,22.9122,-69.0286,2395.99,monload-611_runway,,,,,,,,2.4,,,0.9983291666666666
25,0.0,,111.1,,0.0,18.6667,111.098,18.6667,-68.9016,2401.91,monload-611_runway,,,,,,,,2.4,,,1.0007958333333333
26,0.0,,111.103,,0.0,17.8494,111.103,17.8494,-68.8974,2402.04,monload-611_runway,,,,,,,,2.4,,,1.00085
27,0.0,,111.117,,0.0,16.9263,111.116,16.9263,-68.8844,2402.68,monload-611_runway,,,,,,,,2.4,,,1.0011166666666667
28,0.0,,111.118,,0.0,17.0116,111.118,17.0116,-68.8818,2402.72,monload-611_runway,,,,,,,,2.4,,,1.0011333333333332
29,0.0,,110.39,,0.0,17.6802,110.391,17.6802,-69.6088,2368.56,monload-611_runway,,,,,,,,2.4,,,0.9869
30,0.0,,110.117,,0.0,21.26,110.12100000000001,21.26,-69.8791,2355.52,monload-611_runway,,,,,,,,2.4,,,0.9814666666666667
31,0.0,,108.5,,0.0,33.1583,108.5,33.1583,-71.5,2278.52,monload-611_runway,,,,,,,,2.4,,,0.9493833333333334
32,0.0,,107.874,,0.0,34.5753,107.87299999999999,34.5753,-72.1265,2262.82,monload-611_runway,,,,,,,,2.4,,,0.9428416666666667
33,0.0,,108.14399999999999,,0.0,30.750999999999998,108.14299999999999,30.750999999999998,-71.8566,2278.28,monload-611_runway,,,,,,,,2.4,,,0.9492833333333334
34,0.0,,108.57,,0.0,31.0977,108.56700000000001,31.0977,-71.4325,2302.44,monload-611_runway,,,,,,,,2.4,,,0.95935
35,0.0,,109.06700000000001,,0.0,25.135,109.06299999999999,25.135,-70.9369,2328.62,monload-611_runway,,,,,,,,2.4,,,0.9702583333333333
36,0.0,,107.854,,0.0,25.8094,107.853,25.8094,-72.1471,2263.82,monload-611_runway,,,,,,,,2.4,,,0.9432583333333334
37,0.0,,110.726,,0.0,26.4116,110.729,26.4116,-69.2715,2401.27,monload-611_runway,,,,,,,,2.4,,,1.0005291666666667
38,0.0,,108.677,,0.0,25.3752,108.67200000000001,25.3752,-71.3279,2294.6,monload-611_runway,,,,,,,,2.4,,,0.9560833333333333
39,0.0,,111.259,,0.0,24.5082,111.26,24.5082,-68.7399,2429.08,monload-611_runway,,,,,,,,2.4,,,1.0121166666666666
40,0.0,,110.208,,0.0,24.748,110.209,24.748,-69.7906,2375.14,monload-611_runway,,,,,,,,2.4,,,0.9896416666666666
41,0.0,,108.603,,0.0,25.8685,108.604,25.8685,-71.396,2291.17,monload-611_runway,,,,,,,,2.4,,,0.9546541666666667
42,0.0,,107.508,,0.0,31.1462,107.508,31.1462,-72.4925,2244.76,monload-611_runway,,,,,,,,2.4,,,0.9353166666666668
43,0.0,,108.38799999999999,,0.0,38.7986,108.391,38.7986,-71.6092,2286.91,monload-611_runway,,,,,,,,2.4,,,0.9528791666666666
44,0.0,,108.37700000000001,,0.0,41.1781,108.37700000000001,41.1781,-71.6227,2286.51,monload-611_runway,,,,,,,,2.4,,,0.9527125000000001
45,0.0,,109.096,,0.0,45.1231,109.094,45.1231,-70.9058,2321.38,monload-611_runway,,,,,,,,2.4,,,0.9672416666666667
46,0.0,,109.449,,0.0,42.3023,109.448,42.3023,-70.5522,2338.69,monload-611_runway,,,,,,,,2.4,,,0.9744541666666667
47,0.0,,110.306,,0.0,30.8497,110.305,30.8497,-69.6954,2379.52,monload-611_runway,,,,,,,,2.4,,,0.9914666666666666
48,0.0,,110.647,,0.0,21.1497,110.641,21.1497,-69.3592,2395.62,monload-611_runway,,,,,,,,2.4,,,0.9981749999999999
49,0.0,,110.773,,0.0,18.8942,110.771,18.8942,-69.2295,2401.72,monload-611_runway,,,,,,,,2.4,,,1.0007166666666665
50,0.0,,110.809,,0.0,18.3946,110.803,18.3946,-69.1966,2403.41,monload-611_runway,,,,,,,,2.4,,,1.0014208333333332
51,0.0,,110.82700000000001,,0.0,17.8874,110.83,17.8874,-69.1697,2388.94,monload-611_runway,,,,,,,,2.4,,,0.9953916666666667
52,0.0,,110.825,,0.0,18.4384,110.825,18.4384,-69.1748,2388.85,monload-611_runway,,,,,,,,2.4,,,0.9953541666666667
53,0.0,,110.09,,0.0,19.6598,110.09100000000001,19.6598,-69.9095,2354.21,monload-611_runway,,,,,,,,2.4,,,0.9809208333333334
54,0.0,,109.791,,0.0,23.9779,109.794,23.9779,-70.2059,2339.89,monload-611_runway,,,,,,,,2.4,,,0.9749541666666666
55,0.0,,108.234,,0.0,35.7182,108.235,35.7182,-71.7654,2280.07,monload-611_runway,,,,,,,,2.4,,,0.9500291666666667
56,0.0,,107.63600000000001,,0.0,35.4958,107.63799999999999,35.4958,-72.3618,2251.01,monload-611_runway,,,,,,,,2.4,,,0.9379208333333334
57,0.0,,108.65799999999999,,0.0,31.5574,108.655,31.5574,-71.3448,2307.05,monload-611_runway,,,,,,,,2.4,,,0.9612708333333334
58,0.0,,110.565,,0.0,31.2533,110.56700000000001,31.2533,-69.4329,2393.79,monload-611_runway,,,,,,,,2.4,,,0.9974125
59,0.0,,110.895,,0.0,24.7817,110.897,24.7817,-69.1026,2410.3,monload-611_runway,,,,,,,,2.4,,,1.0042916666666668
60,0.0,,116.56700000000001,,0.0,25.9092,116.56700000000001,25.9092,-63.4326,2403.7,monload-611_runway,,,,,,,,2.4,,,1.0015416666666666
61,0.0,,116.64299999999999,,0.0,27.1001,116.64299999999999,27.1001,-63.3569,2404.77,monload-611_runway,,,,,,,,2.4,,,1.0019875
62,0.0,,116.55799999999999,,0.0,27.5835,116.561,27.5835,-63.4388,2403.01,monload-611_runway,,,,,,,,2.4,,,1.0012541666666668
63,0.0,,116.538,,0.0,27.9419,116.539,27.9419,-63.4614,2402.75,monload-611_runway,,,,,,,,2.4,,,1.0011458333333334
64,0.0,,116.516,,0.0,28.0794,116.51700000000001,28.0794,-63.483000000000004,2402.4,monload-611_runway,,,,,,,,2.4,,,1.0010000000000001
65,0.0,,116.456,,0.0,28.5183,116.456,28.5183,-63.5442,2401.44,monload-611_runway,,,,,,,,2.4,,,1.0006
66,0.0,,116.427,,0.0,32.6003,116.427,32.6003,-63.5728,2400.56,monload-611_runway,,,,,,,,2.4,,,1.0002333333333333
67,0.0,,116.90299999999999,,0.0,38.728,116.887,38.728,-63.1129,2410.52,monload-611_runway,,,,,,,,2.4,,,1.0043833333333334
68,0.0,,116.898,,0.0,40.8709,116.898,40.8709,-63.1023,2410.32,monload-611_runway,,,,,,,,2.4,,,1.0043
69,0.0,,117.148,,0.0,44.806000000000004,117.14,44.806000000000004,-62.8604,2415.44,monload-611_runway,,,,,,,,2.4,,,1.0064333333333333
70,0.0,,117.255,,0.0,41.9513,117.251,41.9513,-62.7485,2417.75,monload-611_runway,,,,,,,,2.4,,,1.0073958333333333
71,0.0,,117.565,,0.0,30.874000000000002,117.554,30.874000000000002,-62.4461,2424.62,monload-611_runway,,,,,,,,2.4,,,1.0102583333333333
72,0.0,,117.697,,0.0,21.1947,117.693,21.1947,-62.3072,2427.74,monload-611_runway,,,,,,,,2.4,,,1.0115583333333333
73,0.0,,117.76100000000001,,0.0,18.5785,117.759,18.5785,-62.24100000000001,2429.13,monload-611_runway,,,,,,,,2.4,,,1.0121375000000001
74,0.0,,117.77,,0.0,17.7129,117.77,17.7129,-62.2299,2429.35,monload-611_runway,,,,,,,,2.4,,,1.0122291666666667
75,0.0,,117.78200000000001,,0.0,16.7422,117.781,16.7422,-62.2187,2429.62,monload-611_runway,,,,,,,,2.4,,,1.0123416666666667
76,0.0,,117.78,,0.0,16.8093,117.78,16.8093,-62.2195,2429.59,monload-611_runway,,,,,,,,2.4,,,1.0123291666666667
77,0.0,,117.521,,0.0,17.5128,117.531,17.5128,-62.4692,2424.24,monload-611_runway,,,,,,,,2.4,,,1.0101
78,0.0,,117.459,,0.0,20.9229,117.462,20.9229,-62.5385,2422.85,monload-611_runway,,,,,,,,2.4,,,1.0095208333333332
79,0.0,,116.851,,0.0,32.7171,116.852,32.7171,-63.1484,2409.66,monload-611_runway,,,,,,,,2.4,,,1.004025
80,0.0,,116.568,,0.0,34.9942,116.57700000000001,34.9942,-63.4235,2403.54,monload-611_runway,,,,,,,,2.4,,,1.001475
81,0.0,,116.546,,0.0,30.82,116.54799999999999,30.82,-63.452,2402.8,monload-611_runway,,,,,,,,2.4,,,1.0011666666666668
82,0.0,,116.65899999999999,,0.0,30.1071,116.656,30.1071,-63.3441,2404.65,monload-611_runway,,,,,,,,2.4,,,1.0019375000000001
83,0.0,,116.896,,0.0,23.08,116.895,23.08,-63.1045,2409.46,monload-611_runway,,,,,,,,2.4,,,1.0039416666666667
84,0.0,,116.961,,0.0,23.6213,116.959,23.6213,-63.0415,2410.52,monload-611_runway,,,,,,,,2.4,,,1.0043833333333334
85,0.0,,117.056,,0.0,24.733,117.056,24.733,-62.9438,2412.26,monload-611_runway,,,,,,,,2.4,,,1.0051083333333335
86,0.0,,116.921,,0.0,26.0612,116.916,26.0612,-63.0841,2409.51,monload-611_runway,,,,,,,,2.4,,,1.0039625
87,0.0,,116.788,,0.0,26.4039,116.78299999999999,26.4039,-63.2169,2406.9,monload-611_runway,,,,,,,,2.4,,,1.002875
88,0.0,,116.598,,0.0,26.3335,116.604,26.3335,-63.3961,2403.27,monload-611_runway,,,,,,,,2.4,,,1.0013625
89,0.0,,116.366,,0.0,27.5633,116.367,27.5633,-63.6332,2398.94,monload-611_runway,,,,,,,,2.4,,,0.9995583333333333
90,0.0,,116.271,,0.0,33.8235,116.271,33.8235,-63.7291,2396.93,monload-611_runway,,,,,,,,2.4,,,0.9987208333333333
91,0.0,,116.72200000000001,,0.0,41.4629,116.721,41.4629,-63.2786,2406.53,monload-611_runway,,,,,,,,2.4,,,1.0027208333333335
92,0.0,,116.71799999999999,,0.0,44.545,116.71799999999999,44.545,-63.2821,2406.3,monload-611_runway,,,,,,,,2.4,,,1.002625
93,0.0,,116.97200000000001,,0.0,49.2734,116.971,49.2734,-63.0286,2411.49,monload-611_runway,,,,,,,,2.4,,,1.0047875
94,0.0,,117.086,,0.0,46.4184,117.086,46.4184,-62.9141,2413.97,monload-611_runway,,,,,,,,2.4,,,1.0058208333333332
95,0.0,,117.40100000000001,,0.0,34.3923,117.40100000000001,34.3923,-62.5989,2421.02,monload-611_runway,,,,,,,,2.4,,,1.0087583333333334
96,0.0,,117.538,,0.0,24.0131,117.53399999999999,24.0131,-62.4659,2424.28,monload-611_runway,,,,,,,,2.4,,,1.0101166666666668
97,0.0,,117.601,,0.0,21.7964,117.59899999999999,21.7964,-62.4009,2425.64,monload-611_runway,,,,,,,,2.4,,,1.0106833333333334
98,0.0,,117.617,,0.0,20.8093,117.616,20.8093,-62.3837,2426.0,monload-611_runway,,,,,,,,2.4,,,1.0108333333333333
99,0.0,,117.633,,0.0,19.5335,117.632,19.5335,-62.3676,2426.39,monload-611_runway,,,,,,,,2.4,,,1.0109958333333333
100,0.0,,117.65299999999999,,0.0,19.3539,117.652,19.3539,-62.348,2426.8,monload-611_runway,,,,,,,,2.4,,,1.0111666666666668
101,0.0,,117.42200000000001,,0.0,19.795,117.429,19.795,-62.5707,2422.04,monload-611_runway,,,,,,,,2.4,,,1.0091833333333333
102,0.0,,117.329,,0.0,23.6849,117.33200000000001,23.6849,-62.6683,2419.96,monload-611_runway,,,,,,,,2.4,,,1.0083166666666667
103,0.0,,116.66799999999999,,0.0,38.4226,116.66799999999999,38.4226,-63.3316,2405.46,monload-611_runway,,,,,,,,2.4,,,1.002275
104,0.0,,116.366,,0.0,42.7031,116.367,42.7031,-63.6332,2398.83,monload-611_runway,,,,,,,,2.4,,,0.9995124999999999
105,0.0,,116.324,,0.0,39.7651,116.32600000000001,39.7651,-63.6742,2397.56,monload-611_runway,,,,,,,,2.4,,,0.9989833333333333
106,0.0,,116.311,,0.0,42.458999999999996,116.311,42.458999999999996,-63.6888,2396.6,monload-611_runway,,,,,,,,2.4,,,0.9985833333333333
107,0.0,,116.47200000000001,,0.0,36.7749,116.46700000000001,36.7749,-63.5327,2399.84,monload-611_runway,,,,,,,,2.4,,,0.9999333333333333
108,0.0,,116.64399999999999,,0.0,34.924,116.63799999999999,34.924,-63.3616,2403.31,monload-611_runway,,,,,,,,2.4,,,1.0013791666666667
109,0.0,,116.795,,0.0,35.3309,116.79,35.3309,-63.2099,2406.35,monload-611_runway,,,,,,,,2.4,,,1.0026458333333332
110,0.0,,116.671,,0.0,36.1511,116.675,36.1511,-63.3248,2403.83,monload-611_runway,,,,,,,,2.4,,,1.0015958333333332
111,0.0,,116.56200000000001,,0.0,36.556999999999995,116.565,36.556999999999995,-63.4352,2401.73,monload-611_runway,,,,,,,,2.4,,,1.0007208333333333
112,0.0,,116.417,,0.0,35.8436,116.417,35.8436,-63.583,2399.07,monload-611_runway,,,,,,,,2.4,,,0.9996125
113,0.0,,116.27,,0.0,37.3236,116.27,37.3236,-63.7302,2396.58,monload-611_runway,,,,,,,,2.4,,,0.998575
114,0.0,,116.25299999999999,,0.0,42.3539,116.25299999999999,42.3539,-63.7473,2396.31,monload-611_runway,,,,,,,,2.4,,,0.9984625
115,0.0,,116.766,,0.0,48.2942,116.765,48.2942,-63.2348,2407.27,monload-611_runway,,,,,,,,2.4,,,1.0030291666666666
116,0.0,,116.773,,0.0,50.8826,116.773,50.8826,-63.2274,2407.28,monload-611_runway,,,,,,,,2.4,,,1.0030333333333334
117,0.0,,117.024,,0.0,55.1034,117.024,55.1034,-62.9757,2412.43,monload-611_runway,,,,,,,,2.4,,,1.0051791666666665
118,0.0,,117.139,,0.0,52.4571,117.139,52.4571,-62.861000000000004,2414.88,monload-611_runway,,,,,,,,2.4,,,1.0062
119,0.0,,117.46600000000001,,0.0,40.733000000000004,117.46600000000001,40.733000000000004,-62.5336,2422.14,monload-611_runway,,,,,,,,2.4,,,1.009225
120,0.0,,117.62,,0.0,29.5798,117.616,29.5798,-62.3837,2425.77,monload-611_runway,,,,,,,,2.4,,,1.0107375
121,0.0,,117.71,,0.0,25.8806,117.708,25.8806,-62.2922,2427.73,monload-611_runway,,,,,,,,2.4,,,1.0115541666666668
122,0.0,,117.726,,0.0,24.5759,117.726,24.5759,-62.2744,2428.1,monload-611_runway,,,,,,,,2.4,,,1.0117083333333332
123,0.0,,117.744,,0.0,22.9971,117.743,22.9971,-62.2566,2428.53,monload-611_runway,,,,,,,,2.4,,,1.0118875
124,0.0,,117.75,,0.0,22.3842,117.75,22.3842,-62.25,2428.68,monload-611_runway,,,,,,,,2.4,,,1.01195
125,0.0,,117.493,,0.0,22.8134,117.5,22.8134,-62.4996,2423.38,monload-611_runway,,,,,,,,2.4,,,1.0097416666666668
126,0.0,,117.416,,0.0,26.7316,117.41799999999999,26.7316,-62.582,2421.66,monload-611_runway,,,,,,,,2.4,,,1.0090249999999998
127,0.0,,116.758,,0.0,41.3038,116.758,41.3038,-63.2416,2407.29,monload-611_runway,,,,,,,,2.4,,,1.0030375
128,0.0,,116.445,,0.0,45.5509,116.446,45.5509,-63.5542,2400.47,monload-611_runway,,,,,,,,2.4,,,1.0001958333333332
129,0.0,,116.32600000000001,,0.0,44.0571,116.329,44.0571,-63.6707,2397.67,monload-611_runway,,,,,,,,2.4,,,0.9990291666666667
130,0.0,,116.30799999999999,,0.0,44.3574,116.30799999999999,44.3574,-63.6917,2396.73,monload-611_runway,,,,,,,,2.4,,,0.9986375
131,0.0,,116.523,,0.0,38.3172,116.522,38.3172,-63.4776,2401.06,monload-611_runway,,,,,,,,2.4,,,1.0004416666666667
132,0.0,,116.415,,0.0,39.0492,116.415,39.0492,-63.5845,2398.91,monload-611_runway,,,,,,,,2.4,,,0.9995458333333332
133,0.0,,116.552,,0.0,39.7514,116.54799999999999,39.7514,-63.4517,2401.59,monload-611_runway,,,,,,,,2.4,,,1.0006625
134,0.0,,116.46799999999999,,0.0,40.3209,116.47,40.3209,-63.5298,2399.79,monload-611_runway,,,,,,,,2.4,,,0.9999125
135,0.0,,116.479,,0.0,40.0177,116.479,40.0177,-63.5214,2400.03,monload-611_runway,,,,,,,,2.4,,,1.0000125000000002
136,0.0,,116.354,,0.0,38.751,116.354,38.751,-63.6461,2397.77,monload-611_runway,,,,,,,,2.4,,,0.9990708333333334
137,0.0,,116.256,,0.0,37.858000000000004,116.256,37.858000000000004,-63.7443,2396.35,monload-611_runway,,,,,,,,2.4,,,0.9984791666666666
138,0.0,,116.22,,0.0,42.9001,116.22,42.9001,-63.78,2395.57,monload-611_runway,,,,,,,,2.4,,,0.9981541666666668
139,0.0,,116.695,,0.0,49.9773,116.694,49.9773,-63.3056,2405.74,monload-611_runway,,,,,,,,2.4,,,1.0023916666666666
140,0.0,,116.696,,0.0,52.678000000000004,116.696,52.678000000000004,-63.3037,2405.63,monload-611_runway,,,,,,,,2.4,,,1.0023458333333333
141,0.0,,116.941,,0.0,57.1881,116.941,57.1881,-63.0587,2410.65,monload-611_runway,,,,,,,,2.4,,,1.0044375
142,0.0,,117.133,,0.0,51.6617,117.133,51.6617,-62.8671,2414.79,monload-611_runway,,,,,,,,2.4,,,1.0061625
143,0.0,,117.523,,0.0,37.0848,117.523,37.0848,-62.4767,2423.44,monload-611_runway,,,,,,,,2.4,,,1.0097666666666667
144,0.0,,117.677,,0.0,25.3175,117.67200000000001,25.3175,-62.3275,2427.08,monload-611_runway,,,,,,,,2.4,,,1.0112833333333333
145,0.0,,117.73299999999999,,0.0,23.1146,117.73100000000001,23.1146,-62.2685,2428.3,monload-611_runway,,,,,,,,2.4,,,1.0117916666666666
146,0.0,,117.727,,0.0,22.7156,117.727,22.7156,-62.2728,2428.18,monload-611_runway,,,,,,,,2.4,,,1.0117416666666665
147,0.0,,117.75399999999999,,0.0,19.4987,117.75299999999999,19.4987,-62.2471,2428.87,monload-611_runway,,,,,,,,2.4,,,1.0120291666666665
148,0.0,,117.759,,0.0,19.1538,117.759,19.1538,-62.2414,2428.99,monload-611_runway,,,,,,,,2.4,,,1.0120791666666666
149,0.0,,117.691,,0.0,19.44,117.693,19.44,-62.3066,2427.61,monload-611_runway,,,,,,,,2.4,,,1.0115041666666666
150,0.0,,117.652,,0.0,20.7921,117.654,20.7921,-62.3464,2426.79,monload-611_runway,,,,,,,,2.4,,,1.0111625
151,0.0,,117.389,,0.0,30.6613,117.389,30.6613,-62.6109,2420.96,monload-611_runway,,,,,,,,2.4,,,1.0087333333333333
152,0.0,,117.15700000000001,,0.0,32.5578,117.163,32.5578,-62.8368,2415.92,monload-611_runway,,,,,,,,2.4,,,1.0066333333333333
153,0.0,,117.111,,0.0,45.5458,117.11200000000001,45.5458,-62.8877,2413.76,monload-611_runway,,,,,,,,2.4,,,1.0057333333333334
154,0.0,,116.927,,0.0,40.6198,116.927,40.6198,-63.0729,2410.19,monload-611_runway,,,,,,,,2.4,,,1.0042458333333333
155,0.0,,117.39399999999999,,0.0,31.8176,117.39399999999999,31.8176,-62.606,2419.18,monload-611_runway,,,,,,,,2.4,,,1.0079916666666666
156,0.0,,117.464,,0.0,31.3428,117.464,31.3428,-62.5356,2420.38,monload-611_runway,,,,,,,,2.4,,,1.0084916666666668
157,0.0,,117.45299999999999,,0.0,32.0281,117.45200000000001,32.0281,-62.5476,2420.26,monload-611_runway,,,,,,,,2.4,,,1.0084416666666667
158,0.0,,117.45200000000001,,0.0,31.7662,117.45200000000001,31.7662,-62.5483,2420.33,monload-611_runway,,,,,,,,2.4,,,1.0084708333333332
159,0.0,,117.359,,0.0,32.0361,117.361,32.0361,-62.6388,2418.64,monload-611_runway,,,,,,,,2.4,,,1.0077666666666667
160,0.0,,117.258,,0.0,33.0122,117.258,33.0122,-62.7419,2417.22,monload-611_runway,,,,,,,,2.4,,,1.007175
161,0.0,,117.14200000000001,,0.0,33.2851,117.14200000000001,33.2851,-62.8576,2415.11,monload-611_runway,,,,,,,,2.4,,,1.0062958333333334
162,0.0,,117.125,,0.0,36.5459,117.125,36.5459,-62.8753,2415.12,monload-611_runway,,,,,,,,2.4,,,1.0063
163,0.0,,117.056,,0.0,47.5561,117.056,47.5561,-62.9436,2413.4,monload-611_runway,,,,,,,,2.4,,,1.0055833333333333
164,0.0,,117.054,,0.0,49.2997,117.054,49.2997,-62.9464,2413.24,monload-611_runway,,,,,,,,2.4,,,1.0055166666666666
165,0.0,,117.26799999999999,,0.0,51.8892,117.26299999999999,51.8892,-62.7368,2417.61,monload-611_runway,,,,,,,,2.4,,,1.0073375
166,0.0,,117.302,,0.0,51.0972,117.302,51.0972,-62.6976,2418.3,monload-611_runway,,,,,,,,2.4,,,1.007625
167,0.0,,117.493,,0.0,40.8171,117.48899999999999,40.8171,-62.5109,2422.65,monload-611_runway,,,,,,,,2.4,,,1.0094375
168,0.0,,117.66,,0.0,27.8677,117.656,27.8677,-62.3443,2426.62,monload-611_runway,,,,,,,,2.4,,,1.0110916666666667
169,0.0,,117.773,,0.0,23.6005,117.77,23.6005,-62.2298,2429.09,monload-611_runway,,,,,,,,2.4,,,1.0121208333333334
170,0.0,,117.781,,0.0,23.0303,117.781,23.0303,-62.2191,2429.27,monload-611_runway,,,,,,,,2.4,,,1.0121958333333334
