hour,t(sec),P1(kW),Q1(kvar),P2(kW),Q2(kvar),P3(kW),Name,Q3(kvar),P4(kW),Q4(kvar),V1,VAngle1,V2,VAngle2,V3,VAngle3,I1,IAngle1,I2,IAngle2,I3,IAngle3
1,0.0,0.0,0.0,0.0,0.0,0.0,mongenerator-battery_670,0.0,0.0,0.0,,,,,,,,,,,,
2,0.0,0.0,0.0,0.0,0.0,0.0,mongenerator-battery_670,0.0,0.0,0.0,,,,,,,,,,,,
3,0.0,0.0,0.0,0.0,0.0,0.0,mongenerator-battery_670,0.0,0.0,0.0,,,,,,,,,,,,
4,0.0,0.0,0.0,0.0,0.0,0.0,mongenerator-battery_670,0.0,0.0,0.0,,,,,,,,,,,,
5,0.0,0.0,0.0,0.0,0.0,0.0,mongenerator-battery_670,0.0,0.0,0.0,,,,,,,,,,,,
6,0.0,0.0,0.0,0.0,0.0,0.0,mongenerator-battery_670,0.0,0.0,0.0,,,,,,,,,,,,
7,0.0,0.0,0.0,0.0,0.0,0.0,mongenerator-battery_670,0.0,0.0,0.0,,,,,,,,,,,,
8,0.0,0.0,0.0,0.0,0.0,0.0,mongenerator-battery_670,0.0,0.0,0.0,,,,,,,,,,,,
9,0.0,0.0,0.0,0.0,0.0,0.0,mongenerator-battery_670,0.0,0.0,0.0,,,,,,,,,,,,
10,0.0,0.0,0.0,0.0,0.0,0.0,mongenerator-battery_670,0.0,0.0,0.0,,,,,,,,,,,,
11,0.0,-33.0709,1.2938e-05,-33.6147,-7.96461e-06,-31.2638,mongenerator-battery_670,0.000390459,0.0,0.0,,,,,,,,,,,,
12,0.0,125.775,-0.000106527,125.527,7.82084e-05,117.17,mongenerator-battery_670,-0.00519749,0.0,0.0,,,,,,,,,,,,
13,0.0,-121.042,0.00017952,-122.203,-2.44958e-05,-113.727,mongenerator-battery_670,0.00134837,0.0,0.0,,,,,,,,,,,,
14,0.0,47.2075,1.73396e-05,47.4929,-5.40286e-06,44.2537,mongenerator-battery_670,0.00032476,0.0,0.0,,,,,,,,,,,,
15,0.0,89.568,7.48255e-05,89.7762,-1.56378e-05,83.81,mongenerator-battery_670,0.000917317,0.0,0.0,,,,,,,,,,,,
16,0.0,0.0,0.0,0.0,0.0,0.0,mongenerator-battery_670,0.0,0.0,0.0,,,,,,,,,,,,
17,0.0,0.0,0.0,0.0,0.0,0.0,mongenerator-battery_670,0.0,0.0,0.0,,,,,,,,,,,,
18,0.0,0.0,0.0,0.0,0.0,0.0,mongenerator-battery_670,0.0,0.0,0.0,,,,,,,,,,,,
19,0.0,0.0,0.0,0.0,0.0,0.0,mongenerator-battery_670,0.0,0.0,0.0,,,,,,,,,,,,
20,0.0,0.0,0.0,0.0,0.0,0.0,mongenerator-battery_670,0.0,0.0,0.0,,,,,,,,,,,,
21,0.0,0.0,0.0,0.0,0.0,0.0,mongenerator-battery_670,0.0,0.0,0.0,,,,,,,,,,,,
22,0.0,0.0,0.0,0.0,0.0,0.0,mongenerator-battery_670,0.0,0.0,0.0,,,,,,,,,,,,
23,0.0,0.0,0.0,0.0,0.0,0.0,mongenerator-battery_670,0.0,0.0,0.0,,,,,,,,,,,,
24,0.0,0.0,0.0,0.0,0.0,0.0,mongenerator-battery_670,0.0,0.0,0.0,,,,,,,,,,,,
25,0.0,0.0,0.0,0.0,0.0,0.0,mongenerator-battery_670,0.0,0.0,0.0,,,,,,,,,,,,
26,0.0,0.0,0.0,0.0,0.0,0.0,mongenerator-battery_670,0.0,0.0,0.0,,,,,,,,,,,,
27,0.0,0.0,0.0,0.0,0.0,0.0,mongenerator-battery_670,0.0,0.0,0.0,,,,,,,,,,,,
28,0.0,0.0,0.0,0.0,0.0,0.0,mongenerator-battery_670,0.0,0.0,0.0,,,,,,,,,,,,
29,0.0,0.0,0.0,0.0,0.0,0.0,mongenerator-battery_670,0.0,0.0,0.0,,,,,,,,,,,,
30,0.0,0.0,0.0,0.0,0.0,0.0,mongenerator-battery_670,0.0,0.0,0.0,,,,,,,,,,,,
31,0.0,0.0,0.0,0.0,0.0,0.0,mongenerator-battery_670,0.0,0.0,0.0,,,,,,,,,,,,
32,0.0,0.0,0.0,0.0,0.0,0.0,mongenerator-battery_670,0.0,0.0,0.0,,,,,,,,,,,,
33,0.0,0.0,0.0,0.0,0.0,0.0,mongenerator-battery_670,0.0,0.0,0.0,,,,,,,,,,,,
34,0.0,0.0,0.0,0.0,0.0,0.0,mongenerator-battery_670,0.0,0.0,0.0,,,,,,,,,,,,
35,0.0,0.0,0.0,0.0,0.0,0.0,mongenerator-battery_670,0.0,0.0,0.0,,,,,,,,,,,,
36,0.0,-59.4888,-0.000542961,-60.6881,6.49346e-05,-54.8705,mongenerator-battery_670,-0.000519284,0.0,0.0,,,,,,,,,,,,
37,0.0,10.8048,-5.37274e-06,10.5982,3.76982e-06,9.74851,mongenerator-battery_670,-0.000199696,0.0,0.0,,,,,,,,,,,,
38,0.0,-51.5309,-6.95444e-05,-51.7726,8.30733e-06,-46.8558,mongenerator-battery_670,-0.000341947,0.0,0.0,,,,,,,,,,,,
39,0.0,131.345,-4.20494e-05,128.166,3.76343e-05,118.112,mongenerator-battery_670,-0.00177336,0.0,0.0,,,,,,,,,,,,
40,0.0,0.0,0.0,0.0,0.0,0.0,mongenerator-battery_670,0.0,0.0,0.0,,,,,,,,,,,,
41,0.0,0.0,0.0,0.0,0.0,0.0,mongenerator-battery_670,0.0,0.0,0.0,,,,,,,,,,,,
42,0.0,-14.315,-9.89603e-05,-14.6907,-4.93401e-05,-13.0568,mongenerator-battery_670,-0.000143625,0.0,0.0,,,,,,,,,,,,
43,0.0,0.0,0.0,0.0,0.0,0.0,mongenerator-battery_670,0.0,0.0,0.0,,,,,,,,,,,,
44,0.0,0.0,0.0,0.0,0.0,0.0,mongenerator-battery_670,0.0,0.0,0.0,,,,,,,,,,,,
45,0.0,0.0,0.0,0.0,0.0,0.0,mongenerator-battery_670,0.0,0.0,0.0,,,,,,,,,,,,
46,0.0,0.0,0.0,0.0,0.0,0.0,mongenerator-battery_670,0.0,0.0,0.0,,,,,,,,,,,,
47,0.0,0.0,0.0,0.0,0.0,0.0,mongenerator-battery_670,0.0,0.0,0.0,,,,,,,,,,,,
48,0.0,0.0,0.0,0.0,0.0,0.0,mongenerator-battery_670,0.0,0.0,0.0,,,,,,,,,,,,
49,0.0,0.0,0.0,0.0,0.0,0.0,mongenerator-battery_670,0.0,0.0,0.0,,,,,,,,,,,,
50,0.0,0.0,0.0,0.0,0.0,0.0,mongenerator-battery_670,0.0,0.0,0.0,,,,,,,,,,,,
51,0.0,0.0,0.0,0.0,0.0,0.0,mongenerator-battery_670,0.0,0.0,0.0,,,,,,,,,,,,
52,0.0,0.0,0.0,0.0,0.0,0.0,mongenerator-battery_670,0.0,0.0,0.0,,,,,,,,,,,,
53,0.0,0.0,0.0,0.0,0.0,0.0,mongenerator-battery_670,0.0,0.0,0.0,,,,,,,,,,,,
54,0.0,0.0,0.0,0.0,0.0,0.0,mongenerator-battery_670,0.0,0.0,0.0,,,,,,,,,,,,
55,0.0,0.0,0.0,0.0,0.0,0.0,mongenerator-battery_670,0.0,0.0,0.0,,,,,,,,,,,,
56,0.0,0.0,0.0,0.0,0.0,0.0,mongenerator-battery_670,0.0,0.0,0.0,,,,,,,,,,,,
57,0.0,0.0,0.0,0.0,0.0,0.0,mongenerator-battery_670,0.0,0.0,0.0,,,,,,,,,,,,
58,0.0,-98.7632,3.64174e-05,-96.7059,-3.17019e-05,-88.6581,mongenerator-battery_670,0.00144984,0.0,0.0,,,,,,,,,,,,
59,0.0,129.429,-8.40775e-05,126.116,6.524e-05,116.32,mongenerator-battery_670,-0.0021712,0.0,0.0,,,,,,,,,,,,
60,0.0,0.0,0.0,0.0,0.0,0.0,mongenerator-battery_670,0.0,0.0,0.0,,,,,,,,,,,,
61,0.0,0.0,0.0,0.0,0.0,0.0,mongenerator-battery_670,0.0,0.0,0.0,,,,,,,,,,,,
62,0.0,0.0,0.0,0.0,0.0,0.0,mongenerator-battery_670,0.0,0.0,0.0,,,,,,,,,,,,
63,0.0,0.0,0.0,0.0,0.0,0.0,mongenerator-battery_670,0.0,0.0,0.0,,,,,,,,,,,,
64,0.0,0.0,0.0,0.0,0.0,0.0,mongenerator-battery_670,0.0,0.0,0.0,,,,,,,,,,,,
65,0.0,0.0,0.0,0.0,0.0,0.0,mongenerator-battery_670,0.0,0.0,0.0,,,,,,,,,,,,
66,0.0,0.0,0.0,0.0,0.0,0.0,mongenerator-battery_670,0.0,0.0,0.0,,,,,,,,,,,,
67,0.0,0.0,0.0,0.0,0.0,0.0,mongenerator-battery_670,0.0,0.0,0.0,,,,,,,,,,,,
68,0.0,0.0,0.0,0.0,0.0,0.0,mongenerator-battery_670,0.0,0.0,0.0,,,,,,,,,,,,
69,0.0,0.0,0.0,0.0,0.0,0.0,mongenerator-battery_670,0.0,0.0,0.0,,,,,,,,,,,,
70,0.0,0.0,0.0,0.0,0.0,0.0,mongenerator-battery_670,0.0,0.0,0.0,,,,,,,,,,,,
71,0.0,0.0,0.0,0.0,0.0,0.0,mongenerator-battery_670,0.0,0.0,0.0,,,,,,,,,,,,
72,0.0,0.0,0.0,0.0,0.0,0.0,mongenerator-battery_670,0.0,0.0,0.0,,,,,,,,,,,,
73,0.0,0.0,0.0,0.0,0.0,0.0,mongenerator-battery_670,0.0,0.0,0.0,,,,,,,,,,,,
74,0.0,0.0,0.0,0.0,0.0,0.0,mongenerator-battery_670,0.0,0.0,0.0,,,,,,,,,,,,
75,0.0,0.0,0.0,0.0,0.0,0.0,mongenerator-battery_670,0.0,0.0,0.0,,,,,,,,,,,,
76,0.0,0.0,0.0,0.0,0.0,0.0,mongenerator-battery_670,0.0,0.0,0.0,,,,,,,,,,,,
77,0.0,0.0,0.0,0.0,0.0,0.0,mongenerator-battery_670,0.0,0.0,0.0,,,,,,,,,,,,
78,0.0,0.0,0.0,0.0,0.0,0.0,mongenerator-battery_670,0.0,0.0,0.0,,,,,,,,,,,,
79,0.0,0.0,0.0,0.0,0.0,0.0,mongenerator-battery_670,0.0,0.0,0.0,,,,,,,,,,,,
80,0.0,0.0,0.0,0.0,0.0,0.0,mongenerator-battery_670,0.0,0.0,0.0,,,,,,,,,,,,
81,0.0,0.0,0.0,0.0,0.0,0.0,mongenerator-battery_670,0.0,0.0,0.0,,,,,,,,,,,,
82,0.0,0.0,0.0,0.0,0.0,0.0,mongenerator-battery_670,0.0,0.0,0.0,,,,,,,,,,,,
83,0.0,0.0,0.0,0.0,0.0,0.0,mongenerator-battery_670,0.0,0.0,0.0,,,,,,,,,,,,
84,0.0,0.0,0.0,0.0,0.0,0.0,mongenerator-battery_670,0.0,0.0,0.0,,,,,,,,,,,,
85,0.0,-12.7487,3.84114e-07,-12.7467,1.0002e-09,-12.74,mongenerator-battery_670,3.82545e-06,0.0,0.0,,,,,,,,,,,,
86,0.0,12.7473,-1.9368e-06,12.7453,5.19022e-08,12.7382,mongenerator-battery_670,2.73301e-05,0.0,0.0,,,,,,,,,,,,
87,0.0,0.0,0.0,0.0,0.0,0.0,mongenerator-battery_670,0.0,0.0,0.0,,,,,,,,,,,,
88,0.0,0.0,0.0,0.0,0.0,0.0,mongenerator-battery_670,0.0,0.0,0.0,,,,,,,,,,,,
89,0.0,0.0,0.0,0.0,0.0,0.0,mongenerator-battery_670,0.0,0.0,0.0,,,,,,,,,,,,
90,0.0,0.0,0.0,0.0,0.0,0.0,mongenerator-battery_670,0.0,0.0,0.0,,,,,,,,,,,,
91,0.0,0.0,0.0,0.0,0.0,0.0,mongenerator-battery_670,0.0,0.0,0.0,,,,,,,,,,,,
92,0.0,0.0,0.0,0.0,0.0,0.0,mongenerator-battery_670,0.0,0.0,0.0,,,,,,,,,,,,
93,0.0,0.0,0.0,0.0,0.0,0.0,mongenerator-battery_670,0.0,0.0,0.0,,,,,,,,,,,,
94,0.0,0.0,0.0,0.0,0.0,0.0,mongenerator-battery_670,0.0,0.0,0.0,,,,,,,,,,,,
95,0.0,0.0,0.0,0.0,0.0,0.0,mongenerator-battery_670,0.0,0.0,0.0,,,,,,,,,,,,
96,0.0,0.0,0.0,0.0,0.0,0.0,mongenerator-battery_670,0.0,0.0,0.0,,,,,,,,,,,,
97,0.0,0.0,0.0,0.0,0.0,0.0,mongenerator-battery_670,0.0,0.0,0.0,,,,,,,,,,,,
98,0.0,0.0,0.0,0.0,0.0,0.0,mongenerator-battery_670,0.0,0.0,0.0,,,,,,,,,,,,
99,0.0,0.0,0.0,0.0,0.0,0.0,mongenerator-battery_670,0.0,0.0,0.0,,,,,,,,,,,,
100,0.0,0.0,0.0,0.0,0.0,0.0,mongenerator-battery_670,0.0,0.0,0.0,,,,,,,,,,,,
101,0.0,0.0,0.0,0.0,0.0,0.0,mongenerator-battery_670,0.0,0.0,0.0,,,,,,,,,,,,
102,0.0,0.0,0.0,0.0,0.0,0.0,mongenerator-battery_670,0.0,0.0,0.0,,,,,,,,,,,,
103,0.0,0.0,0.0,0.0,0.0,0.0,mongenerator-battery_670,0.0,0.0,0.0,,,,,,,,,,,,
104,0.0,0.0,0.0,0.0,0.0,0.0,mongenerator-battery_670,0.0,0.0,0.0,,,,,,,,,,,,
105,0.0,0.0,0.0,0.0,0.0,0.0,mongenerator-battery_670,0.0,0.0,0.0,,,,,,,,,,,,
106,0.0,0.0,0.0,0.0,0.0,0.0,mongenerator-battery_670,0.0,0.0,0.0,,,,,,,,,,,,
107,0.0,0.0,0.0,0.0,0.0,0.0,mongenerator-battery_670,0.0,0.0,0.0,,,,,,,,,,,,
108,0.0,0.0,0.0,0.0,0.0,0.0,mongenerator-battery_670,0.0,0.0,0.0,,,,,,,,,,,,
109,0.0,0.0,0.0,0.0,0.0,0.0,mongenerator-battery_670,0.0,0.0,0.0,,,,,,,,,,,,
110,0.0,0.0,0.0,0.0,0.0,0.0,mongenerator-battery_670,0.0,0.0,0.0,,,,,,,,,,,,
111,0.0,0.0,0.0,0.0,0.0,0.0,mongenerator-battery_670,0.0,0.0,0.0,,,,,,,,,,,,
112,0.0,0.0,0.0,0.0,0.0,0.0,mongenerator-battery_670,0.0,0.0,0.0,,,,,,,,,,,,
113,0.0,0.0,0.0,0.0,0.0,0.0,mongenerator-battery_670,0.0,0.0,0.0,,,,,,,,,,,,
114,0.0,0.0,0.0,0.0,0.0,0.0,mongenerator-battery_670,0.0,0.0,0.0,,,,,,,,,,,,
115,0.0,0.0,0.0,0.0,0.0,0.0,mongenerator-battery_670,0.0,0.0,0.0,,,,,,,,,,,,
116,0.0,0.0,0.0,0.0,0.0,0.0,mongenerator-battery_670,0.0,0.0,0.0,,,,,,,,,,,,
117,0.0,0.0,0.0,0.0,0.0,0.0,mongenerator-battery_670,0.0,0.0,0.0,,,,,,,,,,,,
118,0.0,0.0,0.0,0.0,0.0,0.0,mongenerator-battery_670,0.0,0.0,0.0,,,,,,,,,,,,
119,0.0,0.0,0.0,0.0,0.0,0.0,mongenerator-battery_670,0.0,0.0,0.0,,,,,,,,,,,,
120,0.0,0.0,0.0,0.0,0.0,0.0,mongenerator-battery_670,0.0,0.0,0.0,,,,,,,,,,,,
121,0.0,0.0,0.0,0.0,0.0,0.0,mongenerator-battery_670,0.0,0.0,0.0,,,,,,,,,,,,
122,0.0,0.0,0.0,0.0,0.0,0.0,mongenerator-battery_670,0.0,0.0,0.0,,,,,,,,,,,,
123,0.0,0.0,0.0,0.0,0.0,0.0,mongenerator-battery_670,0.0,0.0,0.0,,,,,,,,,,,,
124,0.0,0.0,0.0,0.0,0.0,0.0,mongenerator-battery_670,0.0,0.0,0.0,,,,,,,,,,,,
125,0.0,0.0,0.0,0.0,0.0,0.0,mongenerator-battery_670,0.0,0.0,0.0,,,,,,,,,,,,
126,0.0,0.0,0.0,0.0,0.0,0.0,mongenerator-battery_670,0.0,0.0,0.0,,,,,,,,,,,,
127,0.0,0.0,0.0,0.0,0.0,0.0,mongenerator-battery_670,0.0,0.0,0.0,,,,,,,,,,,,
128,0.0,0.0,0.0,0.0,0.0,0.0,mongenerator-battery_670,0.0,0.0,0.0,,,,,,,,,,,,
129,0.0,0.0,0.0,0.0,0.0,0.0,mongenerator-battery_670,0.0,0.0,0.0,,,,,,,,,,,,
130,0.0,0.0,0.0,0.0,0.0,0.0,mongenerator-battery_670,0.0,0.0,0.0,,,,,,,,,,,,
131,0.0,0.0,0.0,0.0,0.0,0.0,mongenerator-battery_670,0.0,0.0,0.0,,,,,,,,,,,,
132,0.0,0.0,0.0,0.0,0.0,0.0,mongenerator-battery_670,0.0,0.0,0.0,,,,,,,,,,,,
133,0.0,0.0,0.0,0.0,0.0,0.0,mongenerator-battery_670,0.0,0.0,0.0,,,,,,,,,,,,
134,0.0,0.0,0.0,0.0,0.0,0.0,mongenerator-battery_670,0.0,0.0,0.0,,,,,,,,,,,,
135,0.0,0.0,0.0,0.0,0.0,0.0,mongenerator-battery_670,0.0,0.0,0.0,,,,,,,,,,,,
136,0.0,0.0,0.0,0.0,0.0,0.0,mongenerator-battery_670,0.0,0.0,0.0,,,,,,,,,,,,
137,0.0,0.0,0.0,0.0,0.0,0.0,mongenerator-battery_670,0.0,0.0,0.0,,,,,,,,,,,,
138,0.0,0.0,0.0,0.0,0.0,0.0,mongenerator-battery_670,0.0,0.0,0.0,,,,,,,,,,,,
139,0.0,0.0,0.0,0.0,0.0,0.0,mongenerator-battery_670,0.0,0.0,0.0,,,,,,,,,,,,
140,0.0,0.0,0.0,0.0,0.0,0.0,mongenerator-battery_670,0.0,0.0,0.0,,,,,,,,,,,,
141,0.0,0.0,0.0,0.0,0.0,0.0,mongenerator-battery_670,0.0,0.0,0.0,,,,,,,,,,,,
142,0.0,0.0,0.0,0.0,0.0,0.0,mongenerator-battery_670,0.0,0.0,0.0,,,,,,,,,,,,
143,0.0,0.0,0.0,0.0,0.0,0.0,mongenerator-battery_670,0.0,0.0,0.0,,,,,,,,,,,,
144,0.0,0.0,0.0,0.0,0.0,0.0,mongenerator-battery_670,0.0,0.0,0.0,,,,,,,,,,,,
145,0.0,0.0,0.0,0.0,0.0,0.0,mongenerator-battery_670,0.0,0.0,0.0,,,,,,,,,,,,
146,0.0,0.0,0.0,0.0,0.0,0.0,mongenerator-battery_670,0.0,0.0,0.0,,,,,,,,,,,,
147,0.0,0.0,0.0,0.0,0.0,0.0,mongenerator-battery_670,0.0,0.0,0.0,,,,,,,,,,,,
148,0.0,0.0,0.0,0.0,0.0,0.0,mongenerator-battery_670,0.0,0.0,0.0,,,,,,,,,,,,
149,0.0,0.0,0.0,0.0,0.0,0.0,mongenerator-battery_670,0.0,0.0,0.0,,,,,,,,,,,,
150,0.0,0.0,0.0,0.0,0.0,0.0,mongenerator-battery_670,0.0,0.0,0.0,,,,,,,,,,,,
151,0.0,0.0,0.0,0.0,0.0,0.0,mongenerator-battery_670,0.0,0.0,0.0,,,,,,,,,,,,
152,0.0,0.0,0.0,0.0,0.0,0.0,mongenerator-battery_670,0.0,0.0,0.0,,,,,,,,,,,,
153,0.0,0.0,0.0,0.0,0.0,0.0,mongenerator-battery_670,0.0,0.0,0.0,,,,,,,,,,,,
154,0.0,0.0,0.0,0.0,0.0,0.0,mongenerator-battery_670,0.0,0.0,0.0,,,,,,,,,,,,
155,0.0,0.0,0.0,0.0,0.0,0.0,mongenerator-battery_670,0.0,0.0,0.0,,,,,,,,,,,,
156,0.0,-70.6541,1.05052e-06,-70.6536,2.39092e-07,-70.6226,mongenerator-battery_670,1.93815e-05,0.0,0.0,,,,,,,,,,,,
157,0.0,9.37463,6.09191e-07,9.37489,-1.10894e-06,9.37076,mongenerator-battery_670,2.36227e-06,0.0,0.0,,,,,,,,,,,,
158,0.0,43.466,-2.30518e-06,43.4677,1.61772e-06,43.4489,mongenerator-battery_670,2.44948e-06,0.0,0.0,,,,,,,,,,,,
159,0.0,17.7848,-1.3165e-06,17.7867,5.91939e-06,17.7784,mongenerator-battery_670,-1.39193e-05,0.0,0.0,,,,,,,,,,,,
160,0.0,0.0,0.0,0.0,0.0,0.0,mongenerator-battery_670,0.0,0.0,0.0,,,,,,,,,,,,
161,0.0,0.0,0.0,0.0,0.0,0.0,mongenerator-battery_670,0.0,0.0,0.0,,,,,,,,,,,,
162,0.0,0.0,0.0,0.0,0.0,0.0,mongenerator-battery_670,0.0,0.0,0.0,,,,,,,,,,,,
163,0.0,0.0,0.0,0.0,0.0,0.0,mongenerator-battery_670,0.0,0.0,0.0,,,,,,,,,,,,
164,0.0,0.0,0.0,0.0,0.0,0.0,mongenerator-battery_670,0.0,0.0,0.0,,,,,,,,,,,,
165,0.0,0.0,0.0,0.0,0.0,0.0,mongenerator-battery_670,0.0,0.0,0.0,,,,,,,,,,,,
166,0.0,0.0,0.0,0.0,0.0,0.0,mongenerator-battery_670,0.0,0.0,0.0,,,,,,,,,,,,
167,0.0,0.0,0.0,0.0,0.0,0.0,mongenerator-battery_670,0.0,0.0,0.0,,,,,,,,,,,,
168,0.0,0.0,0.0,0.0,0.0,0.0,mongenerator-battery_670,0.0,0.0,0.0,,,,,,,,,,,,
169,0.0,0.0,0.0,0.0,0.0,0.0,mongenerator-battery_670,0.0,0.0,0.0,,,,,,,,,,,,
170,0.0,0.0,0.0,0.0,0.0,0.0,mongenerator-battery_670,0.0,0.0,0.0,,,,,,,,,,,,
171,0.0,0.0,0.0,0.0,0.0,0.0,mongenerator-battery_670,0.0,0.0,0.0,,,,,,,,,,,,
172,0.0,0.0,0.0,0.0,0.0,0.0,mongenerator-battery_670,0.0,0.0,0.0,,,,,,,,,,,,
173,0.0,0.0,0.0,0.0,0.0,0.0,mongenerator-battery_670,0.0,0.0,0.0,,,,,,,,,,,,
174,0.0,0.0,0.0,0.0,0.0,0.0,mongenerator-battery_670,0.0,0.0,0.0,,,,,,,,,,,,
175,0.0,0.0,0.0,0.0,0.0,0.0,mongenerator-battery_670,0.0,0.0,0.0,,,,,,,,,,,,
176,0.0,0.0,0.0,0.0,0.0,0.0,mongenerator-battery_670,0.0,0.0,0.0,,,,,,,,,,,,
177,0.0,0.0,0.0,0.0,0.0,0.0,mongenerator-battery_670,0.0,0.0,0.0,,,,,,,,,,,,
178,0.0,0.0,0.0,0.0,0.0,0.0,mongenerator-battery_670,0.0,0.0,0.0,,,,,,,,,,,,
179,0.0,0.0,0.0,0.0,0.0,0.0,mongenerator-battery_670,0.0,0.0,0.0,,,,,,,,,,,,
180,0.0,0.0,0.0,0.0,0.0,0.0,mongenerator-battery_670,0.0,0.0,0.0,,,,,,,,,,,,
181,0.0,127.371,-0.000352999,127.975,3.4481e-06,118.004,mongenerator-battery_670,-0.0057476,0.0,0.0,,,,,,,,,,,,
182,0.0,0.0,0.0,0.0,0.0,0.0,mongenerator-battery_670,0.0,0.0,0.0,,,,,,,,,,,,
183,0.0,0.0,0.0,0.0,0.0,0.0,mongenerator-battery_670,0.0,0.0,0.0,,,,,,,,,,,,
184,0.0,0.0,0.0,0.0,0.0,0.0,mongenerator-battery_670,0.0,0.0,0.0,,,,,,,,,,,,
185,0.0,0.0,0.0,0.0,0.0,0.0,mongenerator-battery_670,0.0,0.0,0.0,,,,,,,,,,,,
186,0.0,0.0,0.0,0.0,0.0,0.0,mongenerator-battery_670,0.0,0.0,0.0,,,,,,,,,,,,
187,0.0,0.0,0.0,0.0,0.0,0.0,mongenerator-battery_670,0.0,0.0,0.0,,,,,,,,,,,,
188,0.0,0.0,0.0,0.0,0.0,0.0,mongenerator-battery_670,0.0,0.0,0.0,,,,,,,,,,,,
189,0.0,0.0,0.0,0.0,0.0,0.0,mongenerator-battery_670,0.0,0.0,0.0,,,,,,,,,,,,
190,0.0,0.0,0.0,0.0,0.0,0.0,mongenerator-battery_670,0.0,0.0,0.0,,,,,,,,,,,,
191,0.0,0.0,0.0,0.0,0.0,0.0,mongenerator-battery_670,0.0,0.0,0.0,,,,,,,,,,,,
192,0.0,0.0,0.0,0.0,0.0,0.0,mongenerator-battery_670,0.0,0.0,0.0,,,,,,,,,,,,
193,0.0,0.0,0.0,0.0,0.0,0.0,mongenerator-battery_670,0.0,0.0,0.0,,,,,,,,,,,,
194,0.0,0.0,0.0,0.0,0.0,0.0,mongenerator-battery_670,0.0,0.0,0.0,,,,,,,,,,,,
195,0.0,0.0,0.0,0.0,0.0,0.0,mongenerator-battery_670,0.0,0.0,0.0,,,,,,,,,,,,
196,0.0,0.0,0.0,0.0,0.0,0.0,mongenerator-battery_670,0.0,0.0,0.0,,,,,,,,,,,,
197,0.0,0.0,0.0,0.0,0.0,0.0,mongenerator-battery_670,0.0,0.0,0.0,,,,,,,,,,,,
198,0.0,0.0,0.0,0.0,0.0,0.0,mongenerator-battery_670,0.0,0.0,0.0,,,,,,,,,,,,
199,0.0,0.0,0.0,0.0,0.0,0.0,mongenerator-battery_670,0.0,0.0,0.0,,,,,,,,,,,,
200,0.0,0.0,0.0,0.0,0.0,0.0,mongenerator-battery_670,0.0,0.0,0.0,,,,,,,,,,,,
201,0.0,-111.31,3.75981e-05,-110.165,-2.98705e-05,-100.775,mongenerator-battery_670,0.00146011,0.0,0.0,,,,,,,,,,,,
202,0.0,129.566,-4.70495e-05,126.614,4.16538e-05,116.203,mongenerator-battery_670,-0.00194053,0.0,0.0,,,,,,,,,,,,
203,0.0,-110.663,2.38114e-05,-109.768,-1.81296e-05,-100.098,mongenerator-battery_670,0.000844613,0.0,0.0,,,,,,,,,,,,
204,0.0,131.827,-2.73062e-05,128.747,2.39172e-05,118.205,mongenerator-battery_670,-0.00116305,0.0,0.0,,,,,,,,,,,,
205,0.0,0.0,0.0,0.0,0.0,0.0,mongenerator-battery_670,0.0,0.0,0.0,,,,,,,,,,,,
206,0.0,0.0,0.0,0.0,0.0,0.0,mongenerator-battery_670,0.0,0.0,0.0,,,,,,,,,,,,
207,0.0,0.0,0.0,0.0,0.0,0.0,mongenerator-battery_670,0.0,0.0,0.0,,,,,,,,,,,,
208,0.0,0.0,0.0,0.0,0.0,0.0,mongenerator-battery_670,0.0,0.0,0.0,,,,,,,,,,,,
209,0.0,0.0,0.0,0.0,0.0,0.0,mongenerator-battery_670,0.0,0.0,0.0,,,,,,,,,,,,
210,0.0,0.0,0.0,0.0,0.0,0.0,mongenerator-battery_670,0.0,0.0,0.0,,,,,,,,,,,,
211,0.0,0.0,0.0,0.0,0.0,0.0,mongenerator-battery_670,0.0,0.0,0.0,,,,,,,,,,,,
212,0.0,0.0,0.0,0.0,0.0,0.0,mongenerator-battery_670,0.0,0.0,0.0,,,,,,,,,,,,
213,0.0,0.0,0.0,0.0,0.0,0.0,mongenerator-battery_670,0.0,0.0,0.0,,,,,,,,,,,,
214,0.0,0.0,0.0,0.0,0.0,0.0,mongenerator-battery_670,0.0,0.0,0.0,,,,,,,,,,,,
215,0.0,0.0,0.0,0.0,0.0,0.0,mongenerator-battery_670,0.0,0.0,0.0,,,,,,,,,,,,
216,0.0,0.0,0.0,0.0,0.0,0.0,mongenerator-battery_670,0.0,0.0,0.0,,,,,,,,,,,,
217,0.0,0.0,0.0,0.0,0.0,0.0,mongenerator-battery_670,0.0,0.0,0.0,,,,,,,,,,,,
218,0.0,0.0,0.0,0.0,0.0,0.0,mongenerator-battery_670,0.0,0.0,0.0,,,,,,,,,,,,
219,0.0,0.0,0.0,0.0,0.0,0.0,mongenerator-battery_670,0.0,0.0,0.0,,,,,,,,,,,,
220,0.0,0.0,0.0,0.0,0.0,0.0,mongenerator-battery_670,0.0,0.0,0.0,,,,,,,,,,,,
221,0.0,0.0,0.0,0.0,0.0,0.0,mongenerator-battery_670,0.0,0.0,0.0,,,,,,,,,,,,
222,0.0,0.0,0.0,0.0,0.0,0.0,mongenerator-battery_670,0.0,0.0,0.0,,,,,,,,,,,,
223,0.0,0.0,0.0,0.0,0.0,0.0,mongenerator-battery_670,0.0,0.0,0.0,,,,,,,,,,,,
224,0.0,0.0,0.0,0.0,0.0,0.0,mongenerator-battery_670,0.0,0.0,0.0,,,,,,,,,,,,
225,0.0,0.0,0.0,0.0,0.0,0.0,mongenerator-battery_670,0.0,0.0,0.0,,,,,,,,,,,,
226,0.0,0.0,0.0,0.0,0.0,0.0,mongenerator-battery_670,0.0,0.0,0.0,,,,,,,,,,,,
227,0.0,-114.975,5.9237e-05,-113.151,-4.24868e-05,-102.017,mongenerator-battery_670,0.00202426,0.0,0.0,,,,,,,,,,,,
228,0.0,134.702,-5.12351e-05,132.644,5.02825e-05,118.501,mongenerator-battery_670,-0.002501,0.0,0.0,,,,,,,,,,,,
229,0.0,-93.678,3.64538e-05,-93.6109,-2.66544e-05,-83.0682,mongenerator-battery_670,0.0012987,0.0,0.0,,,,,,,,,,,,
230,0.0,42.7969,1.87858e-05,42.415,-1.62882e-05,37.6617,mongenerator-battery_670,0.000810851,0.0,0.0,,,,,,,,,,,,
231,0.0,63.556,-1.178e-05,62.9536,1.70287e-05,55.8398,mongenerator-battery_670,-0.000909197,0.0,0.0,,,,,,,,,,,,
232,0.0,0.0,0.0,0.0,0.0,0.0,mongenerator-battery_670,0.0,0.0,0.0,,,,,,,,,,,,
233,0.0,0.0,0.0,0.0,0.0,0.0,mongenerator-battery_670,0.0,0.0,0.0,,,,,,,,,,,,
234,0.0,-95.5133,-0.00113856,-97.1422,-5.12876e-06,-85.9183,mongenerator-battery_670,-0.00061502,0.0,0.0,,,,,,,,,,,,
235,0.0,0.0,0.0,0.0,0.0,0.0,mongenerator-battery_670,0.0,0.0,0.0,,,,,,,,,,,,
236,0.0,0.0,0.0,0.0,0.0,0.0,mongenerator-battery_670,0.0,0.0,0.0,,,,,,,,,,,,
237,0.0,0.0,0.0,0.0,0.0,0.0,mongenerator-battery_670,0.0,0.0,0.0,,,,,,,,,,,,
238,0.0,0.0,0.0,0.0,0.0,0.0,mongenerator-battery_670,0.0,0.0,0.0,,,,,,,,,,,,
239,0.0,0.0,0.0,0.0,0.0,0.0,mongenerator-battery_670,0.0,0.0,0.0,,,,,,,,,,,,
240,0.0,0.0,0.0,0.0,0.0,0.0,mongenerator-battery_670,0.0,0.0,0.0,,,,,,,,,,,,
241,0.0,0.0,0.0,0.0,0.0,0.0,mongenerator-battery_670,0.0,0.0,0.0,,,,,,,,,,,,
242,0.0,0.0,0.0,0.0,0.0,0.0,mongenerator-battery_670,0.0,0.0,0.0,,,,,,,,,,,,
