hour,t(sec),V1,VAngle1,V2,VAngle2,I1,IAngle1,I2,IAngle2,V3,Name,VAngle3,I3,IAngle3,V4,VAngle4,I4,IAngle4,kv,V1(PU),V2(PU),V3(PU)
1,0.0,,111.49700000000001,,0.0,20.2518,111.49700000000001,20.2518,-68.5033,2421.87,monload-611_runway,,,,,,,,2.4,,,1.0091124999999999
2,0.0,,111.50399999999999,,0.0,21.49,111.50299999999999,21.49,-68.4968,2422.44,monload-611_runway,,,,,,,,2.4,,,1.00935
3,0.0,,111.52799999999999,,0.0,18.735,111.52600000000001,18.735,-68.4739,2423.45,monload-611_runway,,,,,,,,2.4,,,1.0097708333333333
4,0.0,,111.53399999999999,,0.0,18.1696,111.53299999999999,18.1696,-68.4669,2423.72,monload-611_runway,,,,,,,,2.4,,,1.0098833333333332
5,0.0,,111.446,,0.0,18.3433,111.446,18.3433,-68.5538,2420.13,monload-611_runway,,,,,,,,2.4,,,1.0083875
6,0.0,,111.367,,0.0,19.8621,111.368,19.8621,-68.6321,2416.53,monload-611_runway,,,,,,,,2.4,,,1.0068875000000002
7,0.0,,111.04700000000001,,0.0,29.8483,111.05,29.8483,-68.9504,2403.63,monload-611_runway,,,,,,,,2.4,,,1.0015125
8,0.0,,110.988,,0.0,31.8618,110.98899999999999,31.8618,-69.0115,2400.07,monload-611_runway,,,,,,,,2.4,,,1.0000291666666667
9,0.0,,110.787,,0.0,44.0268,110.789,44.0268,-69.2109,2392.33,monload-611_runway,,,,,,,,2.4,,,0.9968041666666666
10,0.0,,110.87100000000001,,0.0,37.8158,110.87,37.8158,-69.1296,2396.04,monload-611_runway,,,,,,,,2.4,,,0.99835
11,0.0,,111.169,,0.0,26.7204,111.17299999999999,26.7204,-68.8267,2410.32,monload-611_runway,,,,,,,,2.4,,,1.0043
12,0.0,,112.053,,0.0,25.0426,112.057,25.0426,-67.9428,2439.67,monload-611_runway,,,,,,,,2.4,,,1.0165291666666667
13,0.0,,111.314,,0.0,24.9564,111.315,24.9564,-68.6851,2402.58,monload-611_runway,,,,,,,,2.4,,,1.001075
14,0.0,,111.29299999999999,,0.0,24.9959,111.292,24.9959,-68.7079,2400.96,monload-611_runway,,,,,,,,2.4,,,1.0004
15,0.0,,111.78,,0.0,24.9268,111.779,24.9268,-68.2211,2425.62,monload-611_runway,,,,,,,,2.4,,,1.010675
16,0.0,,112.346,,0.0,24.7866,112.346,24.7866,-67.6538,2454.62,monload-611_runway,,,,,,,,2.4,,,1.0227583333333332
17,0.0,,111.189,,0.0,25.989,111.19,25.989,-68.8101,2396.03,monload-611_runway,,,,,,,,2.4,,,0.9983458333333334
18,0.0,,111.01899999999999,,0.0,31.4301,111.021,31.4301,-68.9795,2387.28,monload-611_runway,,,,,,,,2.4,,,0.9947
19,0.0,,110.94,,0.0,43.1551,110.94200000000001,43.1551,-69.0576,2384.27,monload-611_runway,,,,,,,,2.4,,,0.9934458333333334
20,0.0,,110.90299999999999,,0.0,45.3034,110.905,45.3034,-69.0949,2382.53,monload-611_runway,,,,,,,,2.4,,,0.9927208333333334
21,0.0,,110.936,,0.0,47.8087,110.934,47.8087,-69.0658,2383.69,monload-611_runway,,,,,,,,2.4,,,0.9932041666666667
22,0.0,,110.971,,0.0,46.4444,110.969,46.4444,-69.0314,2385.01,monload-611_runway,,,,,,,,2.4,,,0.9937541666666667
23,0.0,,111.094,,0.0,35.6973,111.094,35.6973,-68.9059,2389.26,monload-611_runway,,,,,,,,2.4,,,0.9955250000000001
24,0.0,,111.4,,0.0,22.9122,111.398,22.9122,-68.602,2402.92,monload-611_runway,,,,,,,,2.4,,,1.0012166666666666
25,0.0,,111.429,,0.0,18.6667,111.427,18.6667,-68.5728,2403.92,monload-611_runway,,,,,,,,2.4,,,1.0016333333333334
26,0.0,,111.40899999999999,,0.0,17.8494,111.41,17.8494,-68.5901,2402.85,monload-611_runway,,,,,,,,2.4,,,1.0011875
27,0.0,,111.411,,0.0,16.9263,111.41,16.9263,-68.5897,2402.82,monload-611_runway,,,,,,,,2.4,,,1.0011750000000001
28,0.0,,111.40799999999999,,0.0,17.0116,111.40799999999999,17.0116,-68.592,2402.68,monload-611_runway,,,,,,,,2.4,,,1.0011166666666667
29,0.0,,111.035,,0.0,17.6802,111.037,17.6802,-68.9626,2387.15,monload-611_runway,,,,,,,,2.4,,,0.9946458333333333
30,0.0,,110.921,,0.0,21.26,110.921,21.26,-69.0788,2382.39,monload-611_runway,,,,,,,,2.4,,,0.9926624999999999
31,0.0,,110.65799999999999,,0.0,33.1809,110.66,33.1809,-69.3402,2375.51,monload-611_runway,,,,,,,,2.4,,,0.9897958333333334
32,0.0,,110.181,,0.0,34.8528,110.182,34.8528,-69.8178,2353.63,monload-611_runway,,,,,,,,2.4,,,0.9806791666666667
33,0.0,,110.579,,0.0,30.7756,110.57799999999999,30.7756,-69.4215,2374.76,monload-611_runway,,,,,,,,2.4,,,0.9894833333333334
34,0.0,,110.59700000000001,,0.0,31.0977,110.596,31.0977,-69.4039,2377.2,monload-611_runway,,,,,,,,2.4,,,0.9904999999999999
35,0.0,,110.62100000000001,,0.0,25.135,110.62100000000001,25.135,-69.3794,2378.81,monload-611_runway,,,,,,,,2.4,,,0.9911708333333333
36,0.0,,110.62799999999999,,0.0,26.0047,110.624,26.0047,-69.3757,2377.88,monload-611_runway,,,,,,,,2.4,,,0.9907833333333333
37,0.0,,110.65700000000001,,0.0,26.4116,110.652,26.4116,-69.3477,2382.63,monload-611_runway,,,,,,,,2.4,,,0.9927625
38,0.0,,110.59,,0.0,25.3752,110.594,25.3752,-69.4062,2377.42,monload-611_runway,,,,,,,,2.4,,,0.9905916666666666
39,0.0,,111.189,,0.0,24.5082,111.19,24.5082,-68.8097,2410.31,monload-611_runway,,,,,,,,2.4,,,1.0042958333333334
40,0.0,,110.552,,0.0,24.748,110.555,24.748,-69.445,2377.49,monload-611_runway,,,,,,,,2.4,,,0.9906208333333333
41,0.0,,110.425,,0.0,25.8685,110.428,25.8685,-69.5716,2369.38,monload-611_runway,,,,,,,,2.4,,,0.9872416666666667
42,0.0,,110.156,,0.0,31.6633,110.15799999999999,31.6633,-69.8423,2353.04,monload-611_runway,,,,,,,,2.4,,,0.9804333333333333
43,0.0,,110.649,,0.0,38.7986,110.654,38.7986,-69.3462,2374.81,monload-611_runway,,,,,,,,2.4,,,0.9895041666666666
44,0.0,,110.613,,0.0,41.1781,110.617,41.1781,-69.3834,2373.11,monload-611_runway,,,,,,,,2.4,,,0.9887958333333334
45,0.0,,110.855,,0.0,45.1231,110.852,45.1231,-69.1476,2383.3,monload-611_runway,,,,,,,,2.4,,,0.9930416666666667
46,0.0,,110.87299999999999,,0.0,42.3023,110.87299999999999,42.3023,-69.1269,2383.19,monload-611_runway,,,,,,,,2.4,,,0.9929958333333334
47,0.0,,110.93,,0.0,30.8497,110.931,30.8497,-69.069,2382.29,monload-611_runway,,,,,,,,2.4,,,0.9926208333333333
48,0.0,,111.20200000000001,,0.0,21.1497,111.199,21.1497,-68.8015,2394.57,monload-611_runway,,,,,,,,2.4,,,0.9977375
49,0.0,,111.208,,0.0,18.8942,111.206,18.8942,-68.7939,2394.42,monload-611_runway,,,,,,,,2.4,,,0.997675
50,0.0,,111.21,,0.0,18.3946,111.209,18.3946,-68.7906,2394.33,monload-611_runway,,,,,,,,2.4,,,0.9976375
51,0.0,,111.24,,0.0,17.8874,111.236,17.8874,-68.764,2395.58,monload-611_runway,,,,,,,,2.4,,,0.9981583333333333
52,0.0,,111.255,,0.0,18.4384,111.25299999999999,18.4384,-68.7465,2396.38,monload-611_runway,,,,,,,,2.4,,,0.9984916666666667
53,0.0,,110.931,,0.0,19.6598,110.935,19.6598,-69.065,2383.22,monload-611_runway,,,,,,,,2.4,,,0.9930083333333333
54,0.0,,110.76799999999999,,0.0,23.9779,110.77,23.9779,-69.2297,2375.99,monload-611_runway,,,,,,,,2.4,,,0.9899958333333333
55,0.0,,110.51700000000001,,0.0,35.7182,110.51899999999999,35.7182,-69.4813,2369.15,monload-611_runway,,,,,,,,2.4,,,0.9871458333333334
56,0.0,,110.00299999999999,,0.0,35.9782,110.005,35.9782,-69.9953,2345.16,monload-611_runway,,,,,,,,2.4,,,0.97715
57,0.0,,110.402,,0.0,31.5574,110.4,31.5574,-69.6003,2367.29,monload-611_runway,,,,,,,,2.4,,,0.9863708333333333
58,0.0,,110.531,,0.0,31.2533,110.53399999999999,31.2533,-69.4662,2376.99,monload-611_runway,,,,,,,,2.4,,,0.9904124999999999
59,0.0,,110.82700000000001,,0.0,24.7817,110.82799999999999,24.7817,-69.1719,2391.68,monload-611_runway,,,,,,,,2.4,,,0.9965333333333333
60,0.0,,110.661,,0.0,25.9092,110.662,25.9092,-69.3379,2380.96,monload-611_runway,,,,,,,,2.4,,,0.9920666666666667
61,0.0,,110.723,,0.0,27.1001,110.72,27.1001,-69.2795,2385.07,monload-611_runway,,,,,,,,2.4,,,0.9937791666666668
62,0.0,,110.605,,0.0,27.5835,110.60799999999999,27.5835,-69.3921,2379.88,monload-611_runway,,,,,,,,2.4,,,0.9916166666666667
63,0.0,,110.537,,0.0,27.9419,110.539,27.9419,-69.4607,2375.83,monload-611_runway,,,,,,,,2.4,,,0.9899291666666666
64,0.0,,110.48899999999999,,0.0,28.0794,110.49,28.0794,-69.5099,2373.03,monload-611_runway,,,,,,,,2.4,,,0.9887625000000001
65,0.0,,110.375,,0.0,28.5183,110.37799999999999,28.5183,-69.6224,2366.14,monload-611_runway,,,,,,,,2.4,,,0.9858916666666666
66,0.0,,110.15299999999999,,0.0,32.6003,110.154,32.6003,-69.8462,2352.56,monload-611_runway,,,,,,,,2.4,,,0.9802333333333333
67,0.0,,110.708,,0.0,38.728,110.70700000000001,38.728,-69.2926,2377.1,monload-611_runway,,,,,,,,2.4,,,0.9904583333333333
68,0.0,,110.669,,0.0,40.8709,110.669,40.8709,-69.3305,2375.23,monload-611_runway,,,,,,,,2.4,,,0.9896791666666667
69,0.0,,110.921,,0.0,44.806000000000004,110.919,44.806000000000004,-69.0814,2385.74,monload-611_runway,,,,,,,,2.4,,,0.9940583333333333
70,0.0,,110.926,,0.0,41.9513,110.927,41.9513,-69.0735,2385.08,monload-611_runway,,,,,,,,2.4,,,0.9937833333333334
71,0.0,,111.007,,0.0,30.874000000000002,111.008,30.874000000000002,-68.992,2385.36,monload-611_runway,,,,,,,,2.4,,,0.9939
72,0.0,,111.285,,0.0,21.1947,111.28200000000001,21.1947,-68.7182,2397.89,monload-611_runway,,,,,,,,2.4,,,0.9991208333333332
73,0.0,,111.324,,0.0,18.5785,111.318,18.5785,-68.6821,2399.14,monload-611_runway,,,,,,,,2.4,,,0.9996416666666667
74,0.0,,111.32,,0.0,17.7129,111.321,17.7129,-68.6794,2398.81,monload-611_runway,,,,,,,,2.4,,,0.9995041666666666
75,0.0,,111.34,,0.0,16.7422,111.338,16.7422,-68.6617,2399.7,monload-611_runway,,,,,,,,2.4,,,0.999875
76,0.0,,111.34200000000001,,0.0,16.8093,111.34200000000001,16.8093,-68.6583,2399.77,monload-611_runway,,,,,,,,2.4,,,0.9999041666666667
77,0.0,,110.976,,0.0,17.5128,110.98,17.5128,-69.0202,2384.55,monload-611_runway,,,,,,,,2.4,,,0.9935625000000001
78,0.0,,110.882,,0.0,20.9229,110.883,20.9229,-69.117,2380.41,monload-611_runway,,,,,,,,2.4,,,0.9918374999999999
79,0.0,,110.47,,0.0,32.7171,110.47399999999999,32.7171,-69.5259,2366.1,monload-611_runway,,,,,,,,2.4,,,0.985875
80,0.0,,110.04899999999999,,0.0,34.9942,110.05,34.9942,-69.9495,2347.14,monload-611_runway,,,,,,,,2.4,,,0.9779749999999999
81,0.0,,110.579,,0.0,30.82,110.575,30.82,-69.4248,2377.23,monload-611_runway,,,,,,,,2.4,,,0.9905125
82,0.0,,112.09899999999999,,0.0,30.1071,112.09899999999999,30.1071,-67.9009,2455.71,monload-611_runway,,,,,,,,2.4,,,1.0232125
83,0.0,,114.01899999999999,,0.0,23.2162,114.01899999999999,23.2162,-65.9813,2534.87,monload-611_runway,,,,,,,,2.4,,,1.0561958333333332
84,0.0,,115.851,,0.0,24.444000000000003,115.851,24.444000000000003,-64.1488,2607.77,monload-611_runway,,,,,,,,2.4,,,1.0865708333333333
85,0.0,,116.645,,0.0,25.7949,116.646,25.7949,-63.3543,2628.2,monload-611_runway,,,,,,,,2.4,,,1.0950833333333332
86,0.0,,116.072,,0.0,26.9079,116.073,26.9079,-63.9269,2601.92,monload-611_runway,,,,,,,,2.4,,,1.0841333333333334
87,0.0,,114.821,,0.0,26.636999999999997,114.821,26.636999999999997,-65.1794,2542.2,monload-611_runway,,,,,,,,2.4,,,1.05925
88,0.0,,112.596,,0.0,26.3335,112.594,26.3335,-67.4063,2450.31,monload-611_runway,,,,,,,,2.4,,,1.0209625
89,0.0,,110.366,,0.0,27.5633,110.366,27.5633,-69.6343,2368.78,monload-611_runway,,,,,,,,2.4,,,0.9869916666666667
90,0.0,,110.05,,0.0,33.8235,110.052,33.8235,-69.9483,2348.97,monload-611_runway,,,,,,,,2.4,,,0.9787374999999999
91,0.0,,110.552,,0.0,41.4629,110.551,41.4629,-69.4492,2370.88,monload-611_runway,,,,,,,,2.4,,,0.9878666666666667
92,0.0,,110.53,,0.0,44.545,110.53200000000001,44.545,-69.4681,2369.88,monload-611_runway,,,,,,,,2.4,,,0.98745
93,0.0,,110.78,,0.0,49.2734,110.78,49.2734,-69.2199,2380.36,monload-611_runway,,,,,,,,2.4,,,0.9918166666666667
94,0.0,,110.78,,0.0,46.4184,110.781,46.4184,-69.2193,2379.54,monload-611_runway,,,,,,,,2.4,,,0.991475
95,0.0,,110.866,,0.0,34.3923,110.866,34.3923,-69.1344,2380.19,monload-611_runway,,,,,,,,2.4,,,0.9917458333333333
96,0.0,,111.14299999999999,,0.0,24.0131,111.14,24.0131,-68.8598,2392.77,monload-611_runway,,,,,,,,2.4,,,0.9969875
97,0.0,,111.20200000000001,,0.0,21.7964,111.196,21.7964,-68.8038,2395.06,monload-611_runway,,,,,,,,2.4,,,0.9979416666666666
98,0.0,,111.20299999999999,,0.0,20.8093,111.204,20.8093,-68.7965,2394.95,monload-611_runway,,,,,,,,2.4,,,0.9978958333333332
99,0.0,,111.227,,0.0,19.5335,111.22399999999999,19.5335,-68.7756,2395.94,monload-611_runway,,,,,,,,2.4,,,0.9983083333333334
100,0.0,,111.256,,0.0,19.3539,111.25299999999999,19.3539,-68.7473,2397.16,monload-611_runway,,,,,,,,2.4,,,0.9988166666666666
101,0.0,,110.93299999999999,,0.0,19.795,110.936,19.795,-69.0636,2383.57,monload-611_runway,,,,,,,,2.4,,,0.9931541666666668
102,0.0,,110.791,,0.0,23.6849,110.792,23.6849,-69.2075,2377.32,monload-611_runway,,,,,,,,2.4,,,0.99055
103,0.0,,110.18,,0.0,38.4226,110.181,38.4226,-69.8189,2352.75,monload-611_runway,,,,,,,,2.4,,,0.9803125
104,0.0,,109.82,,0.0,42.7031,109.821,42.7031,-70.1786,2336.8,monload-611_runway,,,,,,,,2.4,,,0.9736666666666668
105,0.0,,110.37799999999999,,0.0,39.7651,110.37899999999999,39.7651,-69.6212,2368.49,monload-611_runway,,,,,,,,2.4,,,0.9868708333333333
106,0.0,,111.34,,0.0,42.458999999999996,111.339,42.458999999999996,-68.6607,2419.76,monload-611_runway,,,,,,,,2.4,,,1.0082333333333333
107,0.0,,113.23700000000001,,0.0,36.7749,113.23899999999999,36.7749,-66.7613,2498.53,monload-611_runway,,,,,,,,2.4,,,1.0410541666666668
108,0.0,,115.09700000000001,,0.0,35.6561,115.09700000000001,35.6561,-64.9025,2572.82,monload-611_runway,,,,,,,,2.4,,,1.0720083333333335
109,0.0,,116.14200000000001,,0.0,36.5259,116.14299999999999,36.5259,-63.8572,2605.24,monload-611_runway,,,,,,,,2.4,,,1.0855166666666667
110,0.0,,115.488,,0.0,36.9361,115.48899999999999,36.9361,-64.5107,2574.79,monload-611_runway,,,,,,,,2.4,,,1.0728291666666667
111,0.0,,114.212,,0.0,36.556999999999995,114.211,36.556999999999995,-65.7889,2513.55,monload-611_runway,,,,,,,,2.4,,,1.0473125
112,0.0,,111.98700000000001,,0.0,35.8436,111.985,35.8436,-68.0155,2420.96,monload-611_runway,,,,,,,,2.4,,,1.0087333333333333
113,0.0,,110.28399999999999,,0.0,37.3236,110.28399999999999,37.3236,-69.7161,2364.49,monload-611_runway,,,,,,,,2.4,,,0.9852041666666665
114,0.0,,110.07799999999999,,0.0,42.3539,110.079,42.3539,-69.921,2350.01,monload-611_runway,,,,,,,,2.4,,,0.9791708333333334
115,0.0,,110.64,,0.0,48.2942,110.64,48.2942,-69.36,2374.55,monload-611_runway,,,,,,,,2.4,,,0.9893958333333334
116,0.0,,110.641,,0.0,50.8826,110.64,50.8826,-69.3602,2374.65,monload-611_runway,,,,,,,,2.4,,,0.9894375000000001
117,0.0,,110.881,,0.0,55.1034,110.87799999999999,55.1034,-69.1216,2384.78,monload-611_runway,,,,,,,,2.4,,,0.9936583333333334
118,0.0,,110.84700000000001,,0.0,52.4571,110.848,52.4571,-69.1524,2382.14,monload-611_runway,,,,,,,,2.4,,,0.9925583333333333
119,0.0,,110.955,,0.0,40.733000000000004,110.955,40.733000000000004,-69.0449,2383.76,monload-611_runway,,,,,,,,2.4,,,0.9932333333333334
120,0.0,,111.257,,0.0,29.5798,111.25399999999999,29.5798,-68.7457,2397.36,monload-611_runway,,,,,,,,2.4,,,0.9989
121,0.0,,111.366,,0.0,25.8806,111.365,25.8806,-68.6347,2401.88,monload-611_runway,,,,,,,,2.4,,,1.0007833333333334
122,0.0,,111.368,,0.0,24.5759,111.369,24.5759,-68.6315,2401.8,monload-611_runway,,,,,,,,2.4,,,1.00075
123,0.0,,111.39200000000001,,0.0,22.9971,111.39,22.9971,-68.6102,2402.77,monload-611_runway,,,,,,,,2.4,,,1.0011541666666666
124,0.0,,111.40299999999999,,0.0,22.3842,111.402,22.3842,-68.5977,2403.3,monload-611_runway,,,,,,,,2.4,,,1.0013750000000001
125,0.0,,111.089,,0.0,22.8134,111.09200000000001,22.8134,-68.9076,2390.64,monload-611_runway,,,,,,,,2.4,,,0.9961
126,0.0,,110.969,,0.0,26.7316,110.971,26.7316,-69.0294,2385.34,monload-611_runway,,,,,,,,2.4,,,0.9938916666666667
127,0.0,,110.35,,0.0,41.3038,110.352,41.3038,-69.6484,2360.63,monload-611_runway,,,,,,,,2.4,,,0.9835958333333333
128,0.0,,109.946,,0.0,45.5509,109.947,45.5509,-70.0529,2342.57,monload-611_runway,,,,,,,,2.4,,,0.9760708333333334
129,0.0,,110.346,,0.0,44.0571,110.351,44.0571,-69.6492,2365.87,monload-611_runway,,,,,,,,2.4,,,0.9857791666666667
130,0.0,,110.384,,0.0,44.3574,110.381,44.3574,-69.6187,2370.91,monload-611_runway,,,,,,,,2.4,,,0.9878791666666666
131,0.0,,112.8,,0.0,38.3172,112.8,38.3172,-67.2,2476.4,monload-611_runway,,,,,,,,2.4,,,1.0318333333333334
132,0.0,,112.24600000000001,,0.0,39.0492,112.241,39.0492,-67.7591,2448.94,monload-611_runway,,,,,,,,2.4,,,1.0203916666666666
133,0.0,,113.419,,0.0,39.7514,113.42,39.7514,-66.58,2506.05,monload-611_runway,,,,,,,,2.4,,,1.0441875
134,0.0,,113.368,,0.0,40.3209,113.368,40.3209,-66.6316,2504.37,monload-611_runway,,,,,,,,2.4,,,1.0434875
135,0.0,,113.32700000000001,,0.0,40.0177,113.32799999999999,40.0177,-66.6721,2502.41,monload-611_runway,,,,,,,,2.4,,,1.0426708333333332
136,0.0,,111.381,,0.0,38.751,111.383,38.751,-68.6171,2406.02,monload-611_runway,,,,,,,,2.4,,,1.0025083333333333
137,0.0,,110.281,,0.0,37.858000000000004,110.279,37.858000000000004,-69.721,2363.97,monload-611_runway,,,,,,,,2.4,,,0.9849874999999999
138,0.0,,110.044,,0.0,42.9001,110.04799999999999,42.9001,-69.9522,2348.21,monload-611_runway,,,,,,,,2.4,,,0.9784208333333333
139,0.0,,110.51899999999999,,0.0,49.9773,110.51899999999999,49.9773,-69.4814,2368.67,monload-611_runway,,,,,,,,2.4,,,0.9869458333333334
140,0.0,,110.48100000000001,,0.0,52.678000000000004,110.48100000000001,52.678000000000004,-69.5186,2366.87,monload-611_runway,,,,,,,,2.4,,,0.9861958333333333
141,0.0,,110.713,,0.0,57.1881,110.71,57.1881,-69.2899,2376.72,monload-611_runway,,,,,,,,2.4,,,0.9903
142,0.0,,110.78299999999999,,0.0,51.6617,110.78299999999999,51.6617,-69.217,2378.95,monload-611_runway,,,,,,,,2.4,,,0.9912291666666666
143,0.0,,111.038,,0.0,37.0848,111.038,37.0848,-68.9622,2387.41,monload-611_runway,,,,,,,,2.4,,,0.9947541666666666
144,0.0,,111.336,,0.0,25.3175,111.334,25.3175,-68.6664,2400.78,monload-611_runway,,,,,,,,2.4,,,1.0003250000000001
145,0.0,,111.36200000000001,,0.0,23.1146,111.36,23.1146,-68.6398,2401.39,monload-611_runway,,,,,,,,2.4,,,1.0005791666666666
146,0.0,,111.333,,0.0,22.7156,111.336,22.7156,-68.6636,2400.05,monload-611_runway,,,,,,,,2.4,,,1.0000208333333334
147,0.0,,111.368,,0.0,19.4987,111.365,19.4987,-68.6345,2401.48,monload-611_runway,,,,,,,,2.4,,,1.0006166666666667
148,0.0,,111.376,,0.0,19.1538,111.375,19.1538,-68.6248,2401.79,monload-611_runway,,,,,,,,2.4,,,1.0007458333333332
149,0.0,,111.286,,0.0,19.44,111.287,19.44,-68.71300000000001,2398.1,monload-611_runway,,,,,,,,2.4,,,0.9992083333333333
150,0.0,,111.208,,0.0,20.7921,111.208,20.7921,-68.7916,2394.5,monload-611_runway,,,,,,,,2.4,,,0.9977083333333333
151,0.0,,111.10700000000001,,0.0,30.6613,111.10700000000001,30.6613,-68.8933,2392.8,monload-611_runway,,,,,,,,2.4,,,0.9970000000000001
152,0.0,,110.721,,0.0,32.5578,110.721,32.5578,-69.2786,2375.52,monload-611_runway,,,,,,,,2.4,,,0.9898
153,0.0,,110.939,,0.0,45.5458,110.93799999999999,45.5458,-69.0617,2389.08,monload-611_runway,,,,,,,,2.4,,,0.99545
154,0.0,,110.89399999999999,,0.0,40.6198,110.896,40.6198,-69.1043,2389.01,monload-611_runway,,,,,,,,2.4,,,0.9954208333333334
155,0.0,,115.145,,0.0,32.4219,115.145,32.4219,-64.8547,2567.86,monload-611_runway,,,,,,,,2.4,,,1.0699416666666668
156,0.0,,116.705,,0.0,32.6583,116.705,32.6583,-63.2948,2625.76,monload-611_runway,,,,,,,,2.4,,,1.0940666666666667
157,0.0,,116.068,,0.0,32.9748,116.069,32.9748,-63.9311,2594.51,monload-611_runway,,,,,,,,2.4,,,1.0810458333333335
158,0.0,,115.82600000000001,,0.0,32.5572,115.82700000000001,32.5572,-64.1733,2582.77,monload-611_runway,,,,,,,,2.4,,,1.0761541666666667
159,0.0,,114.68700000000001,,0.0,32.1346,114.68700000000001,32.1346,-65.3132,2527.73,monload-611_runway,,,,,,,,2.4,,,1.0532208333333333
160,0.0,,111.932,,0.0,33.0122,111.931,33.0122,-68.0694,2422.86,monload-611_runway,,,,,,,,2.4,,,1.009525
161,0.0,,110.95,,0.0,33.2851,110.949,33.2851,-69.051,2388.24,monload-611_runway,,,,,,,,2.4,,,0.9950999999999999
162,0.0,,110.93700000000001,,0.0,36.5459,110.93700000000001,36.5459,-69.0631,2386.4,monload-611_runway,,,,,,,,2.4,,,0.9943333333333334
163,0.0,,110.689,,0.0,47.5561,110.69200000000001,47.5561,-69.3079,2374.48,monload-611_runway,,,,,,,,2.4,,,0.9893666666666667
164,0.0,,110.575,,0.0,49.2997,110.57600000000001,49.2997,-69.4238,2368.77,monload-611_runway,,,,,,,,2.4,,,0.9869875
165,0.0,,110.852,,0.0,51.8892,110.85,51.8892,-69.1502,2380.68,monload-611_runway,,,,,,,,2.4,,,0.9919499999999999
166,0.0,,110.777,,0.0,51.0972,110.77799999999999,51.0972,-69.2221,2376.65,monload-611_runway,,,,,,,,2.4,,,0.9902708333333333
167,0.0,,110.969,,0.0,40.8171,110.969,40.8171,-69.0308,2384.23,monload-611_runway,,,,,,,,2.4,,,0.9934291666666667
