hour,t(sec),V1,VAngle1,V2,VAngle2,I1,IAngle1,I2,IAngle2,V3,Name,VAngle3,I3,IAngle3,V4,VAngle4,I4,IAngle4,kv,V1(PU),V2(PU),V3(PU)
1,0.0,,114.496,,0.0,20.2518,114.497,20.2518,-65.5027,2358.5,monload-611_runway,,,,,,,,2.4,,,0.9827083333333333
2,0.0,,114.475,,0.0,21.49,114.476,21.49,-65.5238,2357.71,monload-611_runway,,,,,,,,2.4,,,0.9823791666666667
3,0.0,,114.505,,0.0,18.735,114.502,18.735,-65.4978,2358.91,monload-611_runway,,,,,,,,2.4,,,0.9828791666666666
4,0.0,,114.511,,0.0,18.1696,114.51,18.1696,-65.4896,2359.17,monload-611_runway,,,,,,,,2.4,,,0.9829875
5,0.0,,114.349,,0.0,18.3433,114.35,18.3433,-65.6496,2352.64,monload-611_runway,,,,,,,,2.4,,,0.9802666666666666
6,0.0,,114.254,,0.0,19.8621,114.255,19.8621,-65.7448,2348.67,monload-611_runway,,,,,,,,2.4,,,0.9786125
7,0.0,,113.599,,0.0,29.8483,113.6,29.8483,-66.4,2322.24,monload-611_runway,,,,,,,,2.4,,,0.9675999999999999
8,0.0,,113.585,,0.0,31.8618,113.586,31.8618,-66.4143,2321.73,monload-611_runway,,,,,,,,2.4,,,0.9673875
9,0.0,,113.215,,0.0,44.0268,113.219,44.0268,-66.7807,2307.6,monload-611_runway,,,,,,,,2.4,,,0.9614999999999999
10,0.0,,113.942,,0.0,37.8158,113.936,37.8158,-66.0637,2340.59,monload-611_runway,,,,,,,,2.4,,,0.9752458333333334
11,0.0,,114.004,,0.0,26.7204,114.004,26.7204,-65.9958,2341.7,monload-611_runway,,,,,,,,2.4,,,0.9757083333333333
12,0.0,,114.936,,0.0,25.0426,114.935,25.0426,-65.0645,2382.16,monload-611_runway,,,,,,,,2.4,,,0.9925666666666666
13,0.0,,114.26,,0.0,24.9564,114.259,24.9564,-65.741,2353.46,monload-611_runway,,,,,,,,2.4,,,0.9806083333333333
14,0.0,,114.112,,0.0,24.9959,114.114,24.9959,-65.8856,2345.48,monload-611_runway,,,,,,,,2.4,,,0.9772833333333334
15,0.0,,114.62,,0.0,24.9268,114.619,24.9268,-65.3807,2368.0,monload-611_runway,,,,,,,,2.4,,,0.9866666666666667
16,0.0,,115.1,,0.0,24.7866,115.095,24.7866,-64.9053,2389.77,monload-611_runway,,,,,,,,2.4,,,0.9957374999999999
17,0.0,,114.205,,0.0,25.989,114.207,25.989,-65.7934,2350.32,monload-611_runway,,,,,,,,2.4,,,0.9793000000000001
18,0.0,,113.526,,0.0,31.4301,113.527,31.4301,-66.4728,2319.22,monload-611_runway,,,,,,,,2.4,,,0.9663416666666665
19,0.0,,113.32,,0.0,43.1551,113.322,43.1551,-66.6782,2310.45,monload-611_runway,,,,,,,,2.4,,,0.9626874999999999
20,0.0,,113.308,,0.0,45.3034,113.308,45.3034,-66.6922,2310.02,monload-611_runway,,,,,,,,2.4,,,0.9625083333333333
21,0.0,,113.418,,0.0,47.8087,113.417,47.8087,-66.583,2314.49,monload-611_runway,,,,,,,,2.4,,,0.9643708333333333
22,0.0,,113.536,,0.0,46.4444,113.535,46.4444,-66.4651,2319.5,monload-611_runway,,,,,,,,2.4,,,0.9664583333333333
23,0.0,,113.952,,0.0,35.6973,113.949,35.6973,-66.0515,2336.49,monload-611_runway,,,,,,,,2.4,,,0.9735375
24,0.0,,114.311,,0.0,22.9122,114.308,22.9122,-65.6919,2350.98,monload-611_runway,,,,,,,,2.4,,,0.979575
25,0.0,,114.415,,0.0,18.6667,114.414,18.6667,-65.586,2355.28,monload-611_runway,,,,,,,,2.4,,,0.9813666666666667
26,0.0,,114.421,,0.0,17.8494,114.42,17.8494,-65.5796,2355.53,monload-611_runway,,,,,,,,2.4,,,0.9814708333333334
27,0.0,,114.439,,0.0,16.9263,114.438,16.9263,-65.5625,2356.23,monload-611_runway,,,,,,,,2.4,,,0.9817625
28,0.0,,114.442,,0.0,17.0116,114.442,17.0116,-65.5578,2356.37,monload-611_runway,,,,,,,,2.4,,,0.9818208333333333
29,0.0,,113.824,,0.0,17.6802,113.825,17.6802,-66.1751,2331.66,monload-611_runway,,,,,,,,2.4,,,0.971525
30,0.0,,113.606,,0.0,21.26,113.608,21.26,-66.3917,2322.72,monload-611_runway,,,,,,,,2.4,,,0.9677999999999999
31,0.0,,112.284,,0.0,33.1809,112.283,33.1809,-67.7172,2283.3,monload-611_runway,,,,,,,,2.4,,,0.9513750000000001
32,0.0,,111.728,,0.0,34.5358,111.728,34.5358,-68.2719,2260.38,monload-611_runway,,,,,,,,2.4,,,0.941825
33,0.0,,111.996,,0.0,30.6808,111.996,30.6808,-68.004,2273.35,monload-611_runway,,,,,,,,2.4,,,0.9472291666666667
34,0.0,,112.256,,0.0,31.0977,112.252,31.0977,-67.7479,2286.92,monload-611_runway,,,,,,,,2.4,,,0.9528833333333334
35,0.0,,112.604,,0.0,25.135,112.602,25.135,-67.3976,2303.14,monload-611_runway,,,,,,,,2.4,,,0.9596416666666666
36,0.0,,111.867,,0.0,25.8698,111.867,25.8698,-68.1334,2268.8,monload-611_runway,,,,,,,,2.4,,,0.9453333333333334
37,0.0,,113.342,,0.0,26.4116,113.343,26.4116,-66.6565,2337.97,monload-611_runway,,,,,,,,2.4,,,0.9741541666666665
38,0.0,,112.534,,0.0,25.3752,112.532,25.3752,-67.4679,2300.86,monload-611_runway,,,,,,,,2.4,,,0.9586916666666667
39,0.0,,114.175,,0.0,24.5082,114.175,24.5082,-65.8252,2375.34,monload-611_runway,,,,,,,,2.4,,,0.9897250000000001
40,0.0,,113.343,,0.0,24.748,113.34,24.748,-66.6599,2338.64,monload-611_runway,,,,,,,,2.4,,,0.9744333333333333
41,0.0,,112.293,,0.0,25.8685,112.294,25.8685,-67.7058,2289.97,monload-611_runway,,,,,,,,2.4,,,0.9541541666666666
42,0.0,,111.607,,0.0,31.3307,111.607,31.3307,-68.3933,2257.31,monload-611_runway,,,,,,,,2.4,,,0.9405458333333333
43,0.0,,112.15,,0.0,38.7475,112.15,38.7475,-67.8502,2277.14,monload-611_runway,,,,,,,,2.4,,,0.9488083333333333
44,0.0,,112.133,,0.0,41.111,112.133,41.111,-67.8673,2276.48,monload-611_runway,,,,,,,,2.4,,,0.9485333333333333
45,0.0,,112.739,,0.0,45.1231,112.737,45.1231,-67.2628,2301.44,monload-611_runway,,,,,,,,2.4,,,0.9589333333333333
46,0.0,,113.024,,0.0,42.3023,113.018,42.3023,-66.9818,2313.38,monload-611_runway,,,,,,,,2.4,,,0.9639083333333334
47,0.0,,113.752,,0.0,30.8497,113.751,30.8497,-66.2495,2343.12,monload-611_runway,,,,,,,,2.4,,,0.9763
48,0.0,,114.061,,0.0,21.1497,114.056,21.1497,-65.9436,2355.74,monload-611_runway,,,,,,,,2.4,,,0.9815583333333332
49,0.0,,114.161,,0.0,18.8942,114.159,18.8942,-65.8408,2359.89,monload-611_runway,,,,,,,,2.4,,,0.9832875
50,0.0,,114.193,,0.0,18.3946,114.189,18.3946,-65.8111,2361.19,monload-611_runway,,,,,,,,2.4,,,0.9838291666666666
51,0.0,,114.243,,0.0,17.8874,114.236,17.8874,-65.7636,2363.18,monload-611_runway,,,,,,,,2.4,,,0.9846583333333333
52,0.0,,114.243,,0.0,18.4384,114.243,18.4384,-65.7574,2363.12,monload-611_runway,,,,,,,,2.4,,,0.9846333333333332
53,0.0,,113.629,,0.0,19.6598,113.631,19.6598,-66.3693,2338.36,monload-611_runway,,,,,,,,2.4,,,0.9743166666666667
54,0.0,,113.379,,0.0,23.9779,113.384,23.9779,-66.616,2328.02,monload-611_runway,,,,,,,,2.4,,,0.9700083333333334
55,0.0,,112.048,,0.0,35.6091,112.048,35.6091,-67.9521,2273.4,monload-611_runway,,,,,,,,2.4,,,0.94725
56,0.0,,111.522,,0.0,35.5065,111.523,35.5065,-68.4767,2251.68,monload-611_runway,,,,,,,,2.4,,,0.9381999999999999
57,0.0,,112.649,,0.0,31.5574,112.651,31.5574,-67.3489,2305.58,monload-611_runway,,,,,,,,2.4,,,0.9606583333333333
58,0.0,,113.234,,0.0,31.2533,113.231,31.2533,-66.769,2334.14,monload-611_runway,,,,,,,,2.4,,,0.9725583333333333
59,0.0,,113.944,,0.0,24.7817,113.944,24.7817,-66.0558,2364.68,monload-611_runway,,,,,,,,2.4,,,0.9852833333333333
60,0.0,,0.0,,0.0,0.0,0.0,0.0,0.0,0.0,monload-611_runway,,,,,,,,2.4,,,0.0
61,0.0,,0.0,,0.0,0.0,0.0,0.0,0.0,0.0,monload-611_runway,,,,,,,,2.4,,,0.0
62,0.0,,0.0,,0.0,0.0,0.0,0.0,0.0,0.0,monload-611_runway,,,,,,,,2.4,,,0.0
63,0.0,,0.0,,0.0,0.0,0.0,0.0,0.0,0.0,monload-611_runway,,,,,,,,2.4,,,0.0
64,0.0,,0.0,,0.0,0.0,0.0,0.0,0.0,0.0,monload-611_runway,,,,,,,,2.4,,,0.0
65,0.0,,0.0,,0.0,0.0,0.0,0.0,0.0,0.0,monload-611_runway,,,,,,,,2.4,,,0.0
66,0.0,,0.0,,0.0,0.0,0.0,0.0,0.0,0.0,monload-611_runway,,,,,,,,2.4,,,0.0
67,0.0,,0.0,,0.0,0.0,0.0,0.0,0.0,0.0,monload-611_runway,,,,,,,,2.4,,,0.0
68,0.0,,0.0,,0.0,0.0,0.0,0.0,0.0,0.0,monload-611_runway,,,,,,,,2.4,,,0.0
69,0.0,,0.0,,0.0,0.0,0.0,0.0,0.0,0.0,monload-611_runway,,,,,,,,2.4,,,0.0
70,0.0,,0.0,,0.0,0.0,0.0,0.0,0.0,0.0,monload-611_runway,,,,,,,,2.4,,,0.0
71,0.0,,0.0,,0.0,0.0,0.0,0.0,0.0,0.0,monload-611_runway,,,,,,,,2.4,,,0.0
72,0.0,,0.0,,0.0,0.0,0.0,0.0,0.0,0.0,monload-611_runway,,,,,,,,2.4,,,0.0
73,0.0,,0.0,,0.0,0.0,0.0,0.0,0.0,0.0,monload-611_runway,,,,,,,,2.4,,,0.0
74,0.0,,0.0,,0.0,0.0,0.0,0.0,0.0,0.0,monload-611_runway,,,,,,,,2.4,,,0.0
75,0.0,,0.0,,0.0,0.0,0.0,0.0,0.0,0.0,monload-611_runway,,,,,,,,2.4,,,0.0
76,0.0,,0.0,,0.0,0.0,0.0,0.0,0.0,0.0,monload-611_runway,,,,,,,,2.4,,,0.0
77,0.0,,0.0,,0.0,0.0,0.0,0.0,0.0,0.0,monload-611_runway,,,,,,,,2.4,,,0.0
78,0.0,,0.0,,0.0,0.0,0.0,0.0,0.0,0.0,monload-611_runway,,,,,,,,2.4,,,0.0
79,0.0,,0.0,,0.0,0.0,0.0,0.0,0.0,0.0,monload-611_runway,,,,,,,,2.4,,,0.0
80,0.0,,0.0,,0.0,0.0,0.0,0.0,0.0,0.0,monload-611_runway,,,,,,,,2.4,,,0.0
81,0.0,,0.0,,0.0,0.0,0.0,0.0,0.0,0.0,monload-611_runway,,,,,,,,2.4,,,0.0
82,0.0,,0.0,,0.0,0.0,0.0,0.0,0.0,0.0,monload-611_runway,,,,,,,,2.4,,,0.0
83,0.0,,0.0,,0.0,0.0,0.0,0.0,0.0,0.0,monload-611_runway,,,,,,,,2.4,,,0.0
84,0.0,,0.0,,0.0,0.0,0.0,0.0,0.0,0.0,monload-611_runway,,,,,,,,2.4,,,0.0
85,0.0,,0.0,,0.0,0.0,0.0,0.0,0.0,0.0,monload-611_runway,,,,,,,,2.4,,,0.0
86,0.0,,0.0,,0.0,0.0,0.0,0.0,0.0,0.0,monload-611_runway,,,,,,,,2.4,,,0.0
87,0.0,,0.0,,0.0,0.0,0.0,0.0,0.0,0.0,monload-611_runway,,,,,,,,2.4,,,0.0
88,0.0,,0.0,,0.0,0.0,0.0,0.0,0.0,0.0,monload-611_runway,,,,,,,,2.4,,,0.0
89,0.0,,0.0,,0.0,0.0,0.0,0.0,0.0,0.0,monload-611_runway,,,,,,,,2.4,,,0.0
90,0.0,,0.0,,0.0,0.0,0.0,0.0,0.0,0.0,monload-611_runway,,,,,,,,2.4,,,0.0
91,0.0,,0.0,,0.0,0.0,0.0,0.0,0.0,0.0,monload-611_runway,,,,,,,,2.4,,,0.0
92,0.0,,0.0,,0.0,0.0,0.0,0.0,0.0,0.0,monload-611_runway,,,,,,,,2.4,,,0.0
93,0.0,,0.0,,0.0,0.0,0.0,0.0,0.0,0.0,monload-611_runway,,,,,,,,2.4,,,0.0
94,0.0,,0.0,,0.0,0.0,0.0,0.0,0.0,0.0,monload-611_runway,,,,,,,,2.4,,,0.0
95,0.0,,0.0,,0.0,0.0,0.0,0.0,0.0,0.0,monload-611_runway,,,,,,,,2.4,,,0.0
96,0.0,,0.0,,0.0,0.0,0.0,0.0,0.0,0.0,monload-611_runway,,,,,,,,2.4,,,0.0
97,0.0,,0.0,,0.0,0.0,0.0,0.0,0.0,0.0,monload-611_runway,,,,,,,,2.4,,,0.0
98,0.0,,0.0,,0.0,0.0,0.0,0.0,0.0,0.0,monload-611_runway,,,,,,,,2.4,,,0.0
99,0.0,,0.0,,0.0,0.0,0.0,0.0,0.0,0.0,monload-611_runway,,,,,,,,2.4,,,0.0
100,0.0,,0.0,,0.0,0.0,0.0,0.0,0.0,0.0,monload-611_runway,,,,,,,,2.4,,,0.0
101,0.0,,0.0,,0.0,0.0,0.0,0.0,0.0,0.0,monload-611_runway,,,,,,,,2.4,,,0.0
102,0.0,,0.0,,0.0,0.0,0.0,0.0,0.0,0.0,monload-611_runway,,,,,,,,2.4,,,0.0
103,0.0,,0.0,,0.0,0.0,0.0,0.0,0.0,0.0,monload-611_runway,,,,,,,,2.4,,,0.0
104,0.0,,0.0,,0.0,0.0,0.0,0.0,0.0,0.0,monload-611_runway,,,,,,,,2.4,,,0.0
105,0.0,,0.0,,0.0,0.0,0.0,0.0,0.0,0.0,monload-611_runway,,,,,,,,2.4,,,0.0
106,0.0,,0.0,,0.0,0.0,0.0,0.0,0.0,0.0,monload-611_runway,,,,,,,,2.4,,,0.0
107,0.0,,0.0,,0.0,0.0,0.0,0.0,0.0,0.0,monload-611_runway,,,,,,,,2.4,,,0.0
108,0.0,,0.0,,0.0,0.0,0.0,0.0,0.0,0.0,monload-611_runway,,,,,,,,2.4,,,0.0
109,0.0,,0.0,,0.0,0.0,0.0,0.0,0.0,0.0,monload-611_runway,,,,,,,,2.4,,,0.0
110,0.0,,0.0,,0.0,0.0,0.0,0.0,0.0,0.0,monload-611_runway,,,,,,,,2.4,,,0.0
111,0.0,,0.0,,0.0,0.0,0.0,0.0,0.0,0.0,monload-611_runway,,,,,,,,2.4,,,0.0
112,0.0,,0.0,,0.0,0.0,0.0,0.0,0.0,0.0,monload-611_runway,,,,,,,,2.4,,,0.0
113,0.0,,0.0,,0.0,0.0,0.0,0.0,0.0,0.0,monload-611_runway,,,,,,,,2.4,,,0.0
114,0.0,,0.0,,0.0,0.0,0.0,0.0,0.0,0.0,monload-611_runway,,,,,,,,2.4,,,0.0
115,0.0,,0.0,,0.0,0.0,0.0,0.0,0.0,0.0,monload-611_runway,,,,,,,,2.4,,,0.0
116,0.0,,0.0,,0.0,0.0,0.0,0.0,0.0,0.0,monload-611_runway,,,,,,,,2.4,,,0.0
117,0.0,,0.0,,0.0,0.0,0.0,0.0,0.0,0.0,monload-611_runway,,,,,,,,2.4,,,0.0
118,0.0,,0.0,,0.0,0.0,0.0,0.0,0.0,0.0,monload-611_runway,,,,,,,,2.4,,,0.0
119,0.0,,0.0,,0.0,0.0,0.0,0.0,0.0,0.0,monload-611_runway,,,,,,,,2.4,,,0.0
120,0.0,,0.0,,0.0,0.0,0.0,0.0,0.0,0.0,monload-611_runway,,,,,,,,2.4,,,0.0
121,0.0,,0.0,,0.0,0.0,0.0,0.0,0.0,0.0,monload-611_runway,,,,,,,,2.4,,,0.0
122,0.0,,0.0,,0.0,0.0,0.0,0.0,0.0,0.0,monload-611_runway,,,,,,,,2.4,,,0.0
123,0.0,,0.0,,0.0,0.0,0.0,0.0,0.0,0.0,monload-611_runway,,,,,,,,2.4,,,0.0
124,0.0,,0.0,,0.0,0.0,0.0,0.0,0.0,0.0,monload-611_runway,,,,,,,,2.4,,,0.0
125,0.0,,0.0,,0.0,0.0,0.0,0.0,0.0,0.0,monload-611_runway,,,,,,,,2.4,,,0.0
126,0.0,,0.0,,0.0,0.0,0.0,0.0,0.0,0.0,monload-611_runway,,,,,,,,2.4,,,0.0
127,0.0,,0.0,,0.0,0.0,0.0,0.0,0.0,0.0,monload-611_runway,,,,,,,,2.4,,,0.0
128,0.0,,0.0,,0.0,0.0,0.0,0.0,0.0,0.0,monload-611_runway,,,,,,,,2.4,,,0.0
129,0.0,,0.0,,0.0,0.0,0.0,0.0,0.0,0.0,monload-611_runway,,,,,,,,2.4,,,0.0
130,0.0,,0.0,,0.0,0.0,0.0,0.0,0.0,0.0,monload-611_runway,,,,,,,,2.4,,,0.0
131,0.0,,0.0,,0.0,0.0,0.0,0.0,0.0,0.0,monload-611_runway,,,,,,,,2.4,,,0.0
132,0.0,,0.0,,0.0,0.0,0.0,0.0,0.0,0.0,monload-611_runway,,,,,,,,2.4,,,0.0
133,0.0,,0.0,,0.0,0.0,0.0,0.0,0.0,0.0,monload-611_runway,,,,,,,,2.4,,,0.0
134,0.0,,0.0,,0.0,0.0,0.0,0.0,0.0,0.0,monload-611_runway,,,,,,,,2.4,,,0.0
135,0.0,,0.0,,0.0,0.0,0.0,0.0,0.0,0.0,monload-611_runway,,,,,,,,2.4,,,0.0
136,0.0,,0.0,,0.0,0.0,0.0,0.0,0.0,0.0,monload-611_runway,,,,,,,,2.4,,,0.0
137,0.0,,0.0,,0.0,0.0,0.0,0.0,0.0,0.0,monload-611_runway,,,,,,,,2.4,,,0.0
138,0.0,,0.0,,0.0,0.0,0.0,0.0,0.0,0.0,monload-611_runway,,,,,,,,2.4,,,0.0
139,0.0,,0.0,,0.0,0.0,0.0,0.0,0.0,0.0,monload-611_runway,,,,,,,,2.4,,,0.0
140,0.0,,0.0,,0.0,0.0,0.0,0.0,0.0,0.0,monload-611_runway,,,,,,,,2.4,,,0.0
141,0.0,,0.0,,0.0,0.0,0.0,0.0,0.0,0.0,monload-611_runway,,,,,,,,2.4,,,0.0
142,0.0,,0.0,,0.0,0.0,0.0,0.0,0.0,0.0,monload-611_runway,,,,,,,,2.4,,,0.0
143,0.0,,0.0,,0.0,0.0,0.0,0.0,0.0,0.0,monload-611_runway,,,,,,,,2.4,,,0.0
144,0.0,,0.0,,0.0,0.0,0.0,0.0,0.0,0.0,monload-611_runway,,,,,,,,2.4,,,0.0
145,0.0,,0.0,,0.0,0.0,0.0,0.0,0.0,0.0,monload-611_runway,,,,,,,,2.4,,,0.0
146,0.0,,0.0,,0.0,0.0,0.0,0.0,0.0,0.0,monload-611_runway,,,,,,,,2.4,,,0.0
147,0.0,,0.0,,0.0,0.0,0.0,0.0,0.0,0.0,monload-611_runway,,,,,,,,2.4,,,0.0
148,0.0,,0.0,,0.0,0.0,0.0,0.0,0.0,0.0,monload-611_runway,,,,,,,,2.4,,,0.0
149,0.0,,0.0,,0.0,0.0,0.0,0.0,0.0,0.0,monload-611_runway,,,,,,,,2.4,,,0.0
150,0.0,,0.0,,0.0,0.0,0.0,0.0,0.0,0.0,monload-611_runway,,,,,,,,2.4,,,0.0
151,0.0,,0.0,,0.0,0.0,0.0,0.0,0.0,0.0,monload-611_runway,,,,,,,,2.4,,,0.0
152,0.0,,0.0,,0.0,0.0,0.0,0.0,0.0,0.0,monload-611_runway,,,,,,,,2.4,,,0.0
153,0.0,,0.0,,0.0,0.0,0.0,0.0,0.0,0.0,monload-611_runway,,,,,,,,2.4,,,0.0
154,0.0,,0.0,,0.0,0.0,0.0,0.0,0.0,0.0,monload-611_runway,,,,,,,,2.4,,,0.0
155,0.0,,0.0,,0.0,0.0,0.0,0.0,0.0,0.0,monload-611_runway,,,,,,,,2.4,,,0.0
156,0.0,,0.0,,0.0,0.0,0.0,0.0,0.0,0.0,monload-611_runway,,,,,,,,2.4,,,0.0
157,0.0,,0.0,,0.0,0.0,0.0,0.0,0.0,0.0,monload-611_runway,,,,,,,,2.4,,,0.0
158,0.0,,0.0,,0.0,0.0,0.0,0.0,0.0,0.0,monload-611_runway,,,,,,,,2.4,,,0.0
159,0.0,,0.0,,0.0,0.0,0.0,0.0,0.0,0.0,monload-611_runway,,,,,,,,2.4,,,0.0
160,0.0,,0.0,,0.0,0.0,0.0,0.0,0.0,0.0,monload-611_runway,,,,,,,,2.4,,,0.0
161,0.0,,0.0,,0.0,0.0,0.0,0.0,0.0,0.0,monload-611_runway,,,,,,,,2.4,,,0.0
162,0.0,,0.0,,0.0,0.0,0.0,0.0,0.0,0.0,monload-611_runway,,,,,,,,2.4,,,0.0
163,0.0,,0.0,,0.0,0.0,0.0,0.0,0.0,0.0,monload-611_runway,,,,,,,,2.4,,,0.0
164,0.0,,0.0,,0.0,0.0,0.0,0.0,0.0,0.0,monload-611_runway,,,,,,,,2.4,,,0.0
165,0.0,,0.0,,0.0,0.0,0.0,0.0,0.0,0.0,monload-611_runway,,,,,,,,2.4,,,0.0
166,0.0,,0.0,,0.0,0.0,0.0,0.0,0.0,0.0,monload-611_runway,,,,,,,,2.4,,,0.0
167,0.0,,0.0,,0.0,0.0,0.0,0.0,0.0,0.0,monload-611_runway,,,,,,,,2.4,,,0.0
168,0.0,,0.0,,0.0,0.0,0.0,0.0,0.0,0.0,monload-611_runway,,,,,,,,2.4,,,0.0
169,0.0,,0.0,,0.0,0.0,0.0,0.0,0.0,0.0,monload-611_runway,,,,,,,,2.4,,,0.0
170,0.0,,0.0,,0.0,0.0,0.0,0.0,0.0,0.0,monload-611_runway,,,,,,,,2.4,,,0.0
171,0.0,,0.0,,0.0,0.0,0.0,0.0,0.0,0.0,monload-611_runway,,,,,,,,2.4,,,0.0
172,0.0,,0.0,,0.0,0.0,0.0,0.0,0.0,0.0,monload-611_runway,,,,,,,,2.4,,,0.0
173,0.0,,0.0,,0.0,0.0,0.0,0.0,0.0,0.0,monload-611_runway,,,,,,,,2.4,,,0.0
174,0.0,,0.0,,0.0,0.0,0.0,0.0,0.0,0.0,monload-611_runway,,,,,,,,2.4,,,0.0
175,0.0,,0.0,,0.0,0.0,0.0,0.0,0.0,0.0,monload-611_runway,,,,,,,,2.4,,,0.0
176,0.0,,0.0,,0.0,0.0,0.0,0.0,0.0,0.0,monload-611_runway,,,,,,,,2.4,,,0.0
177,0.0,,0.0,,0.0,0.0,0.0,0.0,0.0,0.0,monload-611_runway,,,,,,,,2.4,,,0.0
178,0.0,,0.0,,0.0,0.0,0.0,0.0,0.0,0.0,monload-611_runway,,,,,,,,2.4,,,0.0
179,0.0,,0.0,,0.0,0.0,0.0,0.0,0.0,0.0,monload-611_runway,,,,,,,,2.4,,,0.0
180,0.0,,114.176,,0.0,38.1499,114.178,38.1499,-65.8223,2367.14,monload-611_runway,,,,,,,,2.4,,,0.9863083333333332
181,0.0,,114.91,,0.0,38.4204,114.908,38.4204,-65.0916,2398.46,monload-611_runway,,,,,,,,2.4,,,0.9993583333333333
182,0.0,,115.625,,0.0,39.8211,115.629,39.8211,-64.3714,2415.47,monload-611_runway,,,,,,,,2.4,,,1.0064458333333333
183,0.0,,114.917,,0.0,41.1387,114.917,41.1387,-65.0825,2385.09,monload-611_runway,,,,,,,,2.4,,,0.9937875
184,0.0,,113.98,,0.0,40.2542,113.981,40.2542,-66.0186,2343.9,monload-611_runway,,,,,,,,2.4,,,0.9766250000000001
185,0.0,,113.408,,0.0,39.4232,113.408,39.4232,-66.5916,2317.18,monload-611_runway,,,,,,,,2.4,,,0.9654916666666666
186,0.0,,112.957,,0.0,41.61,112.957,41.61,-67.0432,2295.44,monload-611_runway,,,,,,,,2.4,,,0.9564333333333334
187,0.0,,112.971,,0.0,50.661,112.97,50.661,-67.0301,2310.15,monload-611_runway,,,,,,,,2.4,,,0.9625625
188,0.0,,113.101,,0.0,50.936,113.099,50.936,-66.901,2315.78,monload-611_runway,,,,,,,,2.4,,,0.9649083333333334
189,0.0,,113.258,,0.0,52.3523,113.256,52.3523,-66.7442,2322.38,monload-611_runway,,,,,,,,2.4,,,0.9676583333333334
190,0.0,,113.398,,0.0,50.5692,113.396,50.5692,-66.6043,2328.4,monload-611_runway,,,,,,,,2.4,,,0.9701666666666667
191,0.0,,113.842,,0.0,39.6945,113.836,39.6945,-66.1642,2346.78,monload-611_runway,,,,,,,,2.4,,,0.977825
192,0.0,,114.229,,0.0,26.4536,114.224,26.4536,-65.7763,2362.57,monload-611_runway,,,,,,,,2.4,,,0.9844041666666667
193,0.0,,114.369,,0.0,21.0984,114.367,21.0984,-65.6328,2368.38,monload-611_runway,,,,,,,,2.4,,,0.9868250000000001
194,0.0,,114.404,,0.0,19.0118,114.4,19.0118,-65.6003,2369.79,monload-611_runway,,,,,,,,2.4,,,0.9874125
195,0.0,,114.425,,0.0,17.1605,114.423,17.1605,-65.5774,2370.64,monload-611_runway,,,,,,,,2.4,,,0.9877666666666666
196,0.0,,114.409,,0.0,16.8089,114.412,16.8089,-65.5884,2370.01,monload-611_runway,,,,,,,,2.4,,,0.9875041666666667
197,0.0,,113.812,,0.0,17.2796,113.813,17.2796,-66.1865,2345.98,monload-611_runway,,,,,,,,2.4,,,0.9774916666666666
198,0.0,,113.665,,0.0,20.6862,113.667,20.6862,-66.3327,2339.83,monload-611_runway,,,,,,,,2.4,,,0.9749291666666666
199,0.0,,112.207,,0.0,33.257,112.211,33.257,-67.7891,2280.17,monload-611_runway,,,,,,,,2.4,,,0.9500708333333333
200,0.0,,111.955,,0.0,36.2208,111.955,36.2208,-68.0455,2271.97,monload-611_runway,,,,,,,,2.4,,,0.9466541666666666
201,0.0,,112.892,,0.0,33.1764,112.888,33.1764,-67.1124,2317.6,monload-611_runway,,,,,,,,2.4,,,0.9656666666666667
202,0.0,,113.838,,0.0,35.1894,113.838,35.1894,-66.1623,2360.61,monload-611_runway,,,,,,,,2.4,,,0.9835875000000001
203,0.0,,113.021,,0.0,30.9635,113.017,30.9635,-66.9828,2324.22,monload-611_runway,,,,,,,,2.4,,,0.9684249999999999
204,0.0,,114.144,,0.0,34.0175,114.139,34.0175,-65.8607,2374.6,monload-611_runway,,,,,,,,2.4,,,0.9894166666666666
205,0.0,,113.234,,0.0,36.5232,113.238,36.5232,-66.7619,2333.83,monload-611_runway,,,,,,,,2.4,,,0.9724291666666667
206,0.0,,112.079,,0.0,37.968,112.081,37.968,-67.9193,2280.84,monload-611_runway,,,,,,,,2.4,,,0.95035
207,0.0,,112.263,,0.0,38.9807,112.262,38.9807,-67.7382,2290.15,monload-611_runway,,,,,,,,2.4,,,0.9542291666666667
208,0.0,,112.075,,0.0,36.5803,112.076,36.5803,-67.924,2281.09,monload-611_runway,,,,,,,,2.4,,,0.9504541666666667
209,0.0,,111.912,,0.0,36.1016,111.912,36.1016,-68.0879,2272.78,monload-611_runway,,,,,,,,2.4,,,0.9469916666666668
210,0.0,,111.58,,0.0,40.359,111.58,40.359,-68.4204,2256.73,monload-611_runway,,,,,,,,2.4,,,0.9403041666666667
211,0.0,,112.029,,0.0,46.358,112.029,46.358,-67.9707,2271.74,monload-611_runway,,,,,,,,2.4,,,0.9465583333333333
212,0.0,,112.02,,0.0,48.2093,112.02,48.2093,-67.9799,2271.59,monload-611_runway,,,,,,,,2.4,,,0.9464958333333334
213,0.0,,112.564,,0.0,52.3358,112.563,52.3358,-67.4371,2294.13,monload-611_runway,,,,,,,,2.4,,,0.9558875
214,0.0,,112.778,,0.0,49.8536,112.774,49.8536,-67.226,2303.27,monload-611_runway,,,,,,,,2.4,,,0.9596958333333333
215,0.0,,113.507,,0.0,38.3082,113.506,38.3082,-66.4942,2333.24,monload-611_runway,,,,,,,,2.4,,,0.9721833333333333
216,0.0,,113.851,,0.0,27.4534,113.845,27.4534,-66.1551,2347.36,monload-611_runway,,,,,,,,2.4,,,0.9780666666666668
217,0.0,,114.074,,0.0,24.2756,114.07,24.2756,-65.9303,2356.51,monload-611_runway,,,,,,,,2.4,,,0.9818791666666667
218,0.0,,114.154,,0.0,23.0495,114.152,23.0495,-65.8476,2359.75,monload-611_runway,,,,,,,,2.4,,,0.9832291666666667
219,0.0,,114.233,,0.0,21.3811,114.232,21.3811,-65.7684,2362.95,monload-611_runway,,,,,,,,2.4,,,0.9845624999999999
