hour,t(sec),V1,VAngle1,V2,VAngle2,I1,IAngle1,I2,IAngle2,V3,Name,VAngle3,I3,IAngle3,V4,VAngle4,I4,IAngle4,kv,V1(PU),V2(PU),V3(PU)
1,0.0,,114.493,,0.0,20.2518,114.494,20.2518,-65.5057,2358.46,monload-611_runway,,,,,,,,2.4,,,0.9826916666666666
2,0.0,,114.47200000000001,,0.0,21.49,114.473,21.49,-65.5268,2357.68,monload-611_runway,,,,,,,,2.4,,,0.9823666666666666
3,0.0,,114.50200000000001,,0.0,18.735,114.499,18.735,-65.5007,2358.88,monload-611_runway,,,,,,,,2.4,,,0.9828666666666667
4,0.0,,114.508,,0.0,18.1696,114.507,18.1696,-65.4926,2359.13,monload-611_runway,,,,,,,,2.4,,,0.9829708333333333
5,0.0,,114.346,,0.0,18.3433,114.34700000000001,18.3433,-65.6525,2352.61,monload-611_runway,,,,,,,,2.4,,,0.9802541666666668
6,0.0,,114.251,,0.0,19.8621,114.25200000000001,19.8621,-65.7478,2348.64,monload-611_runway,,,,,,,,2.4,,,0.9785999999999999
7,0.0,,113.596,,0.0,29.8483,113.59700000000001,29.8483,-66.4029,2322.21,monload-611_runway,,,,,,,,2.4,,,0.9675875
8,0.0,,113.58200000000001,,0.0,31.8618,113.583,31.8618,-66.4172,2321.7,monload-611_runway,,,,,,,,2.4,,,0.9673749999999999
9,0.0,,113.212,,0.0,44.0268,113.21700000000001,44.0268,-66.7835,2307.57,monload-611_runway,,,,,,,,2.4,,,0.9614875
10,0.0,,113.54299999999999,,0.0,37.8158,113.538,37.8158,-66.4618,2322.39,monload-611_runway,,,,,,,,2.4,,,0.9676625
11,0.0,,114.00200000000001,,0.0,26.7204,114.001,26.7204,-65.9992,2341.68,monload-611_runway,,,,,,,,2.4,,,0.9756999999999999
12,0.0,,115.322,,0.0,25.0426,115.32,25.0426,-64.6799,2399.64,monload-611_runway,,,,,,,,2.4,,,0.9998499999999999
13,0.0,,113.866,,0.0,24.9564,113.868,24.9564,-66.1319,2335.38,monload-611_runway,,,,,,,,2.4,,,0.973075
14,0.0,,114.50399999999999,,0.0,24.9959,114.50299999999999,24.9959,-65.4975,2363.44,monload-611_runway,,,,,,,,2.4,,,0.9847666666666667
15,0.0,,115.008,,0.0,24.9268,115.008,24.9268,-64.9924,2385.69,monload-611_runway,,,,,,,,2.4,,,0.9940375
16,0.0,,115.09899999999999,,0.0,24.7866,115.098,24.7866,-64.9021,2389.73,monload-611_runway,,,,,,,,2.4,,,0.9957208333333334
17,0.0,,114.204,,0.0,25.989,114.205,25.989,-65.7947,2350.26,monload-611_runway,,,,,,,,2.4,,,0.9792750000000001
18,0.0,,113.525,,0.0,31.4301,113.52600000000001,31.4301,-66.4741,2319.15,monload-611_runway,,,,,,,,2.4,,,0.9663125
19,0.0,,113.318,,0.0,43.1551,113.32,43.1551,-66.6796,2310.39,monload-611_runway,,,,,,,,2.4,,,0.9626625
20,0.0,,113.306,,0.0,45.3034,113.306,45.3034,-66.6938,2309.95,monload-611_runway,,,,,,,,2.4,,,0.9624791666666666
21,0.0,,113.416,,0.0,47.8087,113.415,47.8087,-66.5847,2314.42,monload-611_runway,,,,,,,,2.4,,,0.9643416666666667
22,0.0,,113.53399999999999,,0.0,46.4444,113.53299999999999,46.4444,-66.4669,2319.43,monload-611_runway,,,,,,,,2.4,,,0.9664291666666666
23,0.0,,113.95,,0.0,35.6973,113.946,35.6973,-66.0538,2336.43,monload-611_runway,,,,,,,,2.4,,,0.9735124999999999
24,0.0,,114.309,,0.0,22.9122,114.306,22.9122,-65.694,2350.91,monload-611_runway,,,,,,,,2.4,,,0.9795458333333332
25,0.0,,114.413,,0.0,18.6667,114.412,18.6667,-65.5878,2355.21,monload-611_runway,,,,,,,,2.4,,,0.9813375
26,0.0,,114.419,,0.0,17.8494,114.419,17.8494,-65.5813,2355.46,monload-611_runway,,,,,,,,2.4,,,0.9814416666666667
27,0.0,,114.43700000000001,,0.0,16.9263,114.436,16.9263,-65.5644,2356.16,monload-611_runway,,,,,,,,2.4,,,0.9817333333333332
28,0.0,,114.441,,0.0,17.0116,114.441,17.0116,-65.5595,2356.31,monload-611_runway,,,,,,,,2.4,,,0.9817958333333333
29,0.0,,113.823,,0.0,17.6802,113.823,17.6802,-66.1766,2331.59,monload-611_runway,,,,,,,,2.4,,,0.9714958333333334
30,0.0,,113.605,,0.0,21.26,113.60700000000001,21.26,-66.393,2322.65,monload-611_runway,,,,,,,,2.4,,,0.9677708333333334
31,0.0,,112.28299999999999,,0.0,33.1809,112.281,33.1809,-67.7188,2283.23,monload-611_runway,,,,,,,,2.4,,,0.9513458333333333
32,0.0,,111.727,,0.0,34.535,111.727,34.535,-68.2731,2260.33,monload-611_runway,,,,,,,,2.4,,,0.9418041666666667
33,0.0,,111.995,,0.0,30.68,111.995,30.68,-68.0053,2273.29,monload-611_runway,,,,,,,,2.4,,,0.9472041666666666
34,0.0,,112.255,,0.0,31.0977,112.25,31.0977,-67.7495,2286.85,monload-611_runway,,,,,,,,2.4,,,0.9528541666666667
35,0.0,,112.603,,0.0,25.135,112.601,25.135,-67.3993,2303.07,monload-611_runway,,,,,,,,2.4,,,0.9596125000000001
36,0.0,,111.545,,0.0,25.6838,111.546,25.6838,-68.4543,2253.35,monload-611_runway,,,,,,,,2.4,,,0.9388958333333333
37,0.0,,113.758,,0.0,26.4116,113.756,26.4116,-66.2437,2356.74,monload-611_runway,,,,,,,,2.4,,,0.9819749999999999
38,0.0,,112.109,,0.0,25.3752,112.111,25.3752,-67.8888,2281.33,monload-611_runway,,,,,,,,2.4,,,0.9505541666666666
39,0.0,,114.584,,0.0,24.5082,114.584,24.5082,-65.4159,2393.64,monload-611_runway,,,,,,,,2.4,,,0.99735
40,0.0,,113.34299999999999,,0.0,24.748,113.348,24.748,-66.652,2338.65,monload-611_runway,,,,,,,,2.4,,,0.9744375000000001
41,0.0,,112.292,,0.0,25.8685,112.296,25.8685,-67.7039,2289.93,monload-611_runway,,,,,,,,2.4,,,0.9541375
42,0.0,,111.288,,0.0,31.1056,111.288,31.1056,-68.7123,2241.95,monload-611_runway,,,,,,,,2.4,,,0.9341458333333332
43,0.0,,112.149,,0.0,38.7463,112.149,38.7463,-67.8511,2277.08,monload-611_runway,,,,,,,,2.4,,,0.9487833333333333
44,0.0,,112.131,,0.0,41.1099,112.131,41.1099,-67.8687,2276.43,monload-611_runway,,,,,,,,2.4,,,0.9485125
45,0.0,,112.73700000000001,,0.0,45.1231,112.735,45.1231,-67.2647,2301.37,monload-611_runway,,,,,,,,2.4,,,0.9589041666666667
46,0.0,,113.022,,0.0,42.3023,113.015,42.3023,-66.9847,2313.32,monload-611_runway,,,,,,,,2.4,,,0.9638833333333334
47,0.0,,113.75,,0.0,30.8497,113.749,30.8497,-66.2514,2343.05,monload-611_runway,,,,,,,,2.4,,,0.9762708333333334
48,0.0,,114.06,,0.0,21.1497,114.053,21.1497,-65.9466,2355.68,monload-611_runway,,,,,,,,2.4,,,0.9815333333333333
49,0.0,,114.15899999999999,,0.0,18.8942,114.15700000000001,18.8942,-65.8428,2359.82,monload-611_runway,,,,,,,,2.4,,,0.9832583333333335
50,0.0,,114.19200000000001,,0.0,18.3946,114.18700000000001,18.3946,-65.8135,2361.12,monload-611_runway,,,,,,,,2.4,,,0.9838
51,0.0,,114.242,,0.0,17.8874,114.234,17.8874,-65.7664,2363.12,monload-611_runway,,,,,,,,2.4,,,0.9846333333333332
52,0.0,,114.241,,0.0,18.4384,114.241,18.4384,-65.759,2363.05,monload-611_runway,,,,,,,,2.4,,,0.9846041666666667
53,0.0,,113.62799999999999,,0.0,19.6598,113.62899999999999,19.6598,-66.3706,2338.29,monload-611_runway,,,,,,,,2.4,,,0.9742875
54,0.0,,113.37799999999999,,0.0,23.9779,113.383,23.9779,-66.6165,2327.96,monload-611_runway,,,,,,,,2.4,,,0.9699833333333333
55,0.0,,112.04700000000001,,0.0,35.6116,112.054,35.6116,-67.9463,2273.35,monload-611_runway,,,,,,,,2.4,,,0.9472291666666667
56,0.0,,111.521,,0.0,35.5058,111.521,35.5058,-68.4787,2251.62,monload-611_runway,,,,,,,,2.4,,,0.938175
57,0.0,,112.225,,0.0,31.5574,112.22200000000001,31.5574,-67.7778,2286.14,monload-611_runway,,,,,,,,2.4,,,0.9525583333333333
58,0.0,,113.23299999999999,,0.0,31.2533,113.23100000000001,31.2533,-66.7687,2334.09,monload-611_runway,,,,,,,,2.4,,,0.9725375
59,0.0,,114.355,,0.0,24.7817,114.354,24.7817,-65.6456,2383.09,monload-611_runway,,,,,,,,2.4,,,0.9929541666666667
60,0.0,,0.0,,0.0,0.0,0.0,0.0,0.0,0.0,monload-611_runway,,,,,,,,2.4,,,0.0
61,0.0,,0.0,,0.0,0.0,0.0,0.0,0.0,0.0,monload-611_runway,,,,,,,,2.4,,,0.0
62,0.0,,0.0,,0.0,0.0,0.0,0.0,0.0,0.0,monload-611_runway,,,,,,,,2.4,,,0.0
63,0.0,,0.0,,0.0,0.0,0.0,0.0,0.0,0.0,monload-611_runway,,,,,,,,2.4,,,0.0
64,0.0,,0.0,,0.0,0.0,0.0,0.0,0.0,0.0,monload-611_runway,,,,,,,,2.4,,,0.0
65,0.0,,0.0,,0.0,0.0,0.0,0.0,0.0,0.0,monload-611_runway,,,,,,,,2.4,,,0.0
66,0.0,,0.0,,0.0,0.0,0.0,0.0,0.0,0.0,monload-611_runway,,,,,,,,2.4,,,0.0
67,0.0,,0.0,,0.0,0.0,0.0,0.0,0.0,0.0,monload-611_runway,,,,,,,,2.4,,,0.0
68,0.0,,0.0,,0.0,0.0,0.0,0.0,0.0,0.0,monload-611_runway,,,,,,,,2.4,,,0.0
69,0.0,,0.0,,0.0,0.0,0.0,0.0,0.0,0.0,monload-611_runway,,,,,,,,2.4,,,0.0
70,0.0,,0.0,,0.0,0.0,0.0,0.0,0.0,0.0,monload-611_runway,,,,,,,,2.4,,,0.0
71,0.0,,0.0,,0.0,0.0,0.0,0.0,0.0,0.0,monload-611_runway,,,,,,,,2.4,,,0.0
72,0.0,,0.0,,0.0,0.0,0.0,0.0,0.0,0.0,monload-611_runway,,,,,,,,2.4,,,0.0
73,0.0,,0.0,,0.0,0.0,0.0,0.0,0.0,0.0,monload-611_runway,,,,,,,,2.4,,,0.0
74,0.0,,0.0,,0.0,0.0,0.0,0.0,0.0,0.0,monload-611_runway,,,,,,,,2.4,,,0.0
75,0.0,,0.0,,0.0,0.0,0.0,0.0,0.0,0.0,monload-611_runway,,,,,,,,2.4,,,0.0
76,0.0,,0.0,,0.0,0.0,0.0,0.0,0.0,0.0,monload-611_runway,,,,,,,,2.4,,,0.0
77,0.0,,0.0,,0.0,0.0,0.0,0.0,0.0,0.0,monload-611_runway,,,,,,,,2.4,,,0.0
78,0.0,,0.0,,0.0,0.0,0.0,0.0,0.0,0.0,monload-611_runway,,,,,,,,2.4,,,0.0
79,0.0,,0.0,,0.0,0.0,0.0,0.0,0.0,0.0,monload-611_runway,,,,,,,,2.4,,,0.0
80,0.0,,0.0,,0.0,0.0,0.0,0.0,0.0,0.0,monload-611_runway,,,,,,,,2.4,,,0.0
81,0.0,,0.0,,0.0,0.0,0.0,0.0,0.0,0.0,monload-611_runway,,,,,,,,2.4,,,0.0
82,0.0,,0.0,,0.0,0.0,0.0,0.0,0.0,0.0,monload-611_runway,,,,,,,,2.4,,,0.0
83,0.0,,0.0,,0.0,0.0,0.0,0.0,0.0,0.0,monload-611_runway,,,,,,,,2.4,,,0.0
84,0.0,,0.0,,0.0,0.0,0.0,0.0,0.0,0.0,monload-611_runway,,,,,,,,2.4,,,0.0
85,0.0,,0.0,,0.0,0.0,0.0,0.0,0.0,0.0,monload-611_runway,,,,,,,,2.4,,,0.0
86,0.0,,0.0,,0.0,0.0,0.0,0.0,0.0,0.0,monload-611_runway,,,,,,,,2.4,,,0.0
87,0.0,,0.0,,0.0,0.0,0.0,0.0,0.0,0.0,monload-611_runway,,,,,,,,2.4,,,0.0
88,0.0,,0.0,,0.0,0.0,0.0,0.0,0.0,0.0,monload-611_runway,,,,,,,,2.4,,,0.0
89,0.0,,0.0,,0.0,0.0,0.0,0.0,0.0,0.0,monload-611_runway,,,,,,,,2.4,,,0.0
90,0.0,,0.0,,0.0,0.0,0.0,0.0,0.0,0.0,monload-611_runway,,,,,,,,2.4,,,0.0
91,0.0,,0.0,,0.0,0.0,0.0,0.0,0.0,0.0,monload-611_runway,,,,,,,,2.4,,,0.0
92,0.0,,0.0,,0.0,0.0,0.0,0.0,0.0,0.0,monload-611_runway,,,,,,,,2.4,,,0.0
93,0.0,,0.0,,0.0,0.0,0.0,0.0,0.0,0.0,monload-611_runway,,,,,,,,2.4,,,0.0
94,0.0,,0.0,,0.0,0.0,0.0,0.0,0.0,0.0,monload-611_runway,,,,,,,,2.4,,,0.0
95,0.0,,0.0,,0.0,0.0,0.0,0.0,0.0,0.0,monload-611_runway,,,,,,,,2.4,,,0.0
96,0.0,,0.0,,0.0,0.0,0.0,0.0,0.0,0.0,monload-611_runway,,,,,,,,2.4,,,0.0
97,0.0,,0.0,,0.0,0.0,0.0,0.0,0.0,0.0,monload-611_runway,,,,,,,,2.4,,,0.0
98,0.0,,0.0,,0.0,0.0,0.0,0.0,0.0,0.0,monload-611_runway,,,,,,,,2.4,,,0.0
99,0.0,,0.0,,0.0,0.0,0.0,0.0,0.0,0.0,monload-611_runway,,,,,,,,2.4,,,0.0
100,0.0,,0.0,,0.0,0.0,0.0,0.0,0.0,0.0,monload-611_runway,,,,,,,,2.4,,,0.0
101,0.0,,0.0,,0.0,0.0,0.0,0.0,0.0,0.0,monload-611_runway,,,,,,,,2.4,,,0.0
102,0.0,,0.0,,0.0,0.0,0.0,0.0,0.0,0.0,monload-611_runway,,,,,,,,2.4,,,0.0
103,0.0,,0.0,,0.0,0.0,0.0,0.0,0.0,0.0,monload-611_runway,,,,,,,,2.4,,,0.0
104,0.0,,0.0,,0.0,0.0,0.0,0.0,0.0,0.0,monload-611_runway,,,,,,,,2.4,,,0.0
105,0.0,,0.0,,0.0,0.0,0.0,0.0,0.0,0.0,monload-611_runway,,,,,,,,2.4,,,0.0
106,0.0,,0.0,,0.0,0.0,0.0,0.0,0.0,0.0,monload-611_runway,,,,,,,,2.4,,,0.0
107,0.0,,0.0,,0.0,0.0,0.0,0.0,0.0,0.0,monload-611_runway,,,,,,,,2.4,,,0.0
108,0.0,,0.0,,0.0,0.0,0.0,0.0,0.0,0.0,monload-611_runway,,,,,,,,2.4,,,0.0
109,0.0,,0.0,,0.0,0.0,0.0,0.0,0.0,0.0,monload-611_runway,,,,,,,,2.4,,,0.0
110,0.0,,0.0,,0.0,0.0,0.0,0.0,0.0,0.0,monload-611_runway,,,,,,,,2.4,,,0.0
111,0.0,,0.0,,0.0,0.0,0.0,0.0,0.0,0.0,monload-611_runway,,,,,,,,2.4,,,0.0
112,0.0,,0.0,,0.0,0.0,0.0,0.0,0.0,0.0,monload-611_runway,,,,,,,,2.4,,,0.0
113,0.0,,0.0,,0.0,0.0,0.0,0.0,0.0,0.0,monload-611_runway,,,,,,,,2.4,,,0.0
114,0.0,,0.0,,0.0,0.0,0.0,0.0,0.0,0.0,monload-611_runway,,,,,,,,2.4,,,0.0
115,0.0,,0.0,,0.0,0.0,0.0,0.0,0.0,0.0,monload-611_runway,,,,,,,,2.4,,,0.0
116,0.0,,0.0,,0.0,0.0,0.0,0.0,0.0,0.0,monload-611_runway,,,,,,,,2.4,,,0.0
117,0.0,,0.0,,0.0,0.0,0.0,0.0,0.0,0.0,monload-611_runway,,,,,,,,2.4,,,0.0
118,0.0,,0.0,,0.0,0.0,0.0,0.0,0.0,0.0,monload-611_runway,,,,,,,,2.4,,,0.0
119,0.0,,0.0,,0.0,0.0,0.0,0.0,0.0,0.0,monload-611_runway,,,,,,,,2.4,,,0.0
120,0.0,,0.0,,0.0,0.0,0.0,0.0,0.0,0.0,monload-611_runway,,,,,,,,2.4,,,0.0
121,0.0,,0.0,,0.0,0.0,0.0,0.0,0.0,0.0,monload-611_runway,,,,,,,,2.4,,,0.0
122,0.0,,0.0,,0.0,0.0,0.0,0.0,0.0,0.0,monload-611_runway,,,,,,,,2.4,,,0.0
123,0.0,,0.0,,0.0,0.0,0.0,0.0,0.0,0.0,monload-611_runway,,,,,,,,2.4,,,0.0
124,0.0,,0.0,,0.0,0.0,0.0,0.0,0.0,0.0,monload-611_runway,,,,,,,,2.4,,,0.0
125,0.0,,0.0,,0.0,0.0,0.0,0.0,0.0,0.0,monload-611_runway,,,,,,,,2.4,,,0.0
126,0.0,,0.0,,0.0,0.0,0.0,0.0,0.0,0.0,monload-611_runway,,,,,,,,2.4,,,0.0
127,0.0,,0.0,,0.0,0.0,0.0,0.0,0.0,0.0,monload-611_runway,,,,,,,,2.4,,,0.0
128,0.0,,0.0,,0.0,0.0,0.0,0.0,0.0,0.0,monload-611_runway,,,,,,,,2.4,,,0.0
129,0.0,,0.0,,0.0,0.0,0.0,0.0,0.0,0.0,monload-611_runway,,,,,,,,2.4,,,0.0
130,0.0,,0.0,,0.0,0.0,0.0,0.0,0.0,0.0,monload-611_runway,,,,,,,,2.4,,,0.0
131,0.0,,0.0,,0.0,0.0,0.0,0.0,0.0,0.0,monload-611_runway,,,,,,,,2.4,,,0.0
132,0.0,,0.0,,0.0,0.0,0.0,0.0,0.0,0.0,monload-611_runway,,,,,,,,2.4,,,0.0
133,0.0,,0.0,,0.0,0.0,0.0,0.0,0.0,0.0,monload-611_runway,,,,,,,,2.4,,,0.0
134,0.0,,0.0,,0.0,0.0,0.0,0.0,0.0,0.0,monload-611_runway,,,,,,,,2.4,,,0.0
135,0.0,,0.0,,0.0,0.0,0.0,0.0,0.0,0.0,monload-611_runway,,,,,,,,2.4,,,0.0
136,0.0,,0.0,,0.0,0.0,0.0,0.0,0.0,0.0,monload-611_runway,,,,,,,,2.4,,,0.0
137,0.0,,0.0,,0.0,0.0,0.0,0.0,0.0,0.0,monload-611_runway,,,,,,,,2.4,,,0.0
138,0.0,,0.0,,0.0,0.0,0.0,0.0,0.0,0.0,monload-611_runway,,,,,,,,2.4,,,0.0
139,0.0,,0.0,,0.0,0.0,0.0,0.0,0.0,0.0,monload-611_runway,,,,,,,,2.4,,,0.0
140,0.0,,0.0,,0.0,0.0,0.0,0.0,0.0,0.0,monload-611_runway,,,,,,,,2.4,,,0.0
141,0.0,,0.0,,0.0,0.0,0.0,0.0,0.0,0.0,monload-611_runway,,,,,,,,2.4,,,0.0
142,0.0,,0.0,,0.0,0.0,0.0,0.0,0.0,0.0,monload-611_runway,,,,,,,,2.4,,,0.0
143,0.0,,0.0,,0.0,0.0,0.0,0.0,0.0,0.0,monload-611_runway,,,,,,,,2.4,,,0.0
144,0.0,,0.0,,0.0,0.0,0.0,0.0,0.0,0.0,monload-611_runway,,,,,,,,2.4,,,0.0
145,0.0,,0.0,,0.0,0.0,0.0,0.0,0.0,0.0,monload-611_runway,,,,,,,,2.4,,,0.0
146,0.0,,0.0,,0.0,0.0,0.0,0.0,0.0,0.0,monload-611_runway,,,,,,,,2.4,,,0.0
147,0.0,,0.0,,0.0,0.0,0.0,0.0,0.0,0.0,monload-611_runway,,,,,,,,2.4,,,0.0
148,0.0,,0.0,,0.0,0.0,0.0,0.0,0.0,0.0,monload-611_runway,,,,,,,,2.4,,,0.0
149,0.0,,0.0,,0.0,0.0,0.0,0.0,0.0,0.0,monload-611_runway,,,,,,,,2.4,,,0.0
150,0.0,,0.0,,0.0,0.0,0.0,0.0,0.0,0.0,monload-611_runway,,,,,,,,2.4,,,0.0
151,0.0,,0.0,,0.0,0.0,0.0,0.0,0.0,0.0,monload-611_runway,,,,,,,,2.4,,,0.0
152,0.0,,0.0,,0.0,0.0,0.0,0.0,0.0,0.0,monload-611_runway,,,,,,,,2.4,,,0.0
153,0.0,,0.0,,0.0,0.0,0.0,0.0,0.0,0.0,monload-611_runway,,,,,,,,2.4,,,0.0
154,0.0,,0.0,,0.0,0.0,0.0,0.0,0.0,0.0,monload-611_runway,,,,,,,,2.4,,,0.0
155,0.0,,0.0,,0.0,0.0,0.0,0.0,0.0,0.0,monload-611_runway,,,,,,,,2.4,,,0.0
156,0.0,,0.0,,0.0,0.0,0.0,0.0,0.0,0.0,monload-611_runway,,,,,,,,2.4,,,0.0
157,0.0,,0.0,,0.0,0.0,0.0,0.0,0.0,0.0,monload-611_runway,,,,,,,,2.4,,,0.0
158,0.0,,0.0,,0.0,0.0,0.0,0.0,0.0,0.0,monload-611_runway,,,,,,,,2.4,,,0.0
159,0.0,,0.0,,0.0,0.0,0.0,0.0,0.0,0.0,monload-611_runway,,,,,,,,2.4,,,0.0
160,0.0,,0.0,,0.0,0.0,0.0,0.0,0.0,0.0,monload-611_runway,,,,,,,,2.4,,,0.0
161,0.0,,0.0,,0.0,0.0,0.0,0.0,0.0,0.0,monload-611_runway,,,,,,,,2.4,,,0.0
162,0.0,,0.0,,0.0,0.0,0.0,0.0,0.0,0.0,monload-611_runway,,,,,,,,2.4,,,0.0
163,0.0,,0.0,,0.0,0.0,0.0,0.0,0.0,0.0,monload-611_runway,,,,,,,,2.4,,,0.0
164,0.0,,0.0,,0.0,0.0,0.0,0.0,0.0,0.0,monload-611_runway,,,,,,,,2.4,,,0.0
165,0.0,,0.0,,0.0,0.0,0.0,0.0,0.0,0.0,monload-611_runway,,,,,,,,2.4,,,0.0
166,0.0,,0.0,,0.0,0.0,0.0,0.0,0.0,0.0,monload-611_runway,,,,,,,,2.4,,,0.0
167,0.0,,0.0,,0.0,0.0,0.0,0.0,0.0,0.0,monload-611_runway,,,,,,,,2.4,,,0.0
168,0.0,,0.0,,0.0,0.0,0.0,0.0,0.0,0.0,monload-611_runway,,,,,,,,2.4,,,0.0
169,0.0,,0.0,,0.0,0.0,0.0,0.0,0.0,0.0,monload-611_runway,,,,,,,,2.4,,,0.0
170,0.0,,0.0,,0.0,0.0,0.0,0.0,0.0,0.0,monload-611_runway,,,,,,,,2.4,,,0.0
171,0.0,,0.0,,0.0,0.0,0.0,0.0,0.0,0.0,monload-611_runway,,,,,,,,2.4,,,0.0
172,0.0,,0.0,,0.0,0.0,0.0,0.0,0.0,0.0,monload-611_runway,,,,,,,,2.4,,,0.0
173,0.0,,0.0,,0.0,0.0,0.0,0.0,0.0,0.0,monload-611_runway,,,,,,,,2.4,,,0.0
174,0.0,,0.0,,0.0,0.0,0.0,0.0,0.0,0.0,monload-611_runway,,,,,,,,2.4,,,0.0
175,0.0,,0.0,,0.0,0.0,0.0,0.0,0.0,0.0,monload-611_runway,,,,,,,,2.4,,,0.0
176,0.0,,0.0,,0.0,0.0,0.0,0.0,0.0,0.0,monload-611_runway,,,,,,,,2.4,,,0.0
177,0.0,,0.0,,0.0,0.0,0.0,0.0,0.0,0.0,monload-611_runway,,,,,,,,2.4,,,0.0
178,0.0,,0.0,,0.0,0.0,0.0,0.0,0.0,0.0,monload-611_runway,,,,,,,,2.4,,,0.0
179,0.0,,0.0,,0.0,0.0,0.0,0.0,0.0,0.0,monload-611_runway,,,,,,,,2.4,,,0.0
180,0.0,,113.78399999999999,,0.0,38.1499,113.787,38.1499,-66.2131,2349.13,monload-611_runway,,,,,,,,2.4,,,0.9788041666666667
181,0.0,,115.29299999999999,,0.0,38.4204,115.29,38.4204,-64.7099,2415.81,monload-611_runway,,,,,,,,2.4,,,1.0065875
182,0.0,,115.62299999999999,,0.0,39.8211,115.62700000000001,39.8211,-64.3731,2415.4,monload-611_runway,,,,,,,,2.4,,,1.0064166666666667
183,0.0,,114.915,,0.0,41.1387,114.916,41.1387,-65.0842,2385.02,monload-611_runway,,,,,,,,2.4,,,0.9937583333333333
184,0.0,,113.979,,0.0,40.2542,113.98,40.2542,-66.0202,2343.83,monload-611_runway,,,,,,,,2.4,,,0.9765958333333333
185,0.0,,113.406,,0.0,39.4232,113.40700000000001,39.4232,-66.5933,2317.11,monload-611_runway,,,,,,,,2.4,,,0.9654625
186,0.0,,112.955,,0.0,41.61,112.955,41.61,-67.0448,2295.38,monload-611_runway,,,,,,,,2.4,,,0.9564083333333334
187,0.0,,112.969,,0.0,50.661,112.96799999999999,50.661,-67.0317,2310.08,monload-611_runway,,,,,,,,2.4,,,0.9625333333333334
188,0.0,,113.09899999999999,,0.0,50.93600000000001,113.09700000000001,50.93600000000001,-66.9026,2315.72,monload-611_runway,,,,,,,,2.4,,,0.9648833333333332
189,0.0,,113.257,,0.0,52.3523,113.25399999999999,52.3523,-66.7458,2322.32,monload-611_runway,,,,,,,,2.4,,,0.9676333333333335
190,0.0,,113.396,,0.0,50.5692,113.39399999999999,50.5692,-66.6059,2328.34,monload-611_runway,,,,,,,,2.4,,,0.9701416666666667
191,0.0,,113.84,,0.0,39.6945,113.834,39.6945,-66.1658,2346.72,monload-611_runway,,,,,,,,2.4,,,0.9777999999999999
192,0.0,,114.227,,0.0,26.4536,114.22200000000001,26.4536,-65.7779,2362.51,monload-611_runway,,,,,,,,2.4,,,0.9843791666666668
193,0.0,,114.367,,0.0,21.0984,114.366,21.0984,-65.6345,2368.31,monload-611_runway,,,,,,,,2.4,,,0.9867958333333333
194,0.0,,114.402,,0.0,19.0118,114.398,19.0118,-65.6019,2369.73,monload-611_runway,,,,,,,,2.4,,,0.9873875
195,0.0,,114.42299999999999,,0.0,17.1605,114.421,17.1605,-65.579,2370.57,monload-611_runway,,,,,,,,2.4,,,0.9877375
196,0.0,,114.40799999999999,,0.0,16.8089,114.41,16.8089,-65.5901,2369.94,monload-611_runway,,,,,,,,2.4,,,0.987475
197,0.0,,113.811,,0.0,17.2796,113.81200000000001,17.2796,-66.1881,2345.91,monload-611_runway,,,,,,,,2.4,,,0.9774624999999999
198,0.0,,113.663,,0.0,20.6862,113.666,20.6862,-66.3344,2339.76,monload-611_runway,,,,,,,,2.4,,,0.9749000000000001
199,0.0,,112.205,,0.0,33.257,112.209,33.257,-67.7907,2280.12,monload-611_runway,,,,,,,,2.4,,,0.95005
200,0.0,,111.62899999999999,,0.0,35.957,111.631,35.957,-68.3694,2256.33,monload-611_runway,,,,,,,,2.4,,,0.9401375
201,0.0,,112.471,,0.0,33.1764,112.469,33.1764,-67.5312,2298.37,monload-611_runway,,,,,,,,2.4,,,0.9576541666666666
202,0.0,,114.24799999999999,,0.0,35.1894,114.24799999999999,35.1894,-65.7515,2379.03,monload-611_runway,,,,,,,,2.4,,,0.9912625
203,0.0,,112.59899999999999,,0.0,30.9635,112.601,30.9635,-67.3995,2305.04,monload-611_runway,,,,,,,,2.4,,,0.9604333333333334
204,0.0,,114.553,,0.0,34.0175,114.552,34.0175,-65.44800000000001,2392.86,monload-611_runway,,,,,,,,2.4,,,0.997025
205,0.0,,113.65,,0.0,36.5232,113.654,36.5232,-66.3463,2352.6,monload-611_runway,,,,,,,,2.4,,,0.98025
206,0.0,,112.07799999999999,,0.0,37.968,112.079,37.968,-67.9212,2280.77,monload-611_runway,,,,,,,,2.4,,,0.9503208333333333
207,0.0,,112.262,,0.0,38.9807,112.26100000000001,38.9807,-67.7393,2290.09,monload-611_runway,,,,,,,,2.4,,,0.9542041666666667
208,0.0,,112.073,,0.0,36.5803,112.074,36.5803,-67.9263,2281.02,monload-611_runway,,,,,,,,2.4,,,0.950425
209,0.0,,111.584,,0.0,35.8405,111.584,35.8405,-68.4162,2257.21,monload-611_runway,,,,,,,,2.4,,,0.9405041666666667
210,0.0,,111.262,,0.0,40.0707,111.26299999999999,40.0707,-68.737,2241.44,monload-611_runway,,,,,,,,2.4,,,0.9339333333333334
211,0.0,,112.02799999999999,,0.0,46.357,112.02799999999999,46.357,-67.9721,2271.68,monload-611_runway,,,,,,,,2.4,,,0.9465333333333332
212,0.0,,112.01899999999999,,0.0,48.208,112.01899999999999,48.208,-67.9813,2271.54,monload-611_runway,,,,,,,,2.4,,,0.946475
213,0.0,,112.56200000000001,,0.0,52.3358,112.561,52.3358,-67.4387,2294.06,monload-611_runway,,,,,,,,2.4,,,0.9558583333333334
214,0.0,,112.777,,0.0,49.8536,112.772,49.8536,-67.2278,2303.21,monload-611_runway,,,,,,,,2.4,,,0.9596708333333334
