hour,t(sec),V1,VAngle1,V2,VAngle2,I1,IAngle1,I2,IAngle2,V3,Name,VAngle3,I3,IAngle3,V4,VAngle4,I4,IAngle4,kv,V1(PU),V2(PU),V3(PU)
1,0.0,,111.227,,0.0,20.2518,111.23,20.2518,-68.7699,2407.5,monload-611_runway,,,,,,,,2.4,,,1.003125
2,0.0,,111.22,,0.0,21.49,111.22,21.49,-68.7799,2407.29,monload-611_runway,,,,,,,,2.4,,,1.0030375
3,0.0,,111.246,,0.0,18.735,111.244,18.735,-68.7563,2408.43,monload-611_runway,,,,,,,,2.4,,,1.0035125
4,0.0,,111.251,,0.0,18.1696,111.251,18.1696,-68.7493,2408.68,monload-611_runway,,,,,,,,2.4,,,1.0036166666666666
5,0.0,,111.048,,0.0,18.3433,111.05,18.3433,-68.9501,2399.11,monload-611_runway,,,,,,,,2.4,,,0.9996291666666667
6,0.0,,110.916,,0.0,19.8621,110.917,19.8621,-69.0826,2392.69,monload-611_runway,,,,,,,,2.4,,,0.9969541666666667
7,0.0,,110.163,,0.0,29.8483,110.164,29.8483,-69.8363,2357.26,monload-611_runway,,,,,,,,2.4,,,0.9821916666666668
8,0.0,,110.257,,0.0,31.8618,110.257,31.8618,-69.7434,2361.74,monload-611_runway,,,,,,,,2.4,,,0.9840583333333333
9,0.0,,109.945,,0.0,44.0268,109.946,44.0268,-70.0543,2348.5,monload-611_runway,,,,,,,,2.4,,,0.9785416666666666
10,0.0,,110.483,,0.0,37.8158,110.483,37.8158,-69.5166,2375.95,monload-611_runway,,,,,,,,2.4,,,0.9899791666666666
11,0.0,,111.1,,0.0,26.7204,111.101,26.7204,-68.899,2406.75,monload-611_runway,,,,,,,,2.4,,,1.0028125
12,0.0,,112.053,,0.0,25.0426,112.057,25.0426,-67.9428,2439.67,monload-611_runway,,,,,,,,2.4,,,1.0165291666666667
13,0.0,,111.278,,0.0,24.9564,111.279,24.9564,-68.721,2400.74,monload-611_runway,,,,,,,,2.4,,,1.0003083333333331
14,0.0,,111.293,,0.0,24.9959,111.292,24.9959,-68.7078,2400.96,monload-611_runway,,,,,,,,2.4,,,1.0004
15,0.0,,111.78,,0.0,24.9268,111.779,24.9268,-68.2211,2425.62,monload-611_runway,,,,,,,,2.4,,,1.010675
16,0.0,,112.346,,0.0,24.7866,112.346,24.7866,-67.6538,2454.62,monload-611_runway,,,,,,,,2.4,,,1.0227583333333332
17,0.0,,111.111,,0.0,25.989,111.112,25.989,-68.888,2392.02,monload-611_runway,,,,,,,,2.4,,,0.996675
18,0.0,,110.053,,0.0,31.4301,110.053,31.4301,-69.9469,2337.14,monload-611_runway,,,,,,,,2.4,,,0.9738083333333333
19,0.0,,109.802,,0.0,43.1551,109.798,43.1551,-70.2017,2340.05,monload-611_runway,,,,,,,,2.4,,,0.9750208333333334
20,0.0,,109.806,,0.0,45.3034,109.805,45.3034,-70.1952,2340.36,monload-611_runway,,,,,,,,2.4,,,0.9751500000000001
21,0.0,,109.946,,0.0,47.8087,109.945,47.8087,-70.0553,2347.12,monload-611_runway,,,,,,,,2.4,,,0.9779666666666667
22,0.0,,110.111,,0.0,46.4444,110.109,46.4444,-69.8907,2355.27,monload-611_runway,,,,,,,,2.4,,,0.9813625
23,0.0,,110.59,,0.0,35.6973,110.584,35.6973,-69.416,2378.01,monload-611_runway,,,,,,,,2.4,,,0.9908375
24,0.0,,110.976,,0.0,22.9122,110.971,22.9122,-69.0286,2395.99,monload-611_runway,,,,,,,,2.4,,,0.9983291666666666
25,0.0,,111.1,,0.0,18.6667,111.098,18.6667,-68.9016,2401.91,monload-611_runway,,,,,,,,2.4,,,1.0007958333333333
26,0.0,,111.103,,0.0,17.8494,111.103,17.8494,-68.8974,2402.04,monload-611_runway,,,,,,,,2.4,,,1.00085
27,0.0,,111.117,,0.0,16.9263,111.116,16.9263,-68.8844,2402.68,monload-611_runway,,,,,,,,2.4,,,1.0011166666666667
28,0.0,,111.118,,0.0,17.0116,111.118,17.0116,-68.8818,2402.72,monload-611_runway,,,,,,,,2.4,,,1.0011333333333332
29,0.0,,110.39,,0.0,17.6802,110.391,17.6802,-69.6088,2368.56,monload-611_runway,,,,,,,,2.4,,,0.9869
30,0.0,,110.117,,0.0,21.26,110.121,21.26,-69.8791,2355.52,monload-611_runway,,,,,,,,2.4,,,0.9814666666666667
31,0.0,,108.5,,0.0,33.1583,108.5,33.1583,-71.5,2278.52,monload-611_runway,,,,,,,,2.4,,,0.9493833333333334
32,0.0,,107.874,,0.0,34.5753,107.873,34.5753,-72.1265,2262.82,monload-611_runway,,,,,,,,2.4,,,0.9428416666666667
33,0.0,,108.144,,0.0,30.7513,108.144,30.7513,-71.8562,2278.31,monload-611_runway,,,,,,,,2.4,,,0.9492958333333333
34,0.0,,108.571,,0.0,31.0977,108.569,31.0977,-71.4311,2302.51,monload-611_runway,,,,,,,,2.4,,,0.9593791666666668
35,0.0,,109.069,,0.0,25.135,109.065,25.135,-70.9348,2328.72,monload-611_runway,,,,,,,,2.4,,,0.9702999999999999
36,0.0,,107.854,,0.0,25.8096,107.853,25.8096,-72.1468,2263.84,monload-611_runway,,,,,,,,2.4,,,0.9432666666666667
37,0.0,,110.731,,0.0,26.4116,110.733,26.4116,-69.2669,2401.51,monload-611_runway,,,,,,,,2.4,,,1.0006291666666667
38,0.0,,108.679,,0.0,25.3752,108.674,25.3752,-71.326,2294.7,monload-611_runway,,,,,,,,2.4,,,0.9561249999999999
39,0.0,,111.264,,0.0,24.5082,111.265,24.5082,-68.7346,2429.35,monload-611_runway,,,,,,,,2.4,,,1.0122291666666667
40,0.0,,110.213,,0.0,24.748,110.214,24.748,-69.7864,2375.35,monload-611_runway,,,,,,,,2.4,,,0.9897291666666667
41,0.0,,108.605,,0.0,25.8685,108.606,25.8685,-71.3939,2291.28,monload-611_runway,,,,,,,,2.4,,,0.9547000000000001
42,0.0,,107.509,,0.0,31.1463,107.508,31.1463,-72.4923,2244.77,monload-611_runway,,,,,,,,2.4,,,0.9353208333333334
43,0.0,,108.388,,0.0,38.7986,108.391,38.7986,-71.6092,2286.91,monload-611_runway,,,,,,,,2.4,,,0.9528791666666666
44,0.0,,108.377,,0.0,41.1781,108.377,41.1781,-71.6227,2286.51,monload-611_runway,,,,,,,,2.4,,,0.9527125000000001
45,0.0,,109.096,,0.0,45.1231,109.094,45.1231,-70.9058,2321.38,monload-611_runway,,,,,,,,2.4,,,0.9672416666666667
46,0.0,,109.449,,0.0,42.3023,109.448,42.3023,-70.5522,2338.69,monload-611_runway,,,,,,,,2.4,,,0.9744541666666667
47,0.0,,110.306,,0.0,30.8497,110.305,30.8497,-69.6954,2379.52,monload-611_runway,,,,,,,,2.4,,,0.9914666666666666
48,0.0,,110.647,,0.0,21.1497,110.641,21.1497,-69.3592,2395.62,monload-611_runway,,,,,,,,2.4,,,0.9981749999999999
49,0.0,,110.773,,0.0,18.8942,110.771,18.8942,-69.2295,2401.72,monload-611_runway,,,,,,,,2.4,,,1.0007166666666665
50,0.0,,110.809,,0.0,18.3946,110.803,18.3946,-69.1966,2403.41,monload-611_runway,,,,,,,,2.4,,,1.0014208333333332
51,0.0,,110.827,,0.0,17.8874,110.83,17.8874,-69.1697,2388.94,monload-611_runway,,,,,,,,2.4,,,0.9953916666666667
52,0.0,,110.825,,0.0,18.4384,110.825,18.4384,-69.1748,2388.85,monload-611_runway,,,,,,,,2.4,,,0.9953541666666667
53,0.0,,110.09,,0.0,19.6598,110.091,19.6598,-69.9095,2354.21,monload-611_runway,,,,,,,,2.4,,,0.9809208333333334
54,0.0,,109.791,,0.0,23.9779,109.794,23.9779,-70.2059,2339.89,monload-611_runway,,,,,,,,2.4,,,0.9749541666666666
55,0.0,,108.234,,0.0,35.7182,108.235,35.7182,-71.7654,2280.07,monload-611_runway,,,,,,,,2.4,,,0.9500291666666667
56,0.0,,107.636,,0.0,35.4958,107.638,35.4958,-72.3618,2251.01,monload-611_runway,,,,,,,,2.4,,,0.9379208333333334
57,0.0,,108.659,,0.0,31.5574,108.657,31.5574,-71.3431,2307.14,monload-611_runway,,,,,,,,2.4,,,0.9613083333333333
58,0.0,,110.57,,0.0,31.2533,110.572,31.2533,-69.4279,2394.05,monload-611_runway,,,,,,,,2.4,,,0.9975208333333334
59,0.0,,110.9,,0.0,24.7817,110.902,24.7817,-69.0979,2410.53,monload-611_runway,,,,,,,,2.4,,,1.0043875
60,0.0,,116.565,,0.0,25.9092,116.565,25.9092,-63.4355,2401.85,monload-611_runway,,,,,,,,2.4,,,1.0007708333333334
61,0.0,,116.64,,0.0,27.1001,116.64,27.1001,-63.3599,2402.92,monload-611_runway,,,,,,,,2.4,,,1.0012166666666666
62,0.0,,116.555,,0.0,27.5835,116.558,27.5835,-63.4419,2401.16,monload-611_runway,,,,,,,,2.4,,,1.0004833333333332
63,0.0,,116.535,,0.0,27.9419,116.536,27.9419,-63.4644,2400.9,monload-611_runway,,,,,,,,2.4,,,1.000375
64,0.0,,116.514,,0.0,28.0794,116.514,28.0794,-63.4859,2400.55,monload-611_runway,,,,,,,,2.4,,,1.0002291666666667
65,0.0,,116.453,,0.0,28.5183,116.453,28.5183,-63.547,2399.6,monload-611_runway,,,,,,,,2.4,,,0.9998333333333332
66,0.0,,116.424,,0.0,32.6003,116.424,32.6003,-63.5756,2398.71,monload-611_runway,,,,,,,,2.4,,,0.9994625
67,0.0,,116.9,,0.0,38.728,116.885,38.728,-63.1151,2408.68,monload-611_runway,,,,,,,,2.4,,,1.0036166666666666
68,0.0,,116.895,,0.0,40.8709,116.896,40.8709,-63.1045,2408.48,monload-611_runway,,,,,,,,2.4,,,1.0035333333333334
69,0.0,,117.146,,0.0,44.806,117.138,44.806,-62.8623,2413.6,monload-611_runway,,,,,,,,2.4,,,1.0056666666666667
70,0.0,,117.253,,0.0,41.9513,117.253,41.9513,-62.7469,2415.91,monload-611_runway,,,,,,,,2.4,,,1.0066291666666667
71,0.0,,117.563,,0.0,30.874,117.552,30.874,-62.4477,2422.79,monload-611_runway,,,,,,,,2.4,,,1.0094958333333333
72,0.0,,117.696,,0.0,21.1947,117.691,21.1947,-62.3088,2425.9,monload-611_runway,,,,,,,,2.4,,,1.0107916666666668
73,0.0,,117.76,,0.0,18.5785,117.758,18.5785,-62.2425,2427.3,monload-611_runway,,,,,,,,2.4,,,1.0113750000000001
74,0.0,,117.769,,0.0,17.7129,117.769,17.7129,-62.2314,2427.51,monload-611_runway,,,,,,,,2.4,,,1.0114625000000002
75,0.0,,117.78,,0.0,16.7422,117.78,16.7422,-62.2202,2427.78,monload-611_runway,,,,,,,,2.4,,,1.0115750000000001
76,0.0,,117.779,,0.0,16.8093,117.779,16.8093,-62.221,2427.75,monload-611_runway,,,,,,,,2.4,,,1.0115625
77,0.0,,117.519,,0.0,17.5128,117.529,17.5128,-62.471,2422.4,monload-611_runway,,,,,,,,2.4,,,1.0093333333333334
78,0.0,,117.458,,0.0,20.9229,117.46,20.9229,-62.5402,2421.02,monload-611_runway,,,,,,,,2.4,,,1.0087583333333334
79,0.0,,116.849,,0.0,32.7171,116.849,32.7171,-63.1508,2407.81,monload-611_runway,,,,,,,,2.4,,,1.0032541666666666
80,0.0,,116.565,,0.0,34.9942,116.574,34.9942,-63.4261,2401.69,monload-611_runway,,,,,,,,2.4,,,1.0007041666666667
81,0.0,,116.558,,0.0,30.82,116.558,30.82,-63.4421,2401.15,monload-611_runway,,,,,,,,2.4,,,1.0004791666666668
82,0.0,,116.656,,0.0,30.1071,116.653,30.1071,-63.3466,2402.79,monload-611_runway,,,,,,,,2.4,,,1.0011625
83,0.0,,116.893,,0.0,23.08,116.901,23.08,-63.0986,2407.62,monload-611_runway,,,,,,,,2.4,,,1.003175
84,0.0,,116.958,,0.0,23.6213,116.956,23.6213,-63.0442,2408.66,monload-611_runway,,,,,,,,2.4,,,1.0036083333333332
85,0.0,,117.051,,0.0,24.733,117.048,24.733,-62.9521,2410.38,monload-611_runway,,,,,,,,2.4,,,1.0043250000000001
86,0.0,,116.919,,0.0,26.0612,116.924,26.0612,-63.0765,2407.68,monload-611_runway,,,,,,,,2.4,,,1.0031999999999999
87,0.0,,116.785,,0.0,26.4039,116.789,26.4039,-63.2109,2405.05,monload-611_runway,,,,,,,,2.4,,,1.0021041666666668
88,0.0,,116.594,,0.0,26.3335,116.594,26.3335,-63.4061,2401.41,monload-611_runway,,,,,,,,2.4,,,1.0005875
89,0.0,,116.363,,0.0,27.5633,116.364,27.5633,-63.6365,2397.08,monload-611_runway,,,,,,,,2.4,,,0.9987833333333334
90,0.0,,116.268,,0.0,33.8235,116.268,33.8235,-63.7321,2395.08,monload-611_runway,,,,,,,,2.4,,,0.99795
91,0.0,,116.714,,0.0,41.4629,116.714,41.4629,-63.2862,2404.62,monload-611_runway,,,,,,,,2.4,,,1.001925
92,0.0,,116.71,,0.0,44.545,116.71,44.545,-63.2896,2404.39,monload-611_runway,,,,,,,,2.4,,,1.0018291666666665
93,0.0,,116.965,,0.0,49.2734,116.965,49.2734,-63.0347,2409.6,monload-611_runway,,,,,,,,2.4,,,1.004
94,0.0,,117.084,,0.0,46.4184,117.084,46.4184,-62.9162,2412.13,monload-611_runway,,,,,,,,2.4,,,1.0050541666666668
95,0.0,,117.399,,0.0,34.3923,117.391,34.3923,-62.6094,2419.18,monload-611_runway,,,,,,,,2.4,,,1.0079916666666666
96,0.0,,117.536,,0.0,24.0131,117.532,24.0131,-62.4677,2422.44,monload-611_runway,,,,,,,,2.4,,,1.00935
97,0.0,,117.599,,0.0,21.7964,117.597,21.7964,-62.4026,2423.81,monload-611_runway,,,,,,,,2.4,,,1.0099208333333334
98,0.0,,117.615,,0.0,20.8093,117.615,20.8093,-62.3854,2424.17,monload-611_runway,,,,,,,,2.4,,,1.0100708333333335
99,0.0,,117.631,,0.0,19.5335,117.631,19.5335,-62.3693,2424.55,monload-611_runway,,,,,,,,2.4,,,1.0102291666666667
100,0.0,,117.651,,0.0,19.3539,117.65,19.3539,-62.3497,2424.97,monload-611_runway,,,,,,,,2.4,,,1.0104041666666665
101,0.0,,117.42,,0.0,19.795,117.427,19.795,-62.5726,2420.2,monload-611_runway,,,,,,,,2.4,,,1.0084166666666665
102,0.0,,117.327,,0.0,23.6849,117.33,23.6849,-62.6702,2418.13,monload-611_runway,,,,,,,,2.4,,,1.0075541666666668
103,0.0,,116.665,,0.0,38.4226,116.666,38.4226,-63.3342,2403.62,monload-611_runway,,,,,,,,2.4,,,1.0015083333333332
104,0.0,,116.363,,0.0,42.7031,116.364,42.7031,-63.6361,2396.98,monload-611_runway,,,,,,,,2.4,,,0.9987416666666666
105,0.0,,116.335,,0.0,39.7651,116.334,39.7651,-63.6659,2395.91,monload-611_runway,,,,,,,,2.4,,,0.9982958333333333
106,0.0,,116.308,,0.0,42.459,116.308,42.459,-63.6923,2394.74,monload-611_runway,,,,,,,,2.4,,,0.9978083333333333
107,0.0,,116.468,,0.0,36.7749,116.463,36.7749,-63.5375,2397.99,monload-611_runway,,,,,,,,2.4,,,0.9991625
108,0.0,,116.641,,0.0,34.924,116.633,34.924,-63.3666,2401.45,monload-611_runway,,,,,,,,2.4,,,1.0006041666666665
109,0.0,,116.792,,0.0,35.3309,116.785,35.3309,-63.2146,2404.5,monload-611_runway,,,,,,,,2.4,,,1.001875
110,0.0,,116.668,,0.0,36.1511,116.673,36.1511,-63.3269,2401.97,monload-611_runway,,,,,,,,2.4,,,1.0008208333333333
111,0.0,,116.558,,0.0,36.557,116.562,36.557,-63.4375,2399.87,monload-611_runway,,,,,,,,2.4,,,0.9999458333333333
112,0.0,,116.414,,0.0,35.8436,116.417,35.8436,-63.5828,2397.22,monload-611_runway,,,,,,,,2.4,,,0.9988416666666666
113,0.0,,116.267,,0.0,37.3236,116.267,37.3236,-63.7333,2394.73,monload-611_runway,,,,,,,,2.4,,,0.9978041666666667
114,0.0,,116.25,,0.0,42.3539,116.25,42.3539,-63.7504,2394.47,monload-611_runway,,,,,,,,2.4,,,0.9976958333333332
115,0.0,,116.757,,0.0,48.2942,116.757,48.2942,-63.2428,2405.34,monload-611_runway,,,,,,,,2.4,,,1.0022250000000001
116,0.0,,116.764,,0.0,50.8826,116.764,50.8826,-63.2359,2405.36,monload-611_runway,,,,,,,,2.4,,,1.0022333333333333
117,0.0,,117.023,,0.0,55.1034,117.022,55.1034,-62.9776,2410.59,monload-611_runway,,,,,,,,2.4,,,1.0044125000000002
118,0.0,,117.137,,0.0,52.4571,117.137,52.4571,-62.8628,2413.05,monload-611_runway,,,,,,,,2.4,,,1.0054375
119,0.0,,117.465,,0.0,40.733,117.455,40.733,-62.5446,2420.31,monload-611_runway,,,,,,,,2.4,,,1.0084625
120,0.0,,117.619,,0.0,29.5798,117.614,29.5798,-62.3857,2423.94,monload-611_runway,,,,,,,,2.4,,,1.009975
121,0.0,,117.709,,0.0,25.8806,117.706,25.8806,-62.294,2425.89,monload-611_runway,,,,,,,,2.4,,,1.0107875
122,0.0,,117.724,,0.0,24.5759,117.724,24.5759,-62.276,2426.26,monload-611_runway,,,,,,,,2.4,,,1.0109416666666668
123,0.0,,117.742,,0.0,22.9971,117.742,22.9971,-62.2582,2426.69,monload-611_runway,,,,,,,,2.4,,,1.0111208333333332
124,0.0,,117.749,,0.0,22.3842,117.748,22.3842,-62.2516,2426.84,monload-611_runway,,,,,,,,2.4,,,1.0111833333333333
125,0.0,,117.491,,0.0,22.8134,117.499,22.8134,-62.501,2421.54,monload-611_runway,,,,,,,,2.4,,,1.008975
126,0.0,,117.414,,0.0,26.7316,117.416,26.7316,-62.5837,2419.82,monload-611_runway,,,,,,,,2.4,,,1.0082583333333335
127,0.0,,116.755,,0.0,41.3038,116.756,41.3038,-63.244,2405.45,monload-611_runway,,,,,,,,2.4,,,1.0022708333333332
128,0.0,,116.443,,0.0,45.5509,116.443,45.5509,-63.5569,2398.62,monload-611_runway,,,,,,,,2.4,,,0.999425
129,0.0,,116.337,,0.0,44.0571,116.337,44.0571,-63.6634,2396.03,monload-611_runway,,,,,,,,2.4,,,0.9983458333333334
130,0.0,,116.305,,0.0,44.3574,116.305,44.3574,-63.695,2394.88,monload-611_runway,,,,,,,,2.4,,,0.9978666666666667
131,0.0,,116.519,,0.0,38.3172,116.512,38.3172,-63.4884,2399.2,monload-611_runway,,,,,,,,2.4,,,0.9996666666666666
132,0.0,,116.412,,0.0,39.0492,116.416,39.0492,-63.5839,2397.06,monload-611_runway,,,,,,,,2.4,,,0.998775
133,0.0,,116.55,,0.0,39.7514,116.559,39.7514,-63.4413,2399.75,monload-611_runway,,,,,,,,2.4,,,0.9998958333333333
134,0.0,,116.465,,0.0,40.3209,116.468,40.3209,-63.5324,2397.94,monload-611_runway,,,,,,,,2.4,,,0.9991416666666667
135,0.0,,116.476,,0.0,40.0177,116.475,40.0177,-63.5247,2398.17,monload-611_runway,,,,,,,,2.4,,,0.9992375
136,0.0,,116.35,,0.0,38.751,116.351,38.751,-63.6493,2395.92,monload-611_runway,,,,,,,,2.4,,,0.9983000000000001
137,0.0,,116.253,,0.0,37.858,116.252,37.858,-63.7477,2394.51,monload-611_runway,,,,,,,,2.4,,,0.9977125000000001
138,0.0,,116.217,,0.0,42.9001,116.217,42.9001,-63.783,2393.73,monload-611_runway,,,,,,,,2.4,,,0.9973875
139,0.0,,116.685,,0.0,49.9773,116.685,49.9773,-63.3146,2403.8,monload-611_runway,,,,,,,,2.4,,,1.0015833333333335
140,0.0,,116.687,,0.0,52.678,116.687,52.678,-63.3129,2403.69,monload-611_runway,,,,,,,,2.4,,,1.0015375
141,0.0,,116.939,,0.0,57.1881,116.939,57.1881,-63.0606,2408.81,monload-611_runway,,,,,,,,2.4,,,1.0036708333333333
142,0.0,,117.131,,0.0,51.6617,117.131,51.6617,-62.8689,2412.96,monload-611_runway,,,,,,,,2.4,,,1.0054
143,0.0,,117.522,,0.0,37.0848,117.509,37.0848,-62.4905,2421.61,monload-611_runway,,,,,,,,2.4,,,1.0090041666666667
144,0.0,,117.675,,0.0,25.3175,117.67,25.3175,-62.3297,2425.25,monload-611_runway,,,,,,,,2.4,,,1.0105208333333333
145,0.0,,117.732,,0.0,23.1146,117.73,23.1146,-62.2703,2426.46,monload-611_runway,,,,,,,,2.4,,,1.011025
146,0.0,,117.725,,0.0,22.7156,117.726,22.7156,-62.2743,2426.34,monload-611_runway,,,,,,,,2.4,,,1.010975
147,0.0,,117.752,,0.0,19.4987,117.751,19.4987,-62.2488,2427.03,monload-611_runway,,,,,,,,2.4,,,1.0112625000000002
148,0.0,,117.757,,0.0,19.1538,117.757,19.1538,-62.2429,2427.15,monload-611_runway,,,,,,,,2.4,,,1.0113125
149,0.0,,117.69,,0.0,19.44,117.692,19.44,-62.3079,2425.77,monload-611_runway,,,,,,,,2.4,,,1.0107375
150,0.0,,117.651,,0.0,20.7921,117.652,20.7921,-62.3479,2424.96,monload-611_runway,,,,,,,,2.4,,,1.0104
151,0.0,,117.387,,0.0,30.6613,117.395,30.6613,-62.6047,2419.13,monload-611_runway,,,,,,,,2.4,,,1.0079708333333335
152,0.0,,117.155,,0.0,32.5578,117.162,32.5578,-62.838,2414.08,monload-611_runway,,,,,,,,2.4,,,1.0058666666666667
153,0.0,,117.123,,0.0,45.5458,117.123,45.5458,-62.8769,2412.12,monload-611_runway,,,,,,,,2.4,,,1.00505
154,0.0,,116.924,,0.0,40.6198,116.931,40.6198,-63.0695,2408.35,monload-611_runway,,,,,,,,2.4,,,1.0034791666666667
155,0.0,,117.392,,0.0,31.8176,117.391,31.8176,-62.6087,2417.33,monload-611_runway,,,,,,,,2.4,,,1.0072208333333332
156,0.0,,117.454,,0.0,31.3428,117.452,31.3428,-62.5477,2418.44,monload-611_runway,,,,,,,,2.4,,,1.0076833333333333
157,0.0,,117.452,,0.0,32.0281,117.451,32.0281,-62.5485,2418.43,monload-611_runway,,,,,,,,2.4,,,1.0076791666666667
158,0.0,,117.453,,0.0,31.7662,117.454,31.7662,-62.5462,2418.54,monload-611_runway,,,,,,,,2.4,,,1.007725
159,0.0,,117.358,,0.0,32.0361,117.356,32.0361,-62.6439,2416.81,monload-611_runway,,,,,,,,2.4,,,1.0070041666666667
160,0.0,,117.256,,0.0,33.0122,117.256,33.0122,-62.744,2415.37,monload-611_runway,,,,,,,,2.4,,,1.0064041666666665
161,0.0,,117.14,,0.0,33.2851,117.14,33.2851,-62.8598,2413.27,monload-611_runway,,,,,,,,2.4,,,1.0055291666666666
162,0.0,,117.12,,0.0,36.5459,117.12,36.5459,-62.8802,2413.25,monload-611_runway,,,,,,,,2.4,,,1.0055208333333334
163,0.0,,117.049,,0.0,47.5561,117.05,47.5561,-62.9503,2411.48,monload-611_runway,,,,,,,,2.4,,,1.0047833333333334
164,0.0,,117.046,,0.0,49.2997,117.046,49.2997,-62.9539,2411.32,monload-611_runway,,,,,,,,2.4,,,1.0047166666666667
165,0.0,,117.266,,0.0,51.8892,117.261,51.8892,-62.7389,2415.77,monload-611_runway,,,,,,,,2.4,,,1.0065708333333334
166,0.0,,117.301,,0.0,51.0972,117.301,51.0972,-62.6993,2416.47,monload-611_runway,,,,,,,,2.4,,,1.0068625
167,0.0,,117.492,,0.0,40.8171,117.487,40.8171,-62.5129,2420.82,monload-611_runway,,,,,,,,2.4,,,1.008675
168,0.0,,117.658,,0.0,27.8677,117.654,27.8677,-62.3462,2424.78,monload-611_runway,,,,,,,,2.4,,,1.0103250000000001
169,0.0,,117.772,,0.0,23.6005,117.769,23.6005,-62.2315,2427.26,monload-611_runway,,,,,,,,2.4,,,1.0113583333333334
170,0.0,,117.78,,0.0,23.0303,117.779,23.0303,-62.2206,2427.44,monload-611_runway,,,,,,,,2.4,,,1.0114333333333334
171,0.0,,117.813,,0.0,19.8099,117.813,19.8099,-62.1874,2428.27,monload-611_runway,,,,,,,,2.4,,,1.0117791666666667
172,0.0,,117.816,,0.0,19.6465,117.816,19.6465,-62.1845,2428.32,monload-611_runway,,,,,,,,2.4,,,1.0118
173,0.0,,117.739,,0.0,20.1694,117.741,20.1694,-62.2586,2426.76,monload-611_runway,,,,,,,,2.4,,,1.01115
174,0.0,,117.694,,0.0,21.5583,117.695,21.5583,-62.3046,2425.81,monload-611_runway,,,,,,,,2.4,,,1.0107541666666666
175,0.0,,117.409,,0.0,31.2002,117.416,31.2002,-62.584,2419.55,monload-611_runway,,,,,,,,2.4,,,1.0081458333333335
176,0.0,,117.376,,0.0,33.3904,117.377,33.3904,-62.6227,2418.55,monload-611_runway,,,,,,,,2.4,,,1.0077291666666668
177,0.0,,117.212,,0.0,49.5935,117.211,49.5935,-62.7885,2413.74,monload-611_runway,,,,,,,,2.4,,,1.005725
178,0.0,,117.377,,0.0,48.4258,117.373,48.4258,-62.627,2416.73,monload-611_runway,,,,,,,,2.4,,,1.0069708333333334
179,0.0,,117.145,,0.0,39.6712,117.145,39.6712,-62.8552,2413.19,monload-611_runway,,,,,,,,2.4,,,1.0054958333333333
180,0.0,,110.623,,0.0,38.1499,110.628,38.1499,-69.3723,2385.7,monload-611_runway,,,,,,,,2.4,,,0.9940416666666666
