hour,t(sec),P1(kW),Q1(kvar),P2(kW),Q2(kvar),P3(kW),Name,Q3(kvar),P4(kW),Q4(kvar),V1,VAngle1,V2,VAngle2,V3,VAngle3,I1,IAngle1,I2,IAngle2,I3,IAngle3
1,0.0,0.0,0.0,0.0,0.0,0.0,mongenerator-battery_670,0.0,0.0,0.0,,,,,,,,,,,,
2,0.0,0.0,0.0,0.0,0.0,0.0,mongenerator-battery_670,0.0,0.0,0.0,,,,,,,,,,,,
3,0.0,0.0,0.0,0.0,0.0,0.0,mongenerator-battery_670,0.0,0.0,0.0,,,,,,,,,,,,
4,0.0,0.0,0.0,0.0,0.0,0.0,mongenerator-battery_670,0.0,0.0,0.0,,,,,,,,,,,,
5,0.0,0.0,0.0,0.0,0.0,0.0,mongenerator-battery_670,0.0,0.0,0.0,,,,,,,,,,,,
6,0.0,0.0,0.0,0.0,0.0,0.0,mongenerator-battery_670,0.0,0.0,0.0,,,,,,,,,,,,
7,0.0,0.0,0.0,0.0,0.0,0.0,mongenerator-battery_670,0.0,0.0,0.0,,,,,,,,,,,,
8,0.0,0.0,0.0,0.0,0.0,0.0,mongenerator-battery_670,0.0,0.0,0.0,,,,,,,,,,,,
9,0.0,0.0,0.0,0.0,0.0,0.0,mongenerator-battery_670,0.0,0.0,0.0,,,,,,,,,,,,
10,0.0,0.0,0.0,0.0,0.0,0.0,mongenerator-battery_670,0.0,0.0,0.0,,,,,,,,,,,,
11,0.0,-33.0706,1.2937999999999999e-05,-33.6144,-7.96443e-06,-31.2635,mongenerator-battery_670,0.00039045800000000005,0.0,0.0,,,,,,,,,,,,
12,0.0,125.773,-0.000106529,125.525,7.823260000000001e-05,117.16799999999999,mongenerator-battery_670,-0.00519752,0.0,0.0,,,,,,,,,,,,
13,0.0,-121.041,0.000179504,-122.20200000000001,-2.44929e-05,-113.726,mongenerator-battery_670,0.0013482000000000001,0.0,0.0,,,,,,,,,,,,
14,0.0,47.2508,1.73593e-05,47.5365,-5.40831e-06,44.2943,mongenerator-battery_670,0.00032506799999999997,0.0,0.0,,,,,,,,,,,,
15,0.0,89.5227,7.48278e-05,89.7309,-1.5638e-05,83.7676,mongenerator-battery_670,0.0009174119999999999,0.0,0.0,,,,,,,,,,,,
16,0.0,0.0,0.0,0.0,0.0,0.0,mongenerator-battery_670,0.0,0.0,0.0,,,,,,,,,,,,
17,0.0,0.0,0.0,0.0,0.0,0.0,mongenerator-battery_670,0.0,0.0,0.0,,,,,,,,,,,,
18,0.0,0.0,0.0,0.0,0.0,0.0,mongenerator-battery_670,0.0,0.0,0.0,,,,,,,,,,,,
19,0.0,0.0,0.0,0.0,0.0,0.0,mongenerator-battery_670,0.0,0.0,0.0,,,,,,,,,,,,
20,0.0,0.0,0.0,0.0,0.0,0.0,mongenerator-battery_670,0.0,0.0,0.0,,,,,,,,,,,,
21,0.0,0.0,0.0,0.0,0.0,0.0,mongenerator-battery_670,0.0,0.0,0.0,,,,,,,,,,,,
22,0.0,0.0,0.0,0.0,0.0,0.0,mongenerator-battery_670,0.0,0.0,0.0,,,,,,,,,,,,
23,0.0,0.0,0.0,0.0,0.0,0.0,mongenerator-battery_670,0.0,0.0,0.0,,,,,,,,,,,,
24,0.0,0.0,0.0,0.0,0.0,0.0,mongenerator-battery_670,0.0,0.0,0.0,,,,,,,,,,,,
25,0.0,0.0,0.0,0.0,0.0,0.0,mongenerator-battery_670,0.0,0.0,0.0,,,,,,,,,,,,
26,0.0,0.0,0.0,0.0,0.0,0.0,mongenerator-battery_670,0.0,0.0,0.0,,,,,,,,,,,,
27,0.0,0.0,0.0,0.0,0.0,0.0,mongenerator-battery_670,0.0,0.0,0.0,,,,,,,,,,,,
28,0.0,0.0,0.0,0.0,0.0,0.0,mongenerator-battery_670,0.0,0.0,0.0,,,,,,,,,,,,
29,0.0,0.0,0.0,0.0,0.0,0.0,mongenerator-battery_670,0.0,0.0,0.0,,,,,,,,,,,,
30,0.0,0.0,0.0,0.0,0.0,0.0,mongenerator-battery_670,0.0,0.0,0.0,,,,,,,,,,,,
31,0.0,0.0,0.0,0.0,0.0,0.0,mongenerator-battery_670,0.0,0.0,0.0,,,,,,,,,,,,
32,0.0,0.0,0.0,0.0,0.0,0.0,mongenerator-battery_670,0.0,0.0,0.0,,,,,,,,,,,,
33,0.0,0.0,0.0,0.0,0.0,0.0,mongenerator-battery_670,0.0,0.0,0.0,,,,,,,,,,,,
34,0.0,0.0,0.0,0.0,0.0,0.0,mongenerator-battery_670,0.0,0.0,0.0,,,,,,,,,,,,
35,0.0,0.0,0.0,0.0,0.0,0.0,mongenerator-battery_670,0.0,0.0,0.0,,,,,,,,,,,,
36,0.0,-59.8486,-0.000546891,-61.0552,6.4676e-05,-55.2025,mongenerator-battery_670,-0.000515912,0.0,0.0,,,,,,,,,,,,
37,0.0,10.3054,-5.13106e-06,10.1084,3.5956300000000003e-06,9.29792,mongenerator-battery_670,-0.00019063,0.0,0.0,,,,,,,,,,,,
38,0.0,-50.7302,-0.00143419,-50.9723,-0.000140189,-46.1253,mongenerator-battery_670,-0.00222095,0.0,0.0,,,,,,,,,,,,
39,0.0,131.329,-4.21501e-05,128.15,3.77198e-05,118.095,mongenerator-battery_670,-0.00177723,0.0,0.0,,,,,,,,,,,,
40,0.0,0.0,0.0,0.0,0.0,0.0,mongenerator-battery_670,0.0,0.0,0.0,,,,,,,,,,,,
41,0.0,0.0,0.0,0.0,0.0,0.0,mongenerator-battery_670,0.0,0.0,0.0,,,,,,,,,,,,
42,0.0,-14.5876,-0.00010096,-14.9705,-5.0096e-05,-13.3055,mongenerator-battery_670,-0.000146063,0.0,0.0,,,,,,,,,,,,
43,0.0,0.0,0.0,0.0,0.0,0.0,mongenerator-battery_670,0.0,0.0,0.0,,,,,,,,,,,,
44,0.0,0.0,0.0,0.0,0.0,0.0,mongenerator-battery_670,0.0,0.0,0.0,,,,,,,,,,,,
45,0.0,0.0,0.0,0.0,0.0,0.0,mongenerator-battery_670,0.0,0.0,0.0,,,,,,,,,,,,
46,0.0,0.0,0.0,0.0,0.0,0.0,mongenerator-battery_670,0.0,0.0,0.0,,,,,,,,,,,,
47,0.0,0.0,0.0,0.0,0.0,0.0,mongenerator-battery_670,0.0,0.0,0.0,,,,,,,,,,,,
48,0.0,0.0,0.0,0.0,0.0,0.0,mongenerator-battery_670,0.0,0.0,0.0,,,,,,,,,,,,
49,0.0,0.0,0.0,0.0,0.0,0.0,mongenerator-battery_670,0.0,0.0,0.0,,,,,,,,,,,,
50,0.0,0.0,0.0,0.0,0.0,0.0,mongenerator-battery_670,0.0,0.0,0.0,,,,,,,,,,,,
51,0.0,0.0,0.0,0.0,0.0,0.0,mongenerator-battery_670,0.0,0.0,0.0,,,,,,,,,,,,
52,0.0,0.0,0.0,0.0,0.0,0.0,mongenerator-battery_670,0.0,0.0,0.0,,,,,,,,,,,,
53,0.0,0.0,0.0,0.0,0.0,0.0,mongenerator-battery_670,0.0,0.0,0.0,,,,,,,,,,,,
54,0.0,0.0,0.0,0.0,0.0,0.0,mongenerator-battery_670,0.0,0.0,0.0,,,,,,,,,,,,
55,0.0,0.0,0.0,0.0,0.0,0.0,mongenerator-battery_670,0.0,0.0,0.0,,,,,,,,,,,,
56,0.0,0.0,0.0,0.0,0.0,0.0,mongenerator-battery_670,0.0,0.0,0.0,,,,,,,,,,,,
57,0.0,0.0,0.0,0.0,0.0,0.0,mongenerator-battery_670,0.0,0.0,0.0,,,,,,,,,,,,
58,0.0,-98.4321,3.62793e-05,-96.3836,-3.15813e-05,-88.3604,mongenerator-battery_670,0.00144406,0.0,0.0,,,,,,,,,,,,
59,0.0,129.418,-8.454340000000001e-05,126.105,6.50241e-05,116.309,mongenerator-battery_670,-0.00216988,0.0,0.0,,,,,,,,,,,,
60,0.0,0.0,0.0,0.0,0.0,0.0,mongenerator-battery_670,0.0,0.0,0.0,,,,,,,,,,,,
61,0.0,0.0,0.0,0.0,0.0,0.0,mongenerator-battery_670,0.0,0.0,0.0,,,,,,,,,,,,
62,0.0,0.0,0.0,0.0,0.0,0.0,mongenerator-battery_670,0.0,0.0,0.0,,,,,,,,,,,,
63,0.0,0.0,0.0,0.0,0.0,0.0,mongenerator-battery_670,0.0,0.0,0.0,,,,,,,,,,,,
64,0.0,0.0,0.0,0.0,0.0,0.0,mongenerator-battery_670,0.0,0.0,0.0,,,,,,,,,,,,
65,0.0,0.0,0.0,0.0,0.0,0.0,mongenerator-battery_670,0.0,0.0,0.0,,,,,,,,,,,,
66,0.0,0.0,0.0,0.0,0.0,0.0,mongenerator-battery_670,0.0,0.0,0.0,,,,,,,,,,,,
67,0.0,0.0,0.0,0.0,0.0,0.0,mongenerator-battery_670,0.0,0.0,0.0,,,,,,,,,,,,
68,0.0,0.0,0.0,0.0,0.0,0.0,mongenerator-battery_670,0.0,0.0,0.0,,,,,,,,,,,,
69,0.0,0.0,0.0,0.0,0.0,0.0,mongenerator-battery_670,0.0,0.0,0.0,,,,,,,,,,,,
70,0.0,0.0,0.0,0.0,0.0,0.0,mongenerator-battery_670,0.0,0.0,0.0,,,,,,,,,,,,
71,0.0,0.0,0.0,0.0,0.0,0.0,mongenerator-battery_670,0.0,0.0,0.0,,,,,,,,,,,,
72,0.0,0.0,0.0,0.0,0.0,0.0,mongenerator-battery_670,0.0,0.0,0.0,,,,,,,,,,,,
73,0.0,0.0,0.0,0.0,0.0,0.0,mongenerator-battery_670,0.0,0.0,0.0,,,,,,,,,,,,
74,0.0,0.0,0.0,0.0,0.0,0.0,mongenerator-battery_670,0.0,0.0,0.0,,,,,,,,,,,,
75,0.0,0.0,0.0,0.0,0.0,0.0,mongenerator-battery_670,0.0,0.0,0.0,,,,,,,,,,,,
76,0.0,0.0,0.0,0.0,0.0,0.0,mongenerator-battery_670,0.0,0.0,0.0,,,,,,,,,,,,
77,0.0,0.0,0.0,0.0,0.0,0.0,mongenerator-battery_670,0.0,0.0,0.0,,,,,,,,,,,,
78,0.0,0.0,0.0,0.0,0.0,0.0,mongenerator-battery_670,0.0,0.0,0.0,,,,,,,,,,,,
79,0.0,0.0,0.0,0.0,0.0,0.0,mongenerator-battery_670,0.0,0.0,0.0,,,,,,,,,,,,
80,0.0,0.0,0.0,0.0,0.0,0.0,mongenerator-battery_670,0.0,0.0,0.0,,,,,,,,,,,,
81,0.0,0.0,0.0,0.0,0.0,0.0,mongenerator-battery_670,0.0,0.0,0.0,,,,,,,,,,,,
82,0.0,0.0,0.0,0.0,0.0,0.0,mongenerator-battery_670,0.0,0.0,0.0,,,,,,,,,,,,
83,0.0,0.0,0.0,0.0,0.0,0.0,mongenerator-battery_670,0.0,0.0,0.0,,,,,,,,,,,,
84,0.0,0.0,0.0,0.0,0.0,0.0,mongenerator-battery_670,0.0,0.0,0.0,,,,,,,,,,,,
85,0.0,-12.7487,3.8409e-07,-12.7467,9.76039e-10,-12.74,mongenerator-battery_670,3.82503e-06,0.0,0.0,,,,,,,,,,,,
86,0.0,12.7473,-1.9368000000000002e-06,12.7453,5.19022e-08,12.7382,mongenerator-battery_670,2.73301e-05,0.0,0.0,,,,,,,,,,,,
87,0.0,0.0,0.0,0.0,0.0,0.0,mongenerator-battery_670,0.0,0.0,0.0,,,,,,,,,,,,
88,0.0,0.0,0.0,0.0,0.0,0.0,mongenerator-battery_670,0.0,0.0,0.0,,,,,,,,,,,,
89,0.0,0.0,0.0,0.0,0.0,0.0,mongenerator-battery_670,0.0,0.0,0.0,,,,,,,,,,,,
90,0.0,0.0,0.0,0.0,0.0,0.0,mongenerator-battery_670,0.0,0.0,0.0,,,,,,,,,,,,
91,0.0,0.0,0.0,0.0,0.0,0.0,mongenerator-battery_670,0.0,0.0,0.0,,,,,,,,,,,,
92,0.0,0.0,0.0,0.0,0.0,0.0,mongenerator-battery_670,0.0,0.0,0.0,,,,,,,,,,,,
93,0.0,0.0,0.0,0.0,0.0,0.0,mongenerator-battery_670,0.0,0.0,0.0,,,,,,,,,,,,
94,0.0,0.0,0.0,0.0,0.0,0.0,mongenerator-battery_670,0.0,0.0,0.0,,,,,,,,,,,,
95,0.0,0.0,0.0,0.0,0.0,0.0,mongenerator-battery_670,0.0,0.0,0.0,,,,,,,,,,,,
96,0.0,0.0,0.0,0.0,0.0,0.0,mongenerator-battery_670,0.0,0.0,0.0,,,,,,,,,,,,
97,0.0,0.0,0.0,0.0,0.0,0.0,mongenerator-battery_670,0.0,0.0,0.0,,,,,,,,,,,,
98,0.0,0.0,0.0,0.0,0.0,0.0,mongenerator-battery_670,0.0,0.0,0.0,,,,,,,,,,,,
99,0.0,0.0,0.0,0.0,0.0,0.0,mongenerator-battery_670,0.0,0.0,0.0,,,,,,,,,,,,
100,0.0,0.0,0.0,0.0,0.0,0.0,mongenerator-battery_670,0.0,0.0,0.0,,,,,,,,,,,,
101,0.0,0.0,0.0,0.0,0.0,0.0,mongenerator-battery_670,0.0,0.0,0.0,,,,,,,,,,,,
102,0.0,0.0,0.0,0.0,0.0,0.0,mongenerator-battery_670,0.0,0.0,0.0,,,,,,,,,,,,
103,0.0,0.0,0.0,0.0,0.0,0.0,mongenerator-battery_670,0.0,0.0,0.0,,,,,,,,,,,,
104,0.0,0.0,0.0,0.0,0.0,0.0,mongenerator-battery_670,0.0,0.0,0.0,,,,,,,,,,,,
105,0.0,0.0,0.0,0.0,0.0,0.0,mongenerator-battery_670,0.0,0.0,0.0,,,,,,,,,,,,
106,0.0,0.0,0.0,0.0,0.0,0.0,mongenerator-battery_670,0.0,0.0,0.0,,,,,,,,,,,,
107,0.0,0.0,0.0,0.0,0.0,0.0,mongenerator-battery_670,0.0,0.0,0.0,,,,,,,,,,,,
108,0.0,0.0,0.0,0.0,0.0,0.0,mongenerator-battery_670,0.0,0.0,0.0,,,,,,,,,,,,
109,0.0,0.0,0.0,0.0,0.0,0.0,mongenerator-battery_670,0.0,0.0,0.0,,,,,,,,,,,,
110,0.0,0.0,0.0,0.0,0.0,0.0,mongenerator-battery_670,0.0,0.0,0.0,,,,,,,,,,,,
111,0.0,0.0,0.0,0.0,0.0,0.0,mongenerator-battery_670,0.0,0.0,0.0,,,,,,,,,,,,
112,0.0,0.0,0.0,0.0,0.0,0.0,mongenerator-battery_670,0.0,0.0,0.0,,,,,,,,,,,,
113,0.0,0.0,0.0,0.0,0.0,0.0,mongenerator-battery_670,0.0,0.0,0.0,,,,,,,,,,,,
114,0.0,0.0,0.0,0.0,0.0,0.0,mongenerator-battery_670,0.0,0.0,0.0,,,,,,,,,,,,
115,0.0,0.0,0.0,0.0,0.0,0.0,mongenerator-battery_670,0.0,0.0,0.0,,,,,,,,,,,,
116,0.0,0.0,0.0,0.0,0.0,0.0,mongenerator-battery_670,0.0,0.0,0.0,,,,,,,,,,,,
117,0.0,0.0,0.0,0.0,0.0,0.0,mongenerator-battery_670,0.0,0.0,0.0,,,,,,,,,,,,
118,0.0,0.0,0.0,0.0,0.0,0.0,mongenerator-battery_670,0.0,0.0,0.0,,,,,,,,,,,,
119,0.0,0.0,0.0,0.0,0.0,0.0,mongenerator-battery_670,0.0,0.0,0.0,,,,,,,,,,,,
120,0.0,0.0,0.0,0.0,0.0,0.0,mongenerator-battery_670,0.0,0.0,0.0,,,,,,,,,,,,
121,0.0,0.0,0.0,0.0,0.0,0.0,mongenerator-battery_670,0.0,0.0,0.0,,,,,,,,,,,,
122,0.0,0.0,0.0,0.0,0.0,0.0,mongenerator-battery_670,0.0,0.0,0.0,,,,,,,,,,,,
123,0.0,0.0,0.0,0.0,0.0,0.0,mongenerator-battery_670,0.0,0.0,0.0,,,,,,,,,,,,
124,0.0,0.0,0.0,0.0,0.0,0.0,mongenerator-battery_670,0.0,0.0,0.0,,,,,,,,,,,,
125,0.0,0.0,0.0,0.0,0.0,0.0,mongenerator-battery_670,0.0,0.0,0.0,,,,,,,,,,,,
126,0.0,0.0,0.0,0.0,0.0,0.0,mongenerator-battery_670,0.0,0.0,0.0,,,,,,,,,,,,
127,0.0,0.0,0.0,0.0,0.0,0.0,mongenerator-battery_670,0.0,0.0,0.0,,,,,,,,,,,,
128,0.0,0.0,0.0,0.0,0.0,0.0,mongenerator-battery_670,0.0,0.0,0.0,,,,,,,,,,,,
129,0.0,0.0,0.0,0.0,0.0,0.0,mongenerator-battery_670,0.0,0.0,0.0,,,,,,,,,,,,
130,0.0,0.0,0.0,0.0,0.0,0.0,mongenerator-battery_670,0.0,0.0,0.0,,,,,,,,,,,,
131,0.0,0.0,0.0,0.0,0.0,0.0,mongenerator-battery_670,0.0,0.0,0.0,,,,,,,,,,,,
132,0.0,0.0,0.0,0.0,0.0,0.0,mongenerator-battery_670,0.0,0.0,0.0,,,,,,,,,,,,
133,0.0,0.0,0.0,0.0,0.0,0.0,mongenerator-battery_670,0.0,0.0,0.0,,,,,,,,,,,,
134,0.0,0.0,0.0,0.0,0.0,0.0,mongenerator-battery_670,0.0,0.0,0.0,,,,,,,,,,,,
135,0.0,0.0,0.0,0.0,0.0,0.0,mongenerator-battery_670,0.0,0.0,0.0,,,,,,,,,,,,
136,0.0,0.0,0.0,0.0,0.0,0.0,mongenerator-battery_670,0.0,0.0,0.0,,,,,,,,,,,,
137,0.0,0.0,0.0,0.0,0.0,0.0,mongenerator-battery_670,0.0,0.0,0.0,,,,,,,,,,,,
138,0.0,0.0,0.0,0.0,0.0,0.0,mongenerator-battery_670,0.0,0.0,0.0,,,,,,,,,,,,
139,0.0,0.0,0.0,0.0,0.0,0.0,mongenerator-battery_670,0.0,0.0,0.0,,,,,,,,,,,,
140,0.0,0.0,0.0,0.0,0.0,0.0,mongenerator-battery_670,0.0,0.0,0.0,,,,,,,,,,,,
141,0.0,0.0,0.0,0.0,0.0,0.0,mongenerator-battery_670,0.0,0.0,0.0,,,,,,,,,,,,
142,0.0,0.0,0.0,0.0,0.0,0.0,mongenerator-battery_670,0.0,0.0,0.0,,,,,,,,,,,,
143,0.0,0.0,0.0,0.0,0.0,0.0,mongenerator-battery_670,0.0,0.0,0.0,,,,,,,,,,,,
144,0.0,0.0,0.0,0.0,0.0,0.0,mongenerator-battery_670,0.0,0.0,0.0,,,,,,,,,,,,
145,0.0,0.0,0.0,0.0,0.0,0.0,mongenerator-battery_670,0.0,0.0,0.0,,,,,,,,,,,,
146,0.0,0.0,0.0,0.0,0.0,0.0,mongenerator-battery_670,0.0,0.0,0.0,,,,,,,,,,,,
147,0.0,0.0,0.0,0.0,0.0,0.0,mongenerator-battery_670,0.0,0.0,0.0,,,,,,,,,,,,
148,0.0,0.0,0.0,0.0,0.0,0.0,mongenerator-battery_670,0.0,0.0,0.0,,,,,,,,,,,,
149,0.0,0.0,0.0,0.0,0.0,0.0,mongenerator-battery_670,0.0,0.0,0.0,,,,,,,,,,,,
150,0.0,0.0,0.0,0.0,0.0,0.0,mongenerator-battery_670,0.0,0.0,0.0,,,,,,,,,,,,
151,0.0,0.0,0.0,0.0,0.0,0.0,mongenerator-battery_670,0.0,0.0,0.0,,,,,,,,,,,,
152,0.0,0.0,0.0,0.0,0.0,0.0,mongenerator-battery_670,0.0,0.0,0.0,,,,,,,,,,,,
153,0.0,0.0,0.0,0.0,0.0,0.0,mongenerator-battery_670,0.0,0.0,0.0,,,,,,,,,,,,
154,0.0,0.0,0.0,0.0,0.0,0.0,mongenerator-battery_670,0.0,0.0,0.0,,,,,,,,,,,,
155,0.0,0.0,0.0,0.0,0.0,0.0,mongenerator-battery_670,0.0,0.0,0.0,,,,,,,,,,,,
156,0.0,-70.6541,1.05052e-06,-70.6536,2.39092e-07,-70.6226,mongenerator-battery_670,1.93815e-05,0.0,0.0,,,,,,,,,,,,
157,0.0,9.37463,6.09191e-07,9.374889999999999,-1.10894e-06,9.37076,mongenerator-battery_670,2.36227e-06,0.0,0.0,,,,,,,,,,,,
158,0.0,43.466,-2.30518e-06,43.4677,1.6177200000000001e-06,43.4489,mongenerator-battery_670,2.44948e-06,0.0,0.0,,,,,,,,,,,,
159,0.0,17.7848,-1.3165e-06,17.7867,5.91939e-06,17.7784,mongenerator-battery_670,-1.39193e-05,0.0,0.0,,,,,,,,,,,,
160,0.0,0.0,0.0,0.0,0.0,0.0,mongenerator-battery_670,0.0,0.0,0.0,,,,,,,,,,,,
161,0.0,0.0,0.0,0.0,0.0,0.0,mongenerator-battery_670,0.0,0.0,0.0,,,,,,,,,,,,
162,0.0,0.0,0.0,0.0,0.0,0.0,mongenerator-battery_670,0.0,0.0,0.0,,,,,,,,,,,,
163,0.0,0.0,0.0,0.0,0.0,0.0,mongenerator-battery_670,0.0,0.0,0.0,,,,,,,,,,,,
164,0.0,0.0,0.0,0.0,0.0,0.0,mongenerator-battery_670,0.0,0.0,0.0,,,,,,,,,,,,
165,0.0,0.0,0.0,0.0,0.0,0.0,mongenerator-battery_670,0.0,0.0,0.0,,,,,,,,,,,,
166,0.0,0.0,0.0,0.0,0.0,0.0,mongenerator-battery_670,0.0,0.0,0.0,,,,,,,,,,,,
167,0.0,0.0,0.0,0.0,0.0,0.0,mongenerator-battery_670,0.0,0.0,0.0,,,,,,,,,,,,
168,0.0,0.0,0.0,0.0,0.0,0.0,mongenerator-battery_670,0.0,0.0,0.0,,,,,,,,,,,,
169,0.0,0.0,0.0,0.0,0.0,0.0,mongenerator-battery_670,0.0,0.0,0.0,,,,,,,,,,,,
170,0.0,0.0,0.0,0.0,0.0,0.0,mongenerator-battery_670,0.0,0.0,0.0,,,,,,,,,,,,
171,0.0,0.0,0.0,0.0,0.0,0.0,mongenerator-battery_670,0.0,0.0,0.0,,,,,,,,,,,,
172,0.0,0.0,0.0,0.0,0.0,0.0,mongenerator-battery_670,0.0,0.0,0.0,,,,,,,,,,,,
173,0.0,0.0,0.0,0.0,0.0,0.0,mongenerator-battery_670,0.0,0.0,0.0,,,,,,,,,,,,
174,0.0,0.0,0.0,0.0,0.0,0.0,mongenerator-battery_670,0.0,0.0,0.0,,,,,,,,,,,,
175,0.0,0.0,0.0,0.0,0.0,0.0,mongenerator-battery_670,0.0,0.0,0.0,,,,,,,,,,,,
176,0.0,0.0,0.0,0.0,0.0,0.0,mongenerator-battery_670,0.0,0.0,0.0,,,,,,,,,,,,
177,0.0,0.0,0.0,0.0,0.0,0.0,mongenerator-battery_670,0.0,0.0,0.0,,,,,,,,,,,,
178,0.0,0.0,0.0,0.0,0.0,0.0,mongenerator-battery_670,0.0,0.0,0.0,,,,,,,,,,,,
179,0.0,0.0,0.0,0.0,0.0,0.0,mongenerator-battery_670,0.0,0.0,0.0,,,,,,,,,,,,
180,0.0,0.0,0.0,0.0,0.0,0.0,mongenerator-battery_670,0.0,0.0,0.0,,,,,,,,,,,,
181,0.0,127.37100000000001,-0.000352999,127.975,3.4481e-06,118.00399999999999,mongenerator-battery_670,-0.0057476,0.0,0.0,,,,,,,,,,,,
182,0.0,0.0,0.0,0.0,0.0,0.0,mongenerator-battery_670,0.0,0.0,0.0,,,,,,,,,,,,
183,0.0,0.0,0.0,0.0,0.0,0.0,mongenerator-battery_670,0.0,0.0,0.0,,,,,,,,,,,,
184,0.0,0.0,0.0,0.0,0.0,0.0,mongenerator-battery_670,0.0,0.0,0.0,,,,,,,,,,,,
185,0.0,0.0,0.0,0.0,0.0,0.0,mongenerator-battery_670,0.0,0.0,0.0,,,,,,,,,,,,
186,0.0,0.0,0.0,0.0,0.0,0.0,mongenerator-battery_670,0.0,0.0,0.0,,,,,,,,,,,,
187,0.0,0.0,0.0,0.0,0.0,0.0,mongenerator-battery_670,0.0,0.0,0.0,,,,,,,,,,,,
188,0.0,0.0,0.0,0.0,0.0,0.0,mongenerator-battery_670,0.0,0.0,0.0,,,,,,,,,,,,
189,0.0,0.0,0.0,0.0,0.0,0.0,mongenerator-battery_670,0.0,0.0,0.0,,,,,,,,,,,,
190,0.0,0.0,0.0,0.0,0.0,0.0,mongenerator-battery_670,0.0,0.0,0.0,,,,,,,,,,,,
191,0.0,0.0,0.0,0.0,0.0,0.0,mongenerator-battery_670,0.0,0.0,0.0,,,,,,,,,,,,
192,0.0,0.0,0.0,0.0,0.0,0.0,mongenerator-battery_670,0.0,0.0,0.0,,,,,,,,,,,,
193,0.0,0.0,0.0,0.0,0.0,0.0,mongenerator-battery_670,0.0,0.0,0.0,,,,,,,,,,,,
194,0.0,0.0,0.0,0.0,0.0,0.0,mongenerator-battery_670,0.0,0.0,0.0,,,,,,,,,,,,
195,0.0,0.0,0.0,0.0,0.0,0.0,mongenerator-battery_670,0.0,0.0,0.0,,,,,,,,,,,,
196,0.0,0.0,0.0,0.0,0.0,0.0,mongenerator-battery_670,0.0,0.0,0.0,,,,,,,,,,,,
197,0.0,0.0,0.0,0.0,0.0,0.0,mongenerator-battery_670,0.0,0.0,0.0,,,,,,,,,,,,
198,0.0,0.0,0.0,0.0,0.0,0.0,mongenerator-battery_670,0.0,0.0,0.0,,,,,,,,,,,,
199,0.0,0.0,0.0,0.0,0.0,0.0,mongenerator-battery_670,0.0,0.0,0.0,,,,,,,,,,,,
200,0.0,0.0,0.0,0.0,0.0,0.0,mongenerator-battery_670,0.0,0.0,0.0,,,,,,,,,,,,
201,0.0,-111.31,3.7601e-05,-110.165,-2.9872800000000003e-05,-100.775,mongenerator-battery_670,0.00146021,0.0,0.0,,,,,,,,,,,,
202,0.0,129.566,-4.70495e-05,126.61399999999999,4.1653800000000004e-05,116.20299999999999,mongenerator-battery_670,-0.00194053,0.0,0.0,,,,,,,,,,,,
203,0.0,-110.663,2.3814699999999997e-05,-109.76700000000001,-1.81324e-05,-100.098,mongenerator-battery_670,0.000844736,0.0,0.0,,,,,,,,,,,,
204,0.0,131.827,-2.73074e-05,128.747,2.3918299999999998e-05,118.205,mongenerator-battery_670,-0.0011630999999999998,0.0,0.0,,,,,,,,,,,,
205,0.0,0.0,0.0,0.0,0.0,0.0,mongenerator-battery_670,0.0,0.0,0.0,,,,,,,,,,,,
206,0.0,0.0,0.0,0.0,0.0,0.0,mongenerator-battery_670,0.0,0.0,0.0,,,,,,,,,,,,
207,0.0,0.0,0.0,0.0,0.0,0.0,mongenerator-battery_670,0.0,0.0,0.0,,,,,,,,,,,,
208,0.0,0.0,0.0,0.0,0.0,0.0,mongenerator-battery_670,0.0,0.0,0.0,,,,,,,,,,,,
209,0.0,0.0,0.0,0.0,0.0,0.0,mongenerator-battery_670,0.0,0.0,0.0,,,,,,,,,,,,
210,0.0,0.0,0.0,0.0,0.0,0.0,mongenerator-battery_670,0.0,0.0,0.0,,,,,,,,,,,,
211,0.0,0.0,0.0,0.0,0.0,0.0,mongenerator-battery_670,0.0,0.0,0.0,,,,,,,,,,,,
212,0.0,0.0,0.0,0.0,0.0,0.0,mongenerator-battery_670,0.0,0.0,0.0,,,,,,,,,,,,
213,0.0,0.0,0.0,0.0,0.0,0.0,mongenerator-battery_670,0.0,0.0,0.0,,,,,,,,,,,,
214,0.0,0.0,0.0,0.0,0.0,0.0,mongenerator-battery_670,0.0,0.0,0.0,,,,,,,,,,,,
215,0.0,0.0,0.0,0.0,0.0,0.0,mongenerator-battery_670,0.0,0.0,0.0,,,,,,,,,,,,
216,0.0,0.0,0.0,0.0,0.0,0.0,mongenerator-battery_670,0.0,0.0,0.0,,,,,,,,,,,,
217,0.0,0.0,0.0,0.0,0.0,0.0,mongenerator-battery_670,0.0,0.0,0.0,,,,,,,,,,,,
218,0.0,0.0,0.0,0.0,0.0,0.0,mongenerator-battery_670,0.0,0.0,0.0,,,,,,,,,,,,
219,0.0,0.0,0.0,0.0,0.0,0.0,mongenerator-battery_670,0.0,0.0,0.0,,,,,,,,,,,,
220,0.0,0.0,0.0,0.0,0.0,0.0,mongenerator-battery_670,0.0,0.0,0.0,,,,,,,,,,,,
221,0.0,0.0,0.0,0.0,0.0,0.0,mongenerator-battery_670,0.0,0.0,0.0,,,,,,,,,,,,
222,0.0,0.0,0.0,0.0,0.0,0.0,mongenerator-battery_670,0.0,0.0,0.0,,,,,,,,,,,,
223,0.0,0.0,0.0,0.0,0.0,0.0,mongenerator-battery_670,0.0,0.0,0.0,,,,,,,,,,,,
224,0.0,0.0,0.0,0.0,0.0,0.0,mongenerator-battery_670,0.0,0.0,0.0,,,,,,,,,,,,
225,0.0,0.0,0.0,0.0,0.0,0.0,mongenerator-battery_670,0.0,0.0,0.0,,,,,,,,,,,,
226,0.0,0.0,0.0,0.0,0.0,0.0,mongenerator-battery_670,0.0,0.0,0.0,,,,,,,,,,,,
227,0.0,-114.975,5.9239899999999995e-05,-113.15,-4.2488400000000005e-05,-102.016,mongenerator-battery_670,0.00202434,0.0,0.0,,,,,,,,,,,,
228,0.0,134.702,-5.12353e-05,132.644,5.02825e-05,118.501,mongenerator-battery_670,-0.002501,0.0,0.0,,,,,,,,,,,,
229,0.0,-93.7355,3.64786e-05,-93.66799999999999,-2.6673e-05,-83.1189,mongenerator-battery_670,0.00129962,0.0,0.0,,,,,,,,,,,,
230,0.0,42.8374,1.88093e-05,42.4551,-1.63056e-05,37.6973,mongenerator-battery_670,0.000811705,0.0,0.0,,,,,,,,,,,,
231,0.0,63.5777,-1.1786600000000002e-05,62.9751,1.70343e-05,55.8587,mongenerator-battery_670,-0.0009094760000000001,0.0,0.0,,,,,,,,,,,,
232,0.0,0.0,0.0,0.0,0.0,0.0,mongenerator-battery_670,0.0,0.0,0.0,,,,,,,,,,,,
233,0.0,0.0,0.0,0.0,0.0,0.0,mongenerator-battery_670,0.0,0.0,0.0,,,,,,,,,,,,
234,0.0,-95.4429,-0.00113746,-97.0706,-5.12178e-06,-85.8551,mongenerator-battery_670,-0.000614804,0.0,0.0,,,,,,,,,,,,
235,0.0,0.0,0.0,0.0,0.0,0.0,mongenerator-battery_670,0.0,0.0,0.0,,,,,,,,,,,,
236,0.0,0.0,0.0,0.0,0.0,0.0,mongenerator-battery_670,0.0,0.0,0.0,,,,,,,,,,,,
237,0.0,0.0,0.0,0.0,0.0,0.0,mongenerator-battery_670,0.0,0.0,0.0,,,,,,,,,,,,
238,0.0,0.0,0.0,0.0,0.0,0.0,mongenerator-battery_670,0.0,0.0,0.0,,,,,,,,,,,,
