hour,t(sec),P1(kW),Q1(kvar),P2(kW),Q2(kvar),P3(kW),Name,Q3(kvar),P4(kW),Q4(kvar)
1,0.0,0.795151,-4.903080000000001e-06,,0.0,,mongenerator-battery_634_existing,,,
2,0.0,0.7945180000000001,-9.572639999999998e-06,,0.0,,mongenerator-battery_634_existing,,,
3,0.0,0.7940649999999999,-7.453889999999999e-06,,0.0,,mongenerator-battery_634_existing,,,
4,0.0,0.793912,-2.4303e-06,,0.0,,mongenerator-battery_634_existing,,,
5,0.0,0.790822,-1.66613e-06,,0.0,,mongenerator-battery_634_existing,,,
6,0.0,0.78955,-7.13168e-07,,0.0,,mongenerator-battery_634_existing,,,
7,0.0,0.7782859999999999,-3.6275e-07,,0.0,,mongenerator-battery_634_existing,,,
8,0.0,0.780874,1.6446200000000002e-06,,0.0,,mongenerator-battery_634_existing,,,
9,0.0,0.7837609999999999,2.19363e-07,,0.0,,mongenerator-battery_634_existing,,,
10,0.0,0.796188,-4.44963e-06,,0.0,,mongenerator-battery_634_existing,,,
11,0.0,0.8002020000000001,1.32846e-07,,0.0,,mongenerator-battery_634_existing,,,
12,0.0,0.864749,-3.1591200000000005e-06,,0.0,,mongenerator-battery_634_existing,,,
13,0.0,0.769834,1.47247e-05,,0.0,,mongenerator-battery_634_existing,,,
14,0.0,0.806033,-1.4165100000000002e-06,,0.0,,mongenerator-battery_634_existing,,,
15,0.0,0.838385,-2.6623e-08,,0.0,,mongenerator-battery_634_existing,,,
16,0.0,0.845841,2.1918e-06,,0.0,,mongenerator-battery_634_existing,,,
17,0.0,0.793525,3.5977e-06,,0.0,,mongenerator-battery_634_existing,,,
18,0.0,0.759231,1.5848099999999998e-05,,0.0,,mongenerator-battery_634_existing,,,
19,0.0,0.753848,3.9828200000000005e-07,,0.0,,mongenerator-battery_634_existing,,,
20,0.0,0.75685,9.514719999999999e-05,,0.0,,mongenerator-battery_634_existing,,,
21,0.0,0.760864,6.025269999999999e-06,,0.0,,mongenerator-battery_634_existing,,,
22,0.0,0.767115,8.75572e-06,,0.0,,mongenerator-battery_634_existing,,,
23,0.0,0.781486,1.60196e-05,,0.0,,mongenerator-battery_634_existing,,,
24,0.0,0.777817,-4.06776e-06,,0.0,,mongenerator-battery_634_existing,,,
25,0.0,0.783069,6.04327e-06,,0.0,,mongenerator-battery_634_existing,,,
26,0.0,0.7848510000000001,5.93369e-05,,0.0,,mongenerator-battery_634_existing,,,
27,0.0,0.785402,1.7761400000000002e-05,,0.0,,mongenerator-battery_634_existing,,,
28,0.0,0.7856989999999999,9.64033e-06,,0.0,,mongenerator-battery_634_existing,,,
29,0.0,0.7798390000000001,-7.246419999999999e-08,,0.0,,mongenerator-battery_634_existing,,,
30,0.0,0.777788,-2.5969499999999998e-06,,0.0,,mongenerator-battery_634_existing,,,
31,0.0,0.758263,3.42635e-08,,0.0,,mongenerator-battery_634_existing,,,
32,0.0,0.754939,1.0543599999999999e-07,,0.0,,mongenerator-battery_634_existing,,,
33,0.0,0.759566,6.2775699999999994e-06,,0.0,,mongenerator-battery_634_existing,,,
34,0.0,0.785243,1.41851e-06,,0.0,,mongenerator-battery_634_existing,,,
35,0.0,0.810316,1.34477e-06,,0.0,,mongenerator-battery_634_existing,,,
36,0.0,0.724709,-9.586010000000002e-06,,0.0,,mongenerator-battery_634_existing,,,
37,0.0,0.8809620000000001,1.0315199999999999e-05,,0.0,,mongenerator-battery_634_existing,,,
38,0.0,0.77675,5.966509999999999e-06,,0.0,,mongenerator-battery_634_existing,,,
39,0.0,0.920272,2.31383e-05,,0.0,,mongenerator-battery_634_existing,,,
40,0.0,0.8506379999999999,5.5391899999999996e-06,,0.0,,mongenerator-battery_634_existing,,,
41,0.0,0.795142,2.13648e-06,,0.0,,mongenerator-battery_634_existing,,,
42,0.0,0.731608,2.3366399999999997e-05,,0.0,,mongenerator-battery_634_existing,,,
43,0.0,0.734187,5.7799500000000005e-06,,0.0,,mongenerator-battery_634_existing,,,
44,0.0,0.737175,7.196160000000001e-06,,0.0,,mongenerator-battery_634_existing,,,
45,0.0,0.748419,1.21045e-06,,0.0,,mongenerator-battery_634_existing,,,
46,0.0,0.764772,7.2536e-07,,0.0,,mongenerator-battery_634_existing,,,
47,0.0,0.7809520000000001,-2.68542e-07,,0.0,,mongenerator-battery_634_existing,,,
48,0.0,0.776962,-6.23246e-06,,0.0,,mongenerator-battery_634_existing,,,
49,0.0,0.783049,1.11483e-05,,0.0,,mongenerator-battery_634_existing,,,
50,0.0,0.784489,6.143319999999999e-05,,0.0,,mongenerator-battery_634_existing,,,
51,0.0,0.784675,-3.2264499999999996e-07,,0.0,,mongenerator-battery_634_existing,,,
52,0.0,0.7847609999999999,1.23045e-06,,0.0,,mongenerator-battery_634_existing,,,
53,0.0,0.776012,-1.9113e-07,,0.0,,mongenerator-battery_634_existing,,,
54,0.0,0.774001,-1.12635e-06,,0.0,,mongenerator-battery_634_existing,,,
55,0.0,0.754437,-9.45627e-08,,0.0,,mongenerator-battery_634_existing,,,
56,0.0,0.752714,-1.56063e-06,,0.0,,mongenerator-battery_634_existing,,,
57,0.0,0.803501,2.12988e-06,,0.0,,mongenerator-battery_634_existing,,,
58,0.0,0.874834,3.4407800000000005e-06,,0.0,,mongenerator-battery_634_existing,,,
59,0.0,0.916759,8.7039e-06,,0.0,,mongenerator-battery_634_existing,,,
60,0.0,0.261347,-1.57829e-15,,0.0,,mongenerator-battery_634_existing,,,
61,0.0,0.26979699999999995,1.6940099999999999e-06,,0.0,,mongenerator-battery_634_existing,,,
62,0.0,0.269822,8.40258e-07,,0.0,,mongenerator-battery_634_existing,,,
63,0.0,0.26667199999999996,-5.29687e-05,,0.0,,mongenerator-battery_634_existing,,,
64,0.0,0.264869,-2.13437e-05,,0.0,,mongenerator-battery_634_existing,,,
65,0.0,0.258838,3.45355e-05,,0.0,,mongenerator-battery_634_existing,,,
66,0.0,0.252619,0.000146914,,0.0,,mongenerator-battery_634_existing,,,
67,0.0,0.252364,5.2307600000000006e-06,,0.0,,mongenerator-battery_634_existing,,,
68,0.0,0.25314899999999996,-1.70033e-05,,0.0,,mongenerator-battery_634_existing,,,
69,0.0,0.25433,-2.1075e-05,,0.0,,mongenerator-battery_634_existing,,,
70,0.0,0.257175,-2.54477e-05,,0.0,,mongenerator-battery_634_existing,,,
71,0.0,0.259456,-4.12004e-06,,0.0,,mongenerator-battery_634_existing,,,
72,0.0,0.258143,7.797e-06,,0.0,,mongenerator-battery_634_existing,,,
73,0.0,0.259235,-2.73736e-06,,0.0,,mongenerator-battery_634_existing,,,
74,0.0,0.259522,-4.59703e-07,,0.0,,mongenerator-battery_634_existing,,,
75,0.0,0.259473,8.50192e-08,,0.0,,mongenerator-battery_634_existing,,,
76,0.0,0.259422,9.753780000000001e-08,,0.0,,mongenerator-battery_634_existing,,,
77,0.0,0.25911,9.030200000000001e-07,,0.0,,mongenerator-battery_634_existing,,,
78,0.0,0.25906999999999997,1.21456e-07,,0.0,,mongenerator-battery_634_existing,,,
79,0.0,0.25695300000000004,2.0537800000000002e-05,,0.0,,mongenerator-battery_634_existing,,,
80,0.0,0.257175,-2.03229e-06,,0.0,,mongenerator-battery_634_existing,,,
81,0.0,0.265333,4.7395600000000004e-07,,0.0,,mongenerator-battery_634_existing,,,
82,0.0,0.27867800000000004,1.09103e-05,,0.0,,mongenerator-battery_634_existing,,,
83,0.0,0.29021399999999997,-7.403869999999999e-06,,0.0,,mongenerator-battery_634_existing,,,
84,0.0,0.295885,-6.410019999999999e-06,,0.0,,mongenerator-battery_634_existing,,,
85,0.0,0.298898,-4.50204e-06,,0.0,,mongenerator-battery_634_existing,,,
86,0.0,0.29747399999999996,-4.35783e-06,,0.0,,mongenerator-battery_634_existing,,,
87,0.0,0.291901,4.5929000000000005e-06,,0.0,,mongenerator-battery_634_existing,,,
88,0.0,0.28231799999999996,2.5422700000000002e-06,,0.0,,mongenerator-battery_634_existing,,,
89,0.0,0.267906,-1.44124e-06,,0.0,,mongenerator-battery_634_existing,,,
90,0.0,0.25395300000000004,-1.35881e-06,,0.0,,mongenerator-battery_634_existing,,,
91,0.0,0.25101,8.39766e-05,,0.0,,mongenerator-battery_634_existing,,,
92,0.0,0.25134,-9.60119e-06,,0.0,,mongenerator-battery_634_existing,,,
93,0.0,0.252424,-2.5864899999999997e-05,,0.0,,mongenerator-battery_634_existing,,,
94,0.0,0.255548,-4.3839e-05,,0.0,,mongenerator-battery_634_existing,,,
95,0.0,0.258017,-1.55494e-05,,0.0,,mongenerator-battery_634_existing,,,
96,0.0,0.256838,1.18706e-05,,0.0,,mongenerator-battery_634_existing,,,
97,0.0,0.257603,-5.85559e-06,,0.0,,mongenerator-battery_634_existing,,,
98,0.0,0.25798000000000004,-2.42783e-06,,0.0,,mongenerator-battery_634_existing,,,
99,0.0,0.257977,2.37732e-08,,0.0,,mongenerator-battery_634_existing,,,
100,0.0,0.257975,1.15895e-08,,0.0,,mongenerator-battery_634_existing,,,
101,0.0,0.257659,2.35745e-06,,0.0,,mongenerator-battery_634_existing,,,
102,0.0,0.257656,1.6951799999999998e-08,,0.0,,mongenerator-battery_634_existing,,,
103,0.0,0.25549499999999997,3.08875e-05,,0.0,,mongenerator-battery_634_existing,,,
104,0.0,0.255358,1.89687e-06,,0.0,,mongenerator-battery_634_existing,,,
105,0.0,0.264463,3.71956e-07,,0.0,,mongenerator-battery_634_existing,,,
106,0.0,0.278114,1.02894e-05,,0.0,,mongenerator-battery_634_existing,,,
107,0.0,0.289729,-6.90293e-06,,0.0,,mongenerator-battery_634_existing,,,
108,0.0,0.296158,-7.316519999999999e-06,,0.0,,mongenerator-battery_634_existing,,,
109,0.0,0.299,9.979149999999999e-06,,0.0,,mongenerator-battery_634_existing,,,
110,0.0,0.29695900000000003,-5.86927e-06,,0.0,,mongenerator-battery_634_existing,,,
111,0.0,0.291198,4.35962e-06,,0.0,,mongenerator-battery_634_existing,,,
112,0.0,0.281401,2.22315e-06,,0.0,,mongenerator-battery_634_existing,,,
113,0.0,0.26669,-1.06503e-06,,0.0,,mongenerator-battery_634_existing,,,
114,0.0,0.252684,-1.91683e-06,,0.0,,mongenerator-battery_634_existing,,,
115,0.0,0.250067,8.25454e-05,,0.0,,mongenerator-battery_634_existing,,,
116,0.0,0.25043200000000004,-1.16541e-05,,0.0,,mongenerator-battery_634_existing,,,
117,0.0,0.251539,-2.9459099999999997e-05,,0.0,,mongenerator-battery_634_existing,,,
118,0.0,0.25502600000000003,-5.46091e-05,,0.0,,mongenerator-battery_634_existing,,,
119,0.0,0.25775,-1.94117e-05,,0.0,,mongenerator-battery_634_existing,,,
120,0.0,0.25666700000000003,1.15017e-05,,0.0,,mongenerator-battery_634_existing,,,
121,0.0,0.257393,-6.04504e-06,,0.0,,mongenerator-battery_634_existing,,,
122,0.0,0.257763,-2.62608e-06,,0.0,,mongenerator-battery_634_existing,,,
123,0.0,0.257805,-2.91675e-07,,0.0,,mongenerator-battery_634_existing,,,
124,0.0,0.257825,-1.37538e-07,,0.0,,mongenerator-battery_634_existing,,,
125,0.0,0.25675,1.1091199999999998e-05,,0.0,,mongenerator-battery_634_existing,,,
126,0.0,0.256745,3.1114500000000004e-08,,0.0,,mongenerator-battery_634_existing,,,
127,0.0,0.25446199999999997,4.00531e-05,,0.0,,mongenerator-battery_634_existing,,,
128,0.0,0.254634,-3.0763200000000002e-06,,0.0,,mongenerator-battery_634_existing,,,
129,0.0,0.26151399999999997,1.15356e-05,,0.0,,mongenerator-battery_634_existing,,,
130,0.0,0.273095,4.29129e-06,,0.0,,mongenerator-battery_634_existing,,,
131,0.0,0.28672600000000004,-5.665130000000001e-06,,0.0,,mongenerator-battery_634_existing,,,
132,0.0,0.281967,-4.40146e-06,,0.0,,mongenerator-battery_634_existing,,,
133,0.0,0.286362,6.6376e-06,,0.0,,mongenerator-battery_634_existing,,,
134,0.0,0.28746900000000003,8.696950000000001e-05,,0.0,,mongenerator-battery_634_existing,,,
135,0.0,0.287981,4.39647e-05,,0.0,,mongenerator-battery_634_existing,,,
136,0.0,0.27866599999999997,-5.7716800000000004e-06,,0.0,,mongenerator-battery_634_existing,,,
137,0.0,0.265216,-6.38626e-07,,0.0,,mongenerator-battery_634_existing,,,
138,0.0,0.252191,-2.0241e-06,,0.0,,mongenerator-battery_634_existing,,,
139,0.0,0.24986599999999998,7.48829e-05,,0.0,,mongenerator-battery_634_existing,,,
140,0.0,0.250585,-2.1926799999999998e-05,,0.0,,mongenerator-battery_634_existing,,,
141,0.0,0.251632,-2.7507e-05,,0.0,,mongenerator-battery_634_existing,,,
142,0.0,0.255465,-5.4761000000000006e-05,,0.0,,mongenerator-battery_634_existing,,,
143,0.0,0.258069,-1.59632e-05,,0.0,,mongenerator-battery_634_existing,,,
144,0.0,0.25696399999999997,1.0675199999999999e-05,,0.0,,mongenerator-battery_634_existing,,,
145,0.0,0.257903,-6.290169999999999e-06,,0.0,,mongenerator-battery_634_existing,,,
146,0.0,0.258267,-2.01477e-06,,0.0,,mongenerator-battery_634_existing,,,
147,0.0,0.258275,-4.10601e-08,,0.0,,mongenerator-battery_634_existing,,,
148,0.0,0.258279,-2.4464799999999997e-08,,0.0,,mongenerator-battery_634_existing,,,
149,0.0,0.25799,1.8559e-06,,0.0,,mongenerator-battery_634_existing,,,
150,0.0,0.258011,-1.32377e-07,,0.0,,mongenerator-battery_634_existing,,,
151,0.0,0.25654,1.61642e-05,,0.0,,mongenerator-battery_634_existing,,,
152,0.0,0.256529,8.224550000000001e-08,,0.0,,mongenerator-battery_634_existing,,,
153,0.0,0.26392,2.33903e-07,,0.0,,mongenerator-battery_634_existing,,,
154,0.0,0.262333,-6.84605e-06,,0.0,,mongenerator-battery_634_existing,,,
155,0.0,0.287094,-1.03668e-05,,0.0,,mongenerator-battery_634_existing,,,
156,0.0,0.291462,9.7993e-06,,0.0,,mongenerator-battery_634_existing,,,
157,0.0,0.287402,-6.07193e-06,,0.0,,mongenerator-battery_634_existing,,,
158,0.0,0.285826,-2.2043599999999998e-06,,0.0,,mongenerator-battery_634_existing,,,
159,0.0,0.280352,-4.3333600000000005e-06,,0.0,,mongenerator-battery_634_existing,,,
160,0.0,0.26566599999999996,-7.81643e-07,,0.0,,mongenerator-battery_634_existing,,,
161,0.0,0.25842800000000005,5.37746e-05,,0.0,,mongenerator-battery_634_existing,,,
162,0.0,0.25109699999999996,-1.4953799999999998e-06,,0.0,,mongenerator-battery_634_existing,,,
163,0.0,0.251436,-8.95737e-06,,0.0,,mongenerator-battery_634_existing,,,
164,0.0,0.253279,-3.90137e-05,,0.0,,mongenerator-battery_634_existing,,,
165,0.0,0.253841,-1.07544e-05,,0.0,,mongenerator-battery_634_existing,,,
166,0.0,0.25627,-2.86242e-05,,0.0,,mongenerator-battery_634_existing,,,
167,0.0,0.25810500000000003,-1.1061700000000001e-05,,0.0,,mongenerator-battery_634_existing,,,
168,0.0,0.25695999999999997,1.1078399999999999e-05,,0.0,,mongenerator-battery_634_existing,,,
169,0.0,0.257791,-5.8682299999999995e-06,,0.0,,mongenerator-battery_634_existing,,,
170,0.0,0.258184,-2.2712400000000002e-06,,0.0,,mongenerator-battery_634_existing,,,
171,0.0,0.258189,-3.10069e-08,,0.0,,mongenerator-battery_634_existing,,,
172,0.0,0.258179,5.91005e-08,,0.0,,mongenerator-battery_634_existing,,,
173,0.0,0.257866,2.13146e-06,,0.0,,mongenerator-battery_634_existing,,,
174,0.0,0.257884,-1.21514e-07,,0.0,,mongenerator-battery_634_existing,,,
175,0.0,0.256439,1.63267e-05,,0.0,,mongenerator-battery_634_existing,,,
176,0.0,0.256432,3.5367e-08,,0.0,,mongenerator-battery_634_existing,,,
177,0.0,0.265332,5.311199999999999e-07,,0.0,,mongenerator-battery_634_existing,,,
178,0.0,0.279842,-2.5525400000000004e-06,,0.0,,mongenerator-battery_634_existing,,,
179,0.0,0.25993499999999997,4.17712e-05,,0.0,,mongenerator-battery_634_existing,,,
180,0.0,0.8209299999999999,-1.52053e-07,,0.0,,mongenerator-battery_634_existing,,,
181,0.0,0.886395,-1.0570399999999998e-06,,0.0,,mongenerator-battery_634_existing,,,
182,0.0,0.910833,-1.11625e-05,,0.0,,mongenerator-battery_634_existing,,,
183,0.0,0.876401,9.36389e-06,,0.0,,mongenerator-battery_634_existing,,,
184,0.0,0.8204959999999999,6.45345e-07,,0.0,,mongenerator-battery_634_existing,,,
185,0.0,0.782895,7.94666e-06,,0.0,,mongenerator-battery_634_existing,,,
186,0.0,0.751787,1.80265e-05,,0.0,,mongenerator-battery_634_existing,,,
187,0.0,0.74662,-9.30893e-06,,0.0,,mongenerator-battery_634_existing,,,
188,0.0,0.75198,9.287639999999998e-06,,0.0,,mongenerator-battery_634_existing,,,
189,0.0,0.757446,8.89733e-06,,0.0,,mongenerator-battery_634_existing,,,
190,0.0,0.7646149999999999,1.07057e-05,,0.0,,mongenerator-battery_634_existing,,,
191,0.0,0.78025,1.25222e-07,,0.0,,mongenerator-battery_634_existing,,,
192,0.0,0.777566,-3.3363300000000005e-06,,0.0,,mongenerator-battery_634_existing,,,
193,0.0,0.7834899999999999,7.30868e-06,,0.0,,mongenerator-battery_634_existing,,,
194,0.0,0.786135,9.07752e-05,,0.0,,mongenerator-battery_634_existing,,,
195,0.0,0.786979,2.74341e-05,,0.0,,mongenerator-battery_634_existing,,,
196,0.0,0.787289,9.112060000000001e-06,,0.0,,mongenerator-battery_634_existing,,,
197,0.0,0.7814810000000001,1.05146e-07,,0.0,,mongenerator-battery_634_existing,,,
198,0.0,0.779927,-1.97541e-06,,0.0,,mongenerator-battery_634_existing,,,
199,0.0,0.7592979999999999,2.87837e-08,,0.0,,mongenerator-battery_634_existing,,,
200,0.0,0.755275,1.02912e-07,,0.0,,mongenerator-battery_634_existing,,,
201,0.0,0.829269,-4.02969e-07,,0.0,,mongenerator-battery_634_existing,,,
202,0.0,0.9057139999999999,-0.00010836899999999999,,0.0,,mongenerator-battery_634_existing,,,
203,0.0,0.815308,2.5446900000000002e-05,,0.0,,mongenerator-battery_634_existing,,,
204,0.0,0.924225,-0.000145119,,0.0,,mongenerator-battery_634_existing,,,
205,0.0,0.873598,7.467029999999999e-06,,0.0,,mongenerator-battery_634_existing,,,
206,0.0,0.786554,4.52715e-07,,0.0,,mongenerator-battery_634_existing,,,
207,0.0,0.8099890000000001,3.7107700000000003e-07,,0.0,,mongenerator-battery_634_existing,,,
208,0.0,0.792984,-4.07111e-07,,0.0,,mongenerator-battery_634_existing,,,
209,0.0,0.757394,1.41127e-05,,0.0,,mongenerator-battery_634_existing,,,
210,0.0,0.736896,-3.8572199999999996e-05,,0.0,,mongenerator-battery_634_existing,,,
211,0.0,0.725387,-2.6914299999999997e-05,,0.0,,mongenerator-battery_634_existing,,,
212,0.0,0.729087,8.235210000000001e-06,,0.0,,mongenerator-battery_634_existing,,,
213,0.0,0.7398520000000001,1.49743e-06,,0.0,,mongenerator-battery_634_existing,,,
214,0.0,0.7581060000000001,2.32512e-05,,0.0,,mongenerator-battery_634_existing,,,
215,0.0,0.775443,2.96937e-07,,0.0,,mongenerator-battery_634_existing,,,
216,0.0,0.772346,-2.5941000000000003e-06,,0.0,,mongenerator-battery_634_existing,,,
217,0.0,0.777752,6.280409999999999e-06,,0.0,,mongenerator-battery_634_existing,,,
218,0.0,0.780081,-3.38785e-07,,0.0,,mongenerator-battery_634_existing,,,
219,0.0,0.7806420000000001,3.79546e-07,,0.0,,mongenerator-battery_634_existing,,,
220,0.0,0.780791,3.5219400000000004e-06,,0.0,,mongenerator-battery_634_existing,,,
221,0.0,0.7710640000000001,-3.39107e-07,,0.0,,mongenerator-battery_634_existing,,,
222,0.0,0.769175,-1.5534399999999999e-06,,0.0,,mongenerator-battery_634_existing,,,
223,0.0,0.747888,-8.09633e-08,,0.0,,mongenerator-battery_634_existing,,,
224,0.0,0.743839,-5.609389999999999e-06,,0.0,,mongenerator-battery_634_existing,,,
225,0.0,0.7682260000000001,4.4202799999999996e-05,,0.0,,mongenerator-battery_634_existing,,,
226,0.0,0.8187939999999999,-3.86595e-07,,0.0,,mongenerator-battery_634_existing,,,
227,0.0,0.871395,2.29405e-06,,0.0,,mongenerator-battery_634_existing,,,
228,0.0,0.9537450000000001,-8.395930000000001e-05,,0.0,,mongenerator-battery_634_existing,,,
229,0.0,0.848284,2.7562200000000003e-07,,0.0,,mongenerator-battery_634_existing,,,
230,0.0,0.8969940000000001,2.6447700000000005e-06,,0.0,,mongenerator-battery_634_existing,,,
231,0.0,0.901077,2.7256300000000002e-05,,0.0,,mongenerator-battery_634_existing,,,
232,0.0,0.86014,-2.26039e-07,,0.0,,mongenerator-battery_634_existing,,,
233,0.0,0.787438,2.17442e-06,,0.0,,mongenerator-battery_634_existing,,,
234,0.0,0.7268560000000001,1.32947e-07,,0.0,,mongenerator-battery_634_existing,,,
235,0.0,0.720878,-1.98075e-05,,0.0,,mongenerator-battery_634_existing,,,
236,0.0,0.726076,1.50927e-05,,0.0,,mongenerator-battery_634_existing,,,
237,0.0,0.737603,1.8358900000000002e-06,,0.0,,mongenerator-battery_634_existing,,,
238,0.0,0.7579020000000001,1.42033e-06,,0.0,,mongenerator-battery_634_existing,,,
239,0.0,0.775864,-3.88626e-07,,0.0,,mongenerator-battery_634_existing,,,
240,0.0,0.773196,-1.7376499999999998e-06,,0.0,,mongenerator-battery_634_existing,,,
241,0.0,0.778656,-3.3275100000000004e-07,,0.0,,mongenerator-battery_634_existing,,,
242,0.0,0.781384,1.62071e-06,,0.0,,mongenerator-battery_634_existing,,,
243,0.0,0.782007,4.14589e-07,,0.0,,mongenerator-battery_634_existing,,,
244,0.0,0.7824770000000001,1.0553699999999999e-05,,0.0,,mongenerator-battery_634_existing,,,
245,0.0,0.77688,-1.80061e-07,,0.0,,mongenerator-battery_634_existing,,,
246,0.0,0.775208,-1.22815e-06,,0.0,,mongenerator-battery_634_existing,,,
247,0.0,0.754324,-5.19944e-07,,0.0,,mongenerator-battery_634_existing,,,
248,0.0,0.749514,1.10325e-07,,0.0,,mongenerator-battery_634_existing,,,
249,0.0,0.833312,2.0010799999999998e-05,,0.0,,mongenerator-battery_634_existing,,,
250,0.0,0.936743,-1.86738e-07,,0.0,,mongenerator-battery_634_existing,,,
251,0.0,1.0202200000000001,-2.27548e-05,,0.0,,mongenerator-battery_634_existing,,,
252,0.0,1.08445,2.5435700000000003e-07,,0.0,,mongenerator-battery_634_existing,,,
253,0.0,1.11056,4.16957e-07,,0.0,,mongenerator-battery_634_existing,,,
254,0.0,1.08433,-2.07112e-05,,0.0,,mongenerator-battery_634_existing,,,
255,0.0,1.02331,2.79384e-05,,0.0,,mongenerator-battery_634_existing,,,
