hour,t(sec),V1,VAngle1,V2,VAngle2,I1,IAngle1,I2,IAngle2,V3,Name,VAngle3,I3,IAngle3,V4,VAngle4,I4,IAngle4,kv,V1(PU),V2(PU),V3(PU)
1,0.0,,114.577,,0.0,20.2518,114.574,20.2518,-65.4262,2362.39,monload-611_runway,,,,,,,,2.4,,,0.9843291666666666
2,0.0,,114.564,,0.0,21.49,114.564,21.49,-65.4355,2361.98,monload-611_runway,,,,,,,,2.4,,,0.9841583333333334
3,0.0,,114.592,,0.0,18.735,114.59,18.735,-65.4097,2363.12,monload-611_runway,,,,,,,,2.4,,,0.9846333333333332
4,0.0,,114.599,,0.0,18.1696,114.598,18.1696,-65.4016,2363.38,monload-611_runway,,,,,,,,2.4,,,0.9847416666666667
5,0.0,,114.498,,0.0,18.3433,114.499,18.3433,-65.5013,2359.67,monload-611_runway,,,,,,,,2.4,,,0.9831958333333334
6,0.0,,114.433,,0.0,19.8621,114.439,19.8621,-65.5615,2357.07,monload-611_runway,,,,,,,,2.4,,,0.9821125
7,0.0,,114.012,,0.0,29.8483,114.016,29.8483,-65.9842,2341.45,monload-611_runway,,,,,,,,2.4,,,0.9756041666666666
8,0.0,,113.915,,0.0,31.8618,113.916,31.8618,-66.0835,2337.11,monload-611_runway,,,,,,,,2.4,,,0.9737958333333334
9,0.0,,113.602,,0.0,44.0268,113.605,44.0268,-66.3954,2325.52,monload-611_runway,,,,,,,,2.4,,,0.9689666666666666
10,0.0,,113.946,,0.0,37.8158,113.94,37.8158,-66.0598,2340.92,monload-611_runway,,,,,,,,2.4,,,0.9753833333333334
11,0.0,,114.004,,0.0,26.7204,114.004,26.7204,-65.9961,2341.83,monload-611_runway,,,,,,,,2.4,,,0.9757625
12,0.0,,114.937,,0.0,25.0426,114.939,25.0426,-65.0615,2382.27,monload-611_runway,,,,,,,,2.4,,,0.9926125
13,0.0,,114.261,,0.0,24.9564,114.26,24.9564,-65.7404,2353.53,monload-611_runway,,,,,,,,2.4,,,0.9806375
14,0.0,,114.113,,0.0,24.9959,114.115,24.9959,-65.8846,2345.56,monload-611_runway,,,,,,,,2.4,,,0.9773166666666666
15,0.0,,114.622,,0.0,24.9268,114.621,24.9268,-65.3794,2368.09,monload-611_runway,,,,,,,,2.4,,,0.9867041666666667
16,0.0,,115.102,,0.0,24.7866,115.096,24.7866,-64.9041,2389.86,monload-611_runway,,,,,,,,2.4,,,0.9957750000000001
17,0.0,,114.206,,0.0,25.989,114.207,25.989,-65.7925,2350.4,monload-611_runway,,,,,,,,2.4,,,0.9793333333333334
18,0.0,,113.982,,0.0,31.4301,113.984,31.4301,-66.0165,2340.27,monload-611_runway,,,,,,,,2.4,,,0.9751124999999999
19,0.0,,113.89,,0.0,43.1551,113.89,43.1551,-66.1099,2336.8,monload-611_runway,,,,,,,,2.4,,,0.9736666666666668
20,0.0,,113.857,,0.0,45.3034,113.859,45.3034,-66.1412,2335.43,monload-611_runway,,,,,,,,2.4,,,0.9730958333333333
21,0.0,,113.907,,0.0,47.8087,113.905,47.8087,-66.0955,2337.13,monload-611_runway,,,,,,,,2.4,,,0.9738041666666667
22,0.0,,113.954,,0.0,46.4444,113.953,46.4444,-66.0466,2338.84,monload-611_runway,,,,,,,,2.4,,,0.9745166666666667
23,0.0,,114.177,,0.0,35.6973,114.175,35.6973,-65.8248,2346.93,monload-611_runway,,,,,,,,2.4,,,0.9778874999999999
24,0.0,,114.489,,0.0,22.9122,114.487,22.9122,-65.5128,2359.28,monload-611_runway,,,,,,,,2.4,,,0.9830333333333334
25,0.0,,114.543,,0.0,18.6667,114.54,18.6667,-65.46,2361.26,monload-611_runway,,,,,,,,2.4,,,0.9838583333333334
26,0.0,,114.537,,0.0,17.8494,114.538,17.8494,-65.4622,2360.96,monload-611_runway,,,,,,,,2.4,,,0.9837333333333333
27,0.0,,114.548,,0.0,16.9263,114.548,16.9263,-65.4524,2361.35,monload-611_runway,,,,,,,,2.4,,,0.9838958333333333
28,0.0,,114.55,,0.0,17.0116,114.55,17.0116,-65.4499,2361.4,monload-611_runway,,,,,,,,2.4,,,0.9839166666666667
29,0.0,,114.127,,0.0,17.6802,114.131,17.6802,-65.8692,2345.7,monload-611_runway,,,,,,,,2.4,,,0.9773749999999999
30,0.0,,113.996,,0.0,21.26,113.998,21.26,-66.0025,2340.78,monload-611_runway,,,,,,,,2.4,,,0.9753250000000001
31,0.0,,113.365,,0.0,33.1809,113.366,33.1809,-66.6345,2319.13,monload-611_runway,,,,,,,,2.4,,,0.9663041666666667
32,0.0,,112.868,,0.0,34.8528,112.868,34.8528,-67.1317,2299.6,monload-611_runway,,,,,,,,2.4,,,0.9581666666666666
33,0.0,,113.209,,0.0,30.7756,113.208,30.7756,-66.7918,2315.3,monload-611_runway,,,,,,,,2.4,,,0.9647083333333334
34,0.0,,113.258,,0.0,31.0977,113.257,31.0977,-66.7434,2318.73,monload-611_runway,,,,,,,,2.4,,,0.9661375
35,0.0,,113.339,,0.0,25.135,113.338,25.135,-66.6624,2322.62,monload-611_runway,,,,,,,,2.4,,,0.9677583333333333
36,0.0,,113.14,,0.0,26.0047,113.139,26.0047,-66.861,2313.59,monload-611_runway,,,,,,,,2.4,,,0.9639958333333334
37,0.0,,113.26,,0.0,26.4116,113.263,26.4116,-66.7373,2320.3,monload-611_runway,,,,,,,,2.4,,,0.9667916666666667
38,0.0,,113.354,,0.0,25.3752,113.349,25.3752,-66.6512,2324.14,monload-611_runway,,,,,,,,2.4,,,0.9683916666666667
39,0.0,,114.096,,0.0,24.5082,114.1,24.5082,-65.9002,2357.71,monload-611_runway,,,,,,,,2.4,,,0.9823791666666667
40,0.0,,113.38,,0.0,24.748,113.377,24.748,-66.623,2326.3,monload-611_runway,,,,,,,,2.4,,,0.9692916666666668
41,0.0,,113.137,,0.0,25.8685,113.138,25.8685,-66.8625,2314.6,monload-611_runway,,,,,,,,2.4,,,0.9644166666666666
42,0.0,,112.813,,0.0,31.6633,112.811,31.6633,-67.1886,2299.47,monload-611_runway,,,,,,,,2.4,,,0.9581124999999999
43,0.0,,113.299,,0.0,38.7986,113.303,38.7986,-66.6974,2316.24,monload-611_runway,,,,,,,,2.4,,,0.9651
44,0.0,,113.266,,0.0,41.1781,113.269,41.1781,-66.7309,2314.88,monload-611_runway,,,,,,,,2.4,,,0.9645333333333334
45,0.0,,113.617,,0.0,45.1231,113.613,45.1231,-66.3873,2327.92,monload-611_runway,,,,,,,,2.4,,,0.9699666666666666
46,0.0,,113.72,,0.0,42.3023,113.719,42.3023,-66.2813,2331.4,monload-611_runway,,,,,,,,2.4,,,0.9714166666666667
47,0.0,,114.016,,0.0,30.8497,114.013,30.8497,-65.9872,2341.02,monload-611_runway,,,,,,,,2.4,,,0.975425
48,0.0,,114.286,,0.0,21.1497,114.282,21.1497,-65.7176,2351.73,monload-611_runway,,,,,,,,2.4,,,0.9798875
49,0.0,,114.321,,0.0,18.8942,114.318,18.8942,-65.6823,2352.91,monload-611_runway,,,,,,,,2.4,,,0.9803791666666666
50,0.0,,114.336,,0.0,18.3946,114.335,18.3946,-65.6653,2353.39,monload-611_runway,,,,,,,,2.4,,,0.9805791666666667
51,0.0,,114.376,,0.0,17.8874,114.371,17.8874,-65.6288,2354.89,monload-611_runway,,,,,,,,2.4,,,0.9812041666666667
52,0.0,,114.383,,0.0,18.4384,114.382,18.4384,-65.6176,2355.23,monload-611_runway,,,,,,,,2.4,,,0.9813458333333334
53,0.0,,113.989,,0.0,19.6598,113.994,19.6598,-66.0057,2340.73,monload-611_runway,,,,,,,,2.4,,,0.9753041666666666
54,0.0,,113.813,,0.0,23.9779,113.816,23.9779,-66.1842,2333.9,monload-611_runway,,,,,,,,2.4,,,0.9724583333333334
55,0.0,,113.193,,0.0,35.7182,113.195,35.7182,-66.8054,2312.46,monload-611_runway,,,,,,,,2.4,,,0.963525
56,0.0,,112.676,,0.0,35.9782,112.677,35.9782,-67.3226,2291.92,monload-611_runway,,,,,,,,2.4,,,0.9549666666666667
57,0.0,,113.432,,0.0,31.5574,113.436,31.5574,-66.5641,2327.2,monload-611_runway,,,,,,,,2.4,,,0.9696666666666666
58,0.0,,113.156,,0.0,31.2533,113.157,31.2533,-66.8433,2316.63,monload-611_runway,,,,,,,,2.4,,,0.9652625
59,0.0,,113.865,,0.0,24.7817,113.868,24.7817,-66.1324,2347.07,monload-611_runway,,,,,,,,2.4,,,0.9779458333333334
60,0.0,,113.369,,0.0,25.9092,113.367,25.9092,-66.6334,2324.1,monload-611_runway,,,,,,,,2.4,,,0.968375
61,0.0,,113.577,,0.0,27.1001,113.576,27.1001,-66.4242,2333.69,monload-611_runway,,,,,,,,2.4,,,0.9723708333333334
62,0.0,,113.461,,0.0,27.5835,113.463,27.5835,-66.5367,2329.36,monload-611_runway,,,,,,,,2.4,,,0.9705666666666667
63,0.0,,113.351,,0.0,27.9419,113.354,27.9419,-66.6464,2324.17,monload-611_runway,,,,,,,,2.4,,,0.9684041666666667
64,0.0,,113.278,,0.0,28.0794,113.28,28.0794,-66.7198,2320.84,monload-611_runway,,,,,,,,2.4,,,0.9670166666666667
65,0.0,,113.083,,0.0,28.5183,113.088,28.5183,-66.9125,2311.56,monload-611_runway,,,,,,,,2.4,,,0.96315
66,0.0,,112.916,,0.0,32.6003,112.914,32.6003,-67.0857,2303.57,monload-611_runway,,,,,,,,2.4,,,0.9598208333333335
67,0.0,,113.406,,0.0,38.728,113.406,38.728,-66.5945,2320.17,monload-611_runway,,,,,,,,2.4,,,0.9667375
68,0.0,,113.377,,0.0,40.8709,113.377,40.8709,-66.6226,2318.94,monload-611_runway,,,,,,,,2.4,,,0.966225
69,0.0,,113.731,,0.0,44.806,113.727,44.806,-66.2733,2332.02,monload-611_runway,,,,,,,,2.4,,,0.971675
70,0.0,,113.814,,0.0,41.9513,113.813,41.9513,-66.1869,2334.75,monload-611_runway,,,,,,,,2.4,,,0.9728125
71,0.0,,114.115,,0.0,30.874,114.112,30.874,-65.8878,2344.64,monload-611_runway,,,,,,,,2.4,,,0.9769333333333333
72,0.0,,114.385,,0.0,21.1947,114.382,21.1947,-65.618,2355.35,monload-611_runway,,,,,,,,2.4,,,0.9813958333333332
73,0.0,,114.454,,0.0,18.5785,114.447,18.5785,-65.5531,2357.79,monload-611_runway,,,,,,,,2.4,,,0.9824125
74,0.0,,114.46,,0.0,17.7129,114.46,17.7129,-65.5401,2357.94,monload-611_runway,,,,,,,,2.4,,,0.982475
75,0.0,,114.482,,0.0,16.7422,114.479,16.7422,-65.5208,2358.78,monload-611_runway,,,,,,,,2.4,,,0.9828250000000001
76,0.0,,114.481,,0.0,16.8093,114.481,16.8093,-65.5191,2358.76,monload-611_runway,,,,,,,,2.4,,,0.9828166666666668
77,0.0,,114.063,,0.0,17.5128,114.068,17.5128,-65.9318,2343.23,monload-611_runway,,,,,,,,2.4,,,0.9763458333333334
78,0.0,,113.964,,0.0,20.9229,113.965,20.9229,-66.035,2339.37,monload-611_runway,,,,,,,,2.4,,,0.9747374999999999
79,0.0,,113.229,,0.0,32.7171,113.23,32.7171,-66.7698,2313.24,monload-611_runway,,,,,,,,2.4,,,0.9638499999999999
80,0.0,,112.754,,0.0,34.9942,112.755,34.9942,-67.2448,2294.83,monload-611_runway,,,,,,,,2.4,,,0.9561791666666667
81,0.0,,112.774,,0.0,30.82,112.77,30.82,-67.2296,2298.09,monload-611_runway,,,,,,,,2.4,,,0.9575375
82,0.0,,114.693,,0.0,30.1071,114.692,30.1071,-65.3083,2383.76,monload-611_runway,,,,,,,,2.4,,,0.9932333333333334
83,0.0,,116.198,,0.0,23.08,116.198,23.08,-63.8019,2447.81,monload-611_runway,,,,,,,,2.4,,,1.0199208333333334
84,0.0,,117.195,,0.0,23.6213,117.193,23.6213,-62.8075,2490.54,monload-611_runway,,,,,,,,2.4,,,1.037725
85,0.0,,118.05,,0.0,24.733,118.051,24.733,-61.949,2511.2,monload-611_runway,,,,,,,,2.4,,,1.0463333333333333
86,0.0,,117.611,,0.0,26.0612,117.615,26.0612,-62.3851,2493.87,monload-611_runway,,,,,,,,2.4,,,1.0391124999999999
87,0.0,,116.617,,0.0,26.4039,116.618,26.4039,-63.382,2452.45,monload-611_runway,,,,,,,,2.4,,,1.0218541666666665
88,0.0,,115.005,,0.0,26.3335,115.005,26.3335,-64.9948,2383.93,monload-611_runway,,,,,,,,2.4,,,0.9933041666666665
89,0.0,,113.144,,0.0,27.5633,113.142,27.5633,-66.8575,2316.89,monload-611_runway,,,,,,,,2.4,,,0.9653708333333333
90,0.0,,112.864,,0.0,33.8235,112.864,33.8235,-67.1357,2302.97,monload-611_runway,,,,,,,,2.4,,,0.9595708333333333
91,0.0,,113.153,,0.0,41.4629,113.154,41.4629,-66.8461,2310.64,monload-611_runway,,,,,,,,2.4,,,0.9627666666666667
92,0.0,,113.129,,0.0,44.545,113.131,44.545,-66.8686,2309.63,monload-611_runway,,,,,,,,2.4,,,0.9623458333333333
93,0.0,,113.483,,0.0,49.2734,113.478,49.2734,-66.522,2322.83,monload-611_runway,,,,,,,,2.4,,,0.9678458333333333
94,0.0,,113.568,,0.0,46.4184,113.567,46.4184,-66.4333,2325.64,monload-611_runway,,,,,,,,2.4,,,0.9690166666666666
95,0.0,,113.873,,0.0,34.3923,113.87,34.3923,-66.1298,2335.9,monload-611_runway,,,,,,,,2.4,,,0.9732916666666667
96,0.0,,114.148,,0.0,24.0131,114.145,24.0131,-65.8554,2346.84,monload-611_runway,,,,,,,,2.4,,,0.9778500000000001
97,0.0,,114.227,,0.0,21.7964,114.226,21.7964,-65.7742,2349.73,monload-611_runway,,,,,,,,2.4,,,0.9790541666666667
98,0.0,,114.24,,0.0,20.8093,114.239,20.8093,-65.7613,2350.16,monload-611_runway,,,,,,,,2.4,,,0.9792333333333333
99,0.0,,114.268,,0.0,19.5335,114.265,19.5335,-65.7351,2351.24,monload-611_runway,,,,,,,,2.4,,,0.9796833333333332
100,0.0,,114.301,,0.0,19.3539,114.297,19.3539,-65.7029,2352.48,monload-611_runway,,,,,,,,2.4,,,0.9802
101,0.0,,113.929,,0.0,19.795,113.934,19.795,-66.0658,2338.55,monload-611_runway,,,,,,,,2.4,,,0.9743958333333335
102,0.0,,113.776,,0.0,23.6849,113.778,23.6849,-66.2219,2332.62,monload-611_runway,,,,,,,,2.4,,,0.9719249999999999
103,0.0,,112.882,,0.0,38.4226,112.884,38.4226,-67.116,2299.48,monload-611_runway,,,,,,,,2.4,,,0.9581166666666667
104,0.0,,112.778,,0.0,42.7031,112.773,42.7031,-67.227,2298.01,monload-611_runway,,,,,,,,2.4,,,0.9575041666666667
105,0.0,,112.477,,0.0,39.7651,112.475,39.7651,-67.5252,2301.06,monload-611_runway,,,,,,,,2.4,,,0.9587749999999999
106,0.0,,114.07,,0.0,42.459,114.068,42.459,-65.9317,2373.94,monload-611_runway,,,,,,,,2.4,,,0.9891416666666667
107,0.0,,115.336,,0.0,36.7749,115.337,36.7749,-64.6631,2414.41,monload-611_runway,,,,,,,,2.4,,,1.0060041666666666
108,0.0,,116.613,,0.0,34.924,116.609,34.924,-63.3908,2468.69,monload-611_runway,,,,,,,,2.4,,,1.0286208333333333
109,0.0,,117.606,,0.0,35.3309,117.609,35.3309,-62.3908,2494.72,monload-611_runway,,,,,,,,2.4,,,1.0394666666666665
110,0.0,,117.101,,0.0,36.1511,117.102,36.1511,-62.898,2474.39,monload-611_runway,,,,,,,,2.4,,,1.0309958333333333
111,0.0,,116.11,,0.0,36.557,116.112,36.557,-63.8879,2432.52,monload-611_runway,,,,,,,,2.4,,,1.01355
112,0.0,,114.565,,0.0,35.8436,114.566,35.8436,-65.4343,2366.03,monload-611_runway,,,,,,,,2.4,,,0.9858458333333334
113,0.0,,113.067,,0.0,37.3236,113.065,37.3236,-66.9347,2313.69,monload-611_runway,,,,,,,,2.4,,,0.9640375
114,0.0,,112.765,,0.0,42.3539,112.765,42.3539,-67.2354,2298.24,monload-611_runway,,,,,,,,2.4,,,0.9575999999999999
115,0.0,,113.267,,0.0,48.2942,113.27,48.2942,-66.7301,2314.9,monload-611_runway,,,,,,,,2.4,,,0.9645416666666667
116,0.0,,113.26,,0.0,50.8826,113.261,50.8826,-66.7394,2314.61,monload-611_runway,,,,,,,,2.4,,,0.9644208333333334
117,0.0,,113.604,,0.0,55.1034,113.6,55.1034,-66.4002,2327.33,monload-611_runway,,,,,,,,2.4,,,0.9697208333333333
118,0.0,,113.665,,0.0,52.4571,113.664,52.4571,-66.3356,2329.07,monload-611_runway,,,,,,,,2.4,,,0.9704458333333335
119,0.0,,113.987,,0.0,40.733,113.984,40.733,-66.0157,2339.93,monload-611_runway,,,,,,,,2.4,,,0.9749708333333332
120,0.0,,114.286,,0.0,29.5798,114.283,29.5798,-65.7171,2351.78,monload-611_runway,,,,,,,,2.4,,,0.9799083333333334
121,0.0,,114.412,,0.0,25.8806,114.41,25.8806,-65.5897,2356.5,monload-611_runway,,,,,,,,2.4,,,0.981875
122,0.0,,114.425,,0.0,24.5759,114.424,24.5759,-65.5759,2356.96,monload-611_runway,,,,,,,,2.4,,,0.9820666666666666
123,0.0,,114.455,,0.0,22.9971,114.452,22.9971,-65.5484,2358.09,monload-611_runway,,,,,,,,2.4,,,0.9825375000000001
124,0.0,,114.465,,0.0,22.3842,114.464,22.3842,-65.5359,2358.5,monload-611_runway,,,,,,,,2.4,,,0.9827083333333333
125,0.0,,114.078,,0.0,22.8134,114.083,22.8134,-65.9175,2344.27,monload-611_runway,,,,,,,,2.4,,,0.9767791666666666
126,0.0,,113.953,,0.0,26.7316,113.955,26.7316,-66.0455,2339.42,monload-611_runway,,,,,,,,2.4,,,0.9747583333333334
127,0.0,,113.063,,0.0,41.3038,113.065,41.3038,-66.935,2306.58,monload-611_runway,,,,,,,,2.4,,,0.961075
128,0.0,,112.578,,0.0,45.5509,112.579,45.5509,-67.4211,2287.82,monload-611_runway,,,,,,,,2.4,,,0.9532583333333334
129,0.0,,112.889,,0.0,44.0571,112.887,44.0571,-67.1134,2304.73,monload-611_runway,,,,,,,,2.4,,,0.9603041666666666
130,0.0,,113.001,,0.0,44.3574,112.996,44.3574,-67.0037,2311.27,monload-611_runway,,,,,,,,2.4,,,0.9630291666666667
131,0.0,,115.122,,0.0,38.3172,115.121,38.3172,-64.8793,2404.13,monload-611_runway,,,,,,,,2.4,,,1.0017208333333334
132,0.0,,114.798,,0.0,39.0492,114.799,39.0492,-65.2009,2390.6,monload-611_runway,,,,,,,,2.4,,,0.9960833333333333
133,0.0,,115.634,,0.0,39.7514,115.634,39.7514,-64.3655,2425.94,monload-611_runway,,,,,,,,2.4,,,1.0108083333333333
134,0.0,,115.58,,0.0,40.3209,115.581,40.3209,-64.4189,2424.57,monload-611_runway,,,,,,,,2.4,,,1.0102375000000001
135,0.0,,115.629,,0.0,40.0177,115.628,40.0177,-64.3721,2426.62,monload-611_runway,,,,,,,,2.4,,,1.0110916666666667
136,0.0,,114.207,,0.0,38.751,114.211,38.751,-65.7887,2364.77,monload-611_runway,,,,,,,,2.4,,,0.9853208333333333
137,0.0,,113.05,,0.0,37.858,113.05,37.858,-66.9496,2312.74,monload-611_runway,,,,,,,,2.4,,,0.9636416666666666
138,0.0,,112.642,,0.0,42.9001,112.641,42.9001,-67.3586,2292.84,monload-611_runway,,,,,,,,2.4,,,0.95535
139,0.0,,113.157,,0.0,49.9773,113.161,49.9773,-66.8393,2310.44,monload-611_runway,,,,,,,,2.4,,,0.9626833333333333
140,0.0,,113.124,,0.0,52.678,113.125,52.678,-66.8752,2309.02,monload-611_runway,,,,,,,,2.4,,,0.9620916666666667
141,0.0,,113.46,,0.0,57.1881,113.456,57.1881,-66.5436,2321.49,monload-611_runway,,,,,,,,2.4,,,0.9672874999999999
142,0.0,,113.626,,0.0,51.6617,113.624,51.6617,-66.3759,2327.37,monload-611_runway,,,,,,,,2.4,,,0.9697374999999999
143,0.0,,114.073,,0.0,37.0848,114.068,37.0848,-65.9322,2343.28,monload-611_runway,,,,,,,,2.4,,,0.9763666666666667
144,0.0,,114.373,,0.0,25.3175,114.369,25.3175,-65.631,2355.13,monload-611_runway,,,,,,,,2.4,,,0.9813041666666668
145,0.0,,114.425,,0.0,23.1146,114.419,23.1146,-65.581,2356.91,monload-611_runway,,,,,,,,2.4,,,0.9820458333333333
146,0.0,,114.403,,0.0,22.7156,114.406,22.7156,-65.5943,2356.0,monload-611_runway,,,,,,,,2.4,,,0.9816666666666667
147,0.0,,114.449,,0.0,19.4987,114.444,19.4987,-65.5561,2357.8,monload-611_runway,,,,,,,,2.4,,,0.9824166666666667
148,0.0,,114.459,,0.0,19.1538,114.457,19.1538,-65.5425,2358.15,monload-611_runway,,,,,,,,2.4,,,0.9825625
149,0.0,,114.358,,0.0,19.44,114.359,19.44,-65.6411,2354.41,monload-611_runway,,,,,,,,2.4,,,0.9810041666666666
150,0.0,,114.293,,0.0,20.7921,114.301,20.7921,-65.699,2351.8,monload-611_runway,,,,,,,,2.4,,,0.9799166666666668
151,0.0,,114.018,,0.0,30.6613,114.021,30.6613,-65.9794,2342.61,monload-611_runway,,,,,,,,2.4,,,0.9760875000000001
152,0.0,,113.741,,0.0,32.5578,113.741,32.5578,-66.2585,2333.55,monload-611_runway,,,,,,,,2.4,,,0.9723125
153,0.0,,113.432,,0.0,45.5458,113.437,45.5458,-66.5629,2320.45,monload-611_runway,,,,,,,,2.4,,,0.9668541666666666
154,0.0,,113.782,,0.0,40.6198,113.787,40.6198,-66.2134,2338.94,monload-611_runway,,,,,,,,2.4,,,0.9745583333333333
155,0.0,,117.094,,0.0,31.8176,117.094,31.8176,-62.9061,2480.51,monload-611_runway,,,,,,,,2.4,,,1.0335458333333334
156,0.0,,117.806,,0.0,31.3428,117.809,31.3428,-62.1914,2495.24,monload-611_runway,,,,,,,,2.4,,,1.0396833333333333
157,0.0,,117.647,,0.0,32.0281,117.647,32.0281,-62.3532,2488.47,monload-611_runway,,,,,,,,2.4,,,1.0368625
158,0.0,,117.472,,0.0,31.7662,117.474,31.7662,-62.5265,2480.96,monload-611_runway,,,,,,,,2.4,,,1.0337333333333334
159,0.0,,116.603,,0.0,32.0361,116.604,32.0361,-63.3962,2444.37,monload-611_runway,,,,,,,,2.4,,,1.0184875
160,0.0,,114.693,,0.0,33.0122,114.693,33.0122,-65.3071,2360.95,monload-611_runway,,,,,,,,2.4,,,0.9837291666666665
161,0.0,,113.796,,0.0,33.2851,113.795,33.2851,-66.2052,2336.03,monload-611_runway,,,,,,,,2.4,,,0.9733458333333335
162,0.0,,113.695,,0.0,36.5459,113.697,36.5459,-66.3033,2330.73,monload-611_runway,,,,,,,,2.4,,,0.9711375
163,0.0,,113.52,,0.0,47.5561,113.522,47.5561,-66.4781,2323.22,monload-611_runway,,,,,,,,2.4,,,0.9680083333333332
164,0.0,,113.443,,0.0,49.2997,113.444,49.2997,-66.5557,2319.86,monload-611_runway,,,,,,,,2.4,,,0.9666083333333334
165,0.0,,113.777,,0.0,51.8892,113.774,51.8892,-66.2257,2332.4,monload-611_runway,,,,,,,,2.4,,,0.9718333333333333
166,0.0,,113.745,,0.0,51.0972,113.745,51.0972,-66.255,2330.76,monload-611_runway,,,,,,,,2.4,,,0.9711500000000001
167,0.0,,114.003,,0.0,40.8171,114.001,40.8171,-65.9993,2340.45,monload-611_runway,,,,,,,,2.4,,,0.9751874999999999
168,0.0,,114.334,,0.0,27.8677,114.33,27.8677,-65.6696,2353.54,monload-611_runway,,,,,,,,2.4,,,0.9806416666666666
169,0.0,,114.495,,0.0,23.6005,114.494,23.6005,-65.5065,2359.51,monload-611_runway,,,,,,,,2.4,,,0.9831291666666667
170,0.0,,114.495,,0.0,23.0303,114.495,23.0303,-65.5051,2359.42,monload-611_runway,,,,,,,,2.4,,,0.9830916666666667
171,0.0,,114.553,,0.0,19.8099,114.548,19.8099,-65.452,2361.66,monload-611_runway,,,,,,,,2.4,,,0.9840249999999999
172,0.0,,114.558,,0.0,19.6465,114.558,19.6465,-65.4424,2361.84,monload-611_runway,,,,,,,,2.4,,,0.9841000000000001
173,0.0,,114.443,,0.0,20.1694,114.444,20.1694,-65.5556,2357.61,monload-611_runway,,,,,,,,2.4,,,0.9823375000000001
174,0.0,,114.367,,0.0,21.5583,114.368,21.5583,-65.6318,2354.61,monload-611_runway,,,,,,,,2.4,,,0.9810875
175,0.0,,114.198,,0.0,31.2002,114.199,31.2002,-65.8005,2350.83,monload-611_runway,,,,,,,,2.4,,,0.9795125
176,0.0,,113.689,,0.0,33.3904,113.69,33.3904,-66.3099,2328.46,monload-611_runway,,,,,,,,2.4,,,0.9701916666666667
177,0.0,,113.663,,0.0,49.5935,113.662,49.5935,-66.3385,2329.39,monload-611_runway,,,,,,,,2.4,,,0.9705791666666667
178,0.0,,115.617,,0.0,48.4258,115.613,48.4258,-64.3868,2415.17,monload-611_runway,,,,,,,,2.4,,,1.0063208333333333
179,0.0,,113.834,,0.0,39.6712,113.837,39.6712,-66.1632,2337.58,monload-611_runway,,,,,,,,2.4,,,0.9739916666666666
