hour,t(sec),P1(kW),Q1(kvar),P2(kW),Q2(kvar),P3(kW),Name,Q3(kvar),P4(kW),Q4(kvar)
1,0.0,0.0,0.0,0.0,0.0,0.0,mongenerator-battery_670,0.0,0.0,0.0
2,0.0,0.0,0.0,0.0,0.0,0.0,mongenerator-battery_670,0.0,0.0,0.0
3,0.0,0.0,0.0,0.0,0.0,0.0,mongenerator-battery_670,0.0,0.0,0.0
4,0.0,0.0,0.0,0.0,0.0,0.0,mongenerator-battery_670,0.0,0.0,0.0
5,0.0,0.0,0.0,0.0,0.0,0.0,mongenerator-battery_670,0.0,0.0,0.0
6,0.0,0.0,0.0,0.0,0.0,0.0,mongenerator-battery_670,0.0,0.0,0.0
7,0.0,0.0,0.0,0.0,0.0,0.0,mongenerator-battery_670,0.0,0.0,0.0
8,0.0,0.0,0.0,0.0,0.0,0.0,mongenerator-battery_670,0.0,0.0,0.0
9,0.0,0.0,0.0,0.0,0.0,0.0,mongenerator-battery_670,0.0,0.0,0.0
10,0.0,0.0,0.0,0.0,0.0,0.0,mongenerator-battery_670,0.0,0.0,0.0
11,0.0,-33.1582,0.000286536,-33.7019,0.000177265,-31.3552,mongenerator-battery_670,0.00133053,0.0,0.0
12,0.0,125.773,-0.00010669799999999999,125.525,7.83654e-05,117.16799999999999,mongenerator-battery_670,-0.00520522,0.0,0.0
13,0.0,-121.208,0.000173715,-122.367,-2.3288e-05,-113.896,mongenerator-battery_670,0.00128237,0.0,0.0
14,0.0,47.2508,1.95728e-05,47.5365,-5.88485e-06,44.2942,mongenerator-battery_670,0.000353726,0.0,0.0
15,0.0,89.5227,7.48279e-05,89.7309,-1.56382e-05,83.7676,mongenerator-battery_670,0.000917425,0.0,0.0
16,0.0,0.0,0.0,0.0,0.0,0.0,mongenerator-battery_670,0.0,0.0,0.0
17,0.0,0.0,0.0,0.0,0.0,0.0,mongenerator-battery_670,0.0,0.0,0.0
18,0.0,0.0,0.0,0.0,0.0,0.0,mongenerator-battery_670,0.0,0.0,0.0
19,0.0,0.0,0.0,0.0,0.0,0.0,mongenerator-battery_670,0.0,0.0,0.0
20,0.0,0.0,0.0,0.0,0.0,0.0,mongenerator-battery_670,0.0,0.0,0.0
21,0.0,0.0,0.0,0.0,0.0,0.0,mongenerator-battery_670,0.0,0.0,0.0
22,0.0,0.0,0.0,0.0,0.0,0.0,mongenerator-battery_670,0.0,0.0,0.0
23,0.0,0.0,0.0,0.0,0.0,0.0,mongenerator-battery_670,0.0,0.0,0.0
24,0.0,0.0,0.0,0.0,0.0,0.0,mongenerator-battery_670,0.0,0.0,0.0
25,0.0,0.0,0.0,0.0,0.0,0.0,mongenerator-battery_670,0.0,0.0,0.0
26,0.0,0.0,0.0,0.0,0.0,0.0,mongenerator-battery_670,0.0,0.0,0.0
27,0.0,0.0,0.0,0.0,0.0,0.0,mongenerator-battery_670,0.0,0.0,0.0
28,0.0,0.0,0.0,0.0,0.0,0.0,mongenerator-battery_670,0.0,0.0,0.0
29,0.0,0.0,0.0,0.0,0.0,0.0,mongenerator-battery_670,0.0,0.0,0.0
30,0.0,0.0,0.0,0.0,0.0,0.0,mongenerator-battery_670,0.0,0.0,0.0
31,0.0,0.0,0.0,0.0,0.0,0.0,mongenerator-battery_670,0.0,0.0,0.0
32,0.0,0.0,0.0,0.0,0.0,0.0,mongenerator-battery_670,0.0,0.0,0.0
33,0.0,0.0,0.0,0.0,0.0,0.0,mongenerator-battery_670,0.0,0.0,0.0
34,0.0,0.0,0.0,0.0,0.0,0.0,mongenerator-battery_670,0.0,0.0,0.0
35,0.0,0.0,0.0,0.0,0.0,0.0,mongenerator-battery_670,0.0,0.0,0.0
36,0.0,-66.1975,-6.8271e-05,-67.34,4.07963e-05,-60.7165,mongenerator-battery_670,-0.00180316,0.0,0.0
37,0.0,10.3057,7.00929e-06,10.1085,-7.14661e-06,9.15877,mongenerator-battery_670,0.000378013,0.0,0.0
38,0.0,-54.5658,3.37088e-05,-54.7442,-3.47227e-05,-49.3776,mongenerator-battery_670,0.00148039,0.0,0.0
39,0.0,131.335,-2.12665e-05,128.151,2.8510100000000003e-05,116.34100000000001,mongenerator-battery_670,-0.00128589,0.0,0.0
40,0.0,0.0,0.0,0.0,0.0,0.0,mongenerator-battery_670,0.0,0.0,0.0
41,0.0,0.0,0.0,0.0,0.0,0.0,mongenerator-battery_670,0.0,0.0,0.0
42,0.0,-16.1321,-0.00018764700000000001,-16.5065,0.000330815,-14.5886,mongenerator-battery_670,0.00027672,0.0,0.0
43,0.0,0.0,0.0,0.0,0.0,0.0,mongenerator-battery_670,0.0,0.0,0.0
44,0.0,0.0,0.0,0.0,0.0,0.0,mongenerator-battery_670,0.0,0.0,0.0
45,0.0,0.0,0.0,0.0,0.0,0.0,mongenerator-battery_670,0.0,0.0,0.0
46,0.0,0.0,0.0,0.0,0.0,0.0,mongenerator-battery_670,0.0,0.0,0.0
47,0.0,0.0,0.0,0.0,0.0,0.0,mongenerator-battery_670,0.0,0.0,0.0
48,0.0,0.0,0.0,0.0,0.0,0.0,mongenerator-battery_670,0.0,0.0,0.0
49,0.0,0.0,0.0,0.0,0.0,0.0,mongenerator-battery_670,0.0,0.0,0.0
50,0.0,0.0,0.0,0.0,0.0,0.0,mongenerator-battery_670,0.0,0.0,0.0
51,0.0,0.0,0.0,0.0,0.0,0.0,mongenerator-battery_670,0.0,0.0,0.0
52,0.0,0.0,0.0,0.0,0.0,0.0,mongenerator-battery_670,0.0,0.0,0.0
53,0.0,0.0,0.0,0.0,0.0,0.0,mongenerator-battery_670,0.0,0.0,0.0
54,0.0,0.0,0.0,0.0,0.0,0.0,mongenerator-battery_670,0.0,0.0,0.0
55,0.0,0.0,0.0,0.0,0.0,0.0,mongenerator-battery_670,0.0,0.0,0.0
56,0.0,0.0,0.0,0.0,0.0,0.0,mongenerator-battery_670,0.0,0.0,0.0
57,0.0,0.0,0.0,0.0,0.0,0.0,mongenerator-battery_670,0.0,0.0,0.0
58,0.0,-98.5561,3.5862100000000003e-05,-96.5017,-4.35072e-05,-87.1709,mongenerator-battery_670,0.00179328,0.0,0.0
59,0.0,129.423,-4.27024e-05,126.10600000000001,6.03204e-05,114.584,mongenerator-battery_670,-0.00126867,0.0,0.0
60,0.0,0.0,0.0,0.0,0.0,0.0,mongenerator-battery_670,0.0,0.0,0.0
61,0.0,0.0,0.0,0.0,0.0,0.0,mongenerator-battery_670,0.0,0.0,0.0
62,0.0,0.0,0.0,0.0,0.0,0.0,mongenerator-battery_670,0.0,0.0,0.0
63,0.0,0.0,0.0,0.0,0.0,0.0,mongenerator-battery_670,0.0,0.0,0.0
64,0.0,0.0,0.0,0.0,0.0,0.0,mongenerator-battery_670,0.0,0.0,0.0
65,0.0,0.0,0.0,0.0,0.0,0.0,mongenerator-battery_670,0.0,0.0,0.0
66,0.0,0.0,0.0,0.0,0.0,0.0,mongenerator-battery_670,0.0,0.0,0.0
67,0.0,0.0,0.0,0.0,0.0,0.0,mongenerator-battery_670,0.0,0.0,0.0
68,0.0,0.0,0.0,0.0,0.0,0.0,mongenerator-battery_670,0.0,0.0,0.0
69,0.0,0.0,0.0,0.0,0.0,0.0,mongenerator-battery_670,0.0,0.0,0.0
70,0.0,0.0,0.0,0.0,0.0,0.0,mongenerator-battery_670,0.0,0.0,0.0
71,0.0,0.0,0.0,0.0,0.0,0.0,mongenerator-battery_670,0.0,0.0,0.0
72,0.0,0.0,0.0,0.0,0.0,0.0,mongenerator-battery_670,0.0,0.0,0.0
73,0.0,0.0,0.0,0.0,0.0,0.0,mongenerator-battery_670,0.0,0.0,0.0
74,0.0,0.0,0.0,0.0,0.0,0.0,mongenerator-battery_670,0.0,0.0,0.0
75,0.0,0.0,0.0,0.0,0.0,0.0,mongenerator-battery_670,0.0,0.0,0.0
76,0.0,0.0,0.0,0.0,0.0,0.0,mongenerator-battery_670,0.0,0.0,0.0
77,0.0,0.0,0.0,0.0,0.0,0.0,mongenerator-battery_670,0.0,0.0,0.0
78,0.0,0.0,0.0,0.0,0.0,0.0,mongenerator-battery_670,0.0,0.0,0.0
79,0.0,0.0,0.0,0.0,0.0,0.0,mongenerator-battery_670,0.0,0.0,0.0
80,0.0,0.0,0.0,0.0,0.0,0.0,mongenerator-battery_670,0.0,0.0,0.0
81,0.0,-126.852,0.000180982,-124.928,6.09228e-05,-113.36,mongenerator-battery_670,-0.00416112,0.0,0.0
82,0.0,0.0,0.0,0.0,0.0,0.0,mongenerator-battery_670,0.0,0.0,0.0
83,0.0,141.062,-0.0039443,138.114,-0.000866473,127.70299999999999,mongenerator-battery_670,-0.000394617,0.0,0.0
84,0.0,16.8631,-0.000482806,16.5006,-6.5126e-05,15.2456,mongenerator-battery_670,-2.3246500000000002e-05,0.0,0.0
85,0.0,0.0,0.0,0.0,0.0,0.0,mongenerator-battery_670,0.0,0.0,0.0
86,0.0,0.0,0.0,0.0,0.0,0.0,mongenerator-battery_670,0.0,0.0,0.0
87,0.0,0.0,0.0,0.0,0.0,0.0,mongenerator-battery_670,0.0,0.0,0.0
88,0.0,0.0,0.0,0.0,0.0,0.0,mongenerator-battery_670,0.0,0.0,0.0
89,0.0,0.0,0.0,0.0,0.0,0.0,mongenerator-battery_670,0.0,0.0,0.0
90,0.0,0.0,0.0,0.0,0.0,0.0,mongenerator-battery_670,0.0,0.0,0.0
91,0.0,0.0,0.0,0.0,0.0,0.0,mongenerator-battery_670,0.0,0.0,0.0
92,0.0,0.0,0.0,0.0,0.0,0.0,mongenerator-battery_670,0.0,0.0,0.0
93,0.0,0.0,0.0,0.0,0.0,0.0,mongenerator-battery_670,0.0,0.0,0.0
94,0.0,0.0,0.0,0.0,0.0,0.0,mongenerator-battery_670,0.0,0.0,0.0
95,0.0,0.0,0.0,0.0,0.0,0.0,mongenerator-battery_670,0.0,0.0,0.0
96,0.0,0.0,0.0,0.0,0.0,0.0,mongenerator-battery_670,0.0,0.0,0.0
97,0.0,0.0,0.0,0.0,0.0,0.0,mongenerator-battery_670,0.0,0.0,0.0
98,0.0,0.0,0.0,0.0,0.0,0.0,mongenerator-battery_670,0.0,0.0,0.0
99,0.0,0.0,0.0,0.0,0.0,0.0,mongenerator-battery_670,0.0,0.0,0.0
100,0.0,0.0,0.0,0.0,0.0,0.0,mongenerator-battery_670,0.0,0.0,0.0
101,0.0,0.0,0.0,0.0,0.0,0.0,mongenerator-battery_670,0.0,0.0,0.0
102,0.0,0.0,0.0,0.0,0.0,0.0,mongenerator-battery_670,0.0,0.0,0.0
103,0.0,0.0,0.0,0.0,0.0,0.0,mongenerator-battery_670,0.0,0.0,0.0
104,0.0,0.0,0.0,0.0,0.0,0.0,mongenerator-battery_670,0.0,0.0,0.0
105,0.0,-127.741,6.54603e-05,-126.573,-2.8942100000000002e-05,-113.064,mongenerator-battery_670,0.0011795999999999998,0.0,0.0
106,0.0,0.0,0.0,0.0,0.0,0.0,mongenerator-battery_670,0.0,0.0,0.0
107,0.0,105.14399999999999,0.000114663,103.027,4.34782e-05,93.1868,mongenerator-battery_670,-0.0018868,0.0,0.0
108,0.0,54.6356,-0.00195443,53.4185,-0.00031623599999999996,48.6435,mongenerator-battery_670,-0.000125211,0.0,0.0
109,0.0,0.0,0.0,0.0,0.0,0.0,mongenerator-battery_670,0.0,0.0,0.0
110,0.0,0.0,0.0,0.0,0.0,0.0,mongenerator-battery_670,0.0,0.0,0.0
111,0.0,0.0,0.0,0.0,0.0,0.0,mongenerator-battery_670,0.0,0.0,0.0
112,0.0,0.0,0.0,0.0,0.0,0.0,mongenerator-battery_670,0.0,0.0,0.0
113,0.0,0.0,0.0,0.0,0.0,0.0,mongenerator-battery_670,0.0,0.0,0.0
114,0.0,-6.635960000000001,-3.1531e-06,-6.80157,-2.5314700000000003e-06,-6.04989,mongenerator-battery_670,5.5142299999999995e-05,0.0,0.0
115,0.0,0.0,0.0,0.0,0.0,0.0,mongenerator-battery_670,0.0,0.0,0.0
116,0.0,0.0,0.0,0.0,0.0,0.0,mongenerator-battery_670,0.0,0.0,0.0
117,0.0,0.0,0.0,0.0,0.0,0.0,mongenerator-battery_670,0.0,0.0,0.0
118,0.0,0.0,0.0,0.0,0.0,0.0,mongenerator-battery_670,0.0,0.0,0.0
119,0.0,0.0,0.0,0.0,0.0,0.0,mongenerator-battery_670,0.0,0.0,0.0
120,0.0,0.0,0.0,0.0,0.0,0.0,mongenerator-battery_670,0.0,0.0,0.0
121,0.0,0.0,0.0,0.0,0.0,0.0,mongenerator-battery_670,0.0,0.0,0.0
122,0.0,0.0,0.0,0.0,0.0,0.0,mongenerator-battery_670,0.0,0.0,0.0
123,0.0,0.0,0.0,0.0,0.0,0.0,mongenerator-battery_670,0.0,0.0,0.0
124,0.0,0.0,0.0,0.0,0.0,0.0,mongenerator-battery_670,0.0,0.0,0.0
125,0.0,0.0,0.0,0.0,0.0,0.0,mongenerator-battery_670,0.0,0.0,0.0
126,0.0,0.0,0.0,0.0,0.0,0.0,mongenerator-battery_670,0.0,0.0,0.0
127,0.0,0.0,0.0,0.0,0.0,0.0,mongenerator-battery_670,0.0,0.0,0.0
128,0.0,0.0,0.0,0.0,0.0,0.0,mongenerator-battery_670,0.0,0.0,0.0
129,0.0,-119.814,0.00276277,-119.29799999999999,0.000994211,-106.67299999999999,mongenerator-battery_670,0.005082,0.0,0.0
130,0.0,12.6653,6.02351e-06,12.3979,-5.52577e-06,11.0822,mongenerator-battery_670,0.000291484,0.0,0.0
131,0.0,101.374,-0.00217825,99.4247,1.3257300000000001e-05,90.185,mongenerator-battery_670,0.00011082,0.0,0.0
132,0.0,0.0,0.0,0.0,0.0,0.0,mongenerator-battery_670,0.0,0.0,0.0
133,0.0,7.27925,5.31865e-06,7.15147,1.35917e-06,6.5143699999999995,mongenerator-battery_670,-8.330959999999999e-05,0.0,0.0
134,0.0,4.82287,2.11215e-05,4.72503,1.54808e-06,4.29491,mongenerator-battery_670,-3.9285999999999996e-05,0.0,0.0
135,0.0,27.5053,8.878339999999999e-06,26.9386,3.53815e-06,24.4761,mongenerator-battery_670,-0.00028853099999999997,0.0,0.0
136,0.0,0.0,0.0,0.0,0.0,0.0,mongenerator-battery_670,0.0,0.0,0.0
137,0.0,0.0,0.0,0.0,0.0,0.0,mongenerator-battery_670,0.0,0.0,0.0
138,0.0,-29.5389,-0.000339648,-30.311,0.000511488,-26.9011,mongenerator-battery_670,0.000854218,0.0,0.0
139,0.0,0.0,0.0,0.0,0.0,0.0,mongenerator-battery_670,0.0,0.0,0.0
140,0.0,0.0,0.0,0.0,0.0,0.0,mongenerator-battery_670,0.0,0.0,0.0
141,0.0,0.0,0.0,0.0,0.0,0.0,mongenerator-battery_670,0.0,0.0,0.0
142,0.0,0.0,0.0,0.0,0.0,0.0,mongenerator-battery_670,0.0,0.0,0.0
143,0.0,0.0,0.0,0.0,0.0,0.0,mongenerator-battery_670,0.0,0.0,0.0
144,0.0,0.0,0.0,0.0,0.0,0.0,mongenerator-battery_670,0.0,0.0,0.0
145,0.0,0.0,0.0,0.0,0.0,0.0,mongenerator-battery_670,0.0,0.0,0.0
146,0.0,0.0,0.0,0.0,0.0,0.0,mongenerator-battery_670,0.0,0.0,0.0
147,0.0,0.0,0.0,0.0,0.0,0.0,mongenerator-battery_670,0.0,0.0,0.0
148,0.0,0.0,0.0,0.0,0.0,0.0,mongenerator-battery_670,0.0,0.0,0.0
149,0.0,0.0,0.0,0.0,0.0,0.0,mongenerator-battery_670,0.0,0.0,0.0
150,0.0,0.0,0.0,0.0,0.0,0.0,mongenerator-battery_670,0.0,0.0,0.0
151,0.0,0.0,0.0,0.0,0.0,0.0,mongenerator-battery_670,0.0,0.0,0.0
152,0.0,0.0,0.0,0.0,0.0,0.0,mongenerator-battery_670,0.0,0.0,0.0
153,0.0,0.0,0.0,0.0,0.0,0.0,mongenerator-battery_670,0.0,0.0,0.0
154,0.0,-94.2346,5.68087e-05,-94.3592,-2.50393e-05,-86.2749,mongenerator-battery_670,0.00121471,0.0,0.0
155,0.0,141.935,-0.00720468,139.832,-0.00180286,130.136,mongenerator-battery_670,-0.000886893,0.0,0.0
156,0.0,16.7454,-0.000403199,16.6957,2.56737e-06,15.3494,mongenerator-battery_670,-2.05989e-05,0.0,0.0
157,0.0,0.0,0.0,0.0,0.0,0.0,mongenerator-battery_670,0.0,0.0,0.0
158,0.0,0.0,0.0,0.0,0.0,0.0,mongenerator-battery_670,0.0,0.0,0.0
159,0.0,0.0,0.0,0.0,0.0,0.0,mongenerator-battery_670,0.0,0.0,0.0
160,0.0,0.0,0.0,0.0,0.0,0.0,mongenerator-battery_670,0.0,0.0,0.0
161,0.0,0.0,0.0,0.0,0.0,0.0,mongenerator-battery_670,0.0,0.0,0.0
162,0.0,0.0,0.0,0.0,0.0,0.0,mongenerator-battery_670,0.0,0.0,0.0
163,0.0,0.0,0.0,0.0,0.0,0.0,mongenerator-battery_670,0.0,0.0,0.0
164,0.0,0.0,0.0,0.0,0.0,0.0,mongenerator-battery_670,0.0,0.0,0.0
165,0.0,0.0,0.0,0.0,0.0,0.0,mongenerator-battery_670,0.0,0.0,0.0
166,0.0,0.0,0.0,0.0,0.0,0.0,mongenerator-battery_670,0.0,0.0,0.0
167,0.0,0.0,0.0,0.0,0.0,0.0,mongenerator-battery_670,0.0,0.0,0.0
168,0.0,0.0,0.0,0.0,0.0,0.0,mongenerator-battery_670,0.0,0.0,0.0
169,0.0,0.0,0.0,0.0,0.0,0.0,mongenerator-battery_670,0.0,0.0,0.0
170,0.0,0.0,0.0,0.0,0.0,0.0,mongenerator-battery_670,0.0,0.0,0.0
171,0.0,0.0,0.0,0.0,0.0,0.0,mongenerator-battery_670,0.0,0.0,0.0
172,0.0,0.0,0.0,0.0,0.0,0.0,mongenerator-battery_670,0.0,0.0,0.0
173,0.0,0.0,0.0,0.0,0.0,0.0,mongenerator-battery_670,0.0,0.0,0.0
174,0.0,0.0,0.0,0.0,0.0,0.0,mongenerator-battery_670,0.0,0.0,0.0
175,0.0,0.0,0.0,0.0,0.0,0.0,mongenerator-battery_670,0.0,0.0,0.0
176,0.0,-119.169,-0.00144209,-120.896,3.35217e-06,-112.199,mongenerator-battery_670,0.0007601089999999999,0.0,0.0
177,0.0,33.7213,-0.000150714,33.9278,-3.97937e-05,31.0341,mongenerator-battery_670,0.00102153,0.0,0.0
178,0.0,112.145,-0.00105601,111.26100000000001,-7.69565e-05,102.708,mongenerator-battery_670,-0.00505317,0.0,0.0
179,0.0,-78.9863,-9.920739999999999e-06,-79.8524,7.80252e-06,-74.1331,mongenerator-battery_670,-0.000449015,0.0,0.0
180,0.0,-40.5988,0.000311774,-41.0751,0.000174827,-38.1173,mongenerator-battery_670,-0.00118394,0.0,0.0
181,0.0,125.729,-6.28398e-05,126.344,3.3923899999999995e-05,117.99600000000001,mongenerator-battery_670,-0.00203132,0.0,0.0
182,0.0,14.8115,1.14998e-05,14.8535,-6.14372e-06,13.9105,mongenerator-battery_670,0.00039602800000000004,0.0,0.0
183,0.0,0.0,0.0,0.0,0.0,0.0,mongenerator-battery_670,0.0,0.0,0.0
184,0.0,0.0,0.0,0.0,0.0,0.0,mongenerator-battery_670,0.0,0.0,0.0
185,0.0,0.0,0.0,0.0,0.0,0.0,mongenerator-battery_670,0.0,0.0,0.0
186,0.0,0.0,0.0,0.0,0.0,0.0,mongenerator-battery_670,0.0,0.0,0.0
187,0.0,0.0,0.0,0.0,0.0,0.0,mongenerator-battery_670,0.0,0.0,0.0
188,0.0,0.0,0.0,0.0,0.0,0.0,mongenerator-battery_670,0.0,0.0,0.0
189,0.0,0.0,0.0,0.0,0.0,0.0,mongenerator-battery_670,0.0,0.0,0.0
190,0.0,0.0,0.0,0.0,0.0,0.0,mongenerator-battery_670,0.0,0.0,0.0
191,0.0,0.0,0.0,0.0,0.0,0.0,mongenerator-battery_670,0.0,0.0,0.0
192,0.0,0.0,0.0,0.0,0.0,0.0,mongenerator-battery_670,0.0,0.0,0.0
193,0.0,0.0,0.0,0.0,0.0,0.0,mongenerator-battery_670,0.0,0.0,0.0
194,0.0,0.0,0.0,0.0,0.0,0.0,mongenerator-battery_670,0.0,0.0,0.0
195,0.0,0.0,0.0,0.0,0.0,0.0,mongenerator-battery_670,0.0,0.0,0.0
196,0.0,0.0,0.0,0.0,0.0,0.0,mongenerator-battery_670,0.0,0.0,0.0
197,0.0,0.0,0.0,0.0,0.0,0.0,mongenerator-battery_670,0.0,0.0,0.0
198,0.0,0.0,0.0,0.0,0.0,0.0,mongenerator-battery_670,0.0,0.0,0.0
199,0.0,0.0,0.0,0.0,0.0,0.0,mongenerator-battery_670,0.0,0.0,0.0
200,0.0,0.0,0.0,0.0,0.0,0.0,mongenerator-battery_670,0.0,0.0,0.0
201,0.0,-113.584,4.1671499999999996e-05,-112.39200000000001,-2.16577e-05,-101.615,mongenerator-battery_670,0.000880111,0.0,0.0
202,0.0,129.571,-3.55109e-05,126.615,3.1409000000000004e-05,114.478,mongenerator-battery_670,-0.00137769,0.0,0.0
203,0.0,-114.15,4.75181e-05,-113.184,-1.77799e-05,-102.179,mongenerator-battery_670,0.0008230710000000001,0.0,0.0
204,0.0,131.833,-5.42844e-05,128.748,5.84205e-05,116.455,mongenerator-battery_670,-0.00267755,0.0,0.0
205,0.0,0.0,0.0,0.0,0.0,0.0,mongenerator-battery_670,0.0,0.0,0.0
206,0.0,0.0,0.0,0.0,0.0,0.0,mongenerator-battery_670,0.0,0.0,0.0
207,0.0,0.0,0.0,0.0,0.0,0.0,mongenerator-battery_670,0.0,0.0,0.0
208,0.0,0.0,0.0,0.0,0.0,0.0,mongenerator-battery_670,0.0,0.0,0.0
209,0.0,0.0,0.0,0.0,0.0,0.0,mongenerator-battery_670,0.0,0.0,0.0
210,0.0,0.0,0.0,0.0,0.0,0.0,mongenerator-battery_670,0.0,0.0,0.0
211,0.0,0.0,0.0,0.0,0.0,0.0,mongenerator-battery_670,0.0,0.0,0.0
212,0.0,0.0,0.0,0.0,0.0,0.0,mongenerator-battery_670,0.0,0.0,0.0
213,0.0,0.0,0.0,0.0,0.0,0.0,mongenerator-battery_670,0.0,0.0,0.0
214,0.0,0.0,0.0,0.0,0.0,0.0,mongenerator-battery_670,0.0,0.0,0.0
215,0.0,0.0,0.0,0.0,0.0,0.0,mongenerator-battery_670,0.0,0.0,0.0
216,0.0,0.0,0.0,0.0,0.0,0.0,mongenerator-battery_670,0.0,0.0,0.0
217,0.0,0.0,0.0,0.0,0.0,0.0,mongenerator-battery_670,0.0,0.0,0.0
218,0.0,0.0,0.0,0.0,0.0,0.0,mongenerator-battery_670,0.0,0.0,0.0
219,0.0,0.0,0.0,0.0,0.0,0.0,mongenerator-battery_670,0.0,0.0,0.0
220,0.0,0.0,0.0,0.0,0.0,0.0,mongenerator-battery_670,0.0,0.0,0.0
221,0.0,0.0,0.0,0.0,0.0,0.0,mongenerator-battery_670,0.0,0.0,0.0
222,0.0,0.0,0.0,0.0,0.0,0.0,mongenerator-battery_670,0.0,0.0,0.0
223,0.0,0.0,0.0,0.0,0.0,0.0,mongenerator-battery_670,0.0,0.0,0.0
224,0.0,0.0,0.0,0.0,0.0,0.0,mongenerator-battery_670,0.0,0.0,0.0
225,0.0,0.0,0.0,0.0,0.0,0.0,mongenerator-battery_670,0.0,0.0,0.0
226,0.0,0.0,0.0,0.0,0.0,0.0,mongenerator-battery_670,0.0,0.0,0.0
227,0.0,-116.14399999999999,0.000263431,-114.29,0.000228349,-101.65700000000001,mongenerator-battery_670,-0.0014506999999999999,0.0,0.0
228,0.0,134.701,-0.00055252,132.644,4.31094e-06,118.494,mongenerator-battery_670,0.00015505399999999998,0.0,0.0
229,0.0,-94.8652,2.74011e-05,-94.7865,-2.00655e-05,-84.2855,mongenerator-battery_670,0.000992195,0.0,0.0
230,0.0,42.8374,3.8492600000000005e-05,42.4551,-2.99573e-05,37.6955,mongenerator-battery_670,0.00149712,0.0,0.0
231,0.0,63.5777,-1.15699e-05,62.9751,1.68515e-05,55.8586,mongenerator-battery_670,-0.000900643,0.0,0.0
232,0.0,0.0,0.0,0.0,0.0,0.0,mongenerator-battery_670,0.0,0.0,0.0
233,0.0,0.0,0.0,0.0,0.0,0.0,mongenerator-battery_670,0.0,0.0,0.0
234,0.0,-104.213,-0.00028422,-108.41,1.57637e-05,-93.9746,mongenerator-battery_670,-0.00171377,0.0,0.0
235,0.0,0.0,0.0,0.0,0.0,0.0,mongenerator-battery_670,0.0,0.0,0.0
236,0.0,0.0,0.0,0.0,0.0,0.0,mongenerator-battery_670,0.0,0.0,0.0
237,0.0,0.0,0.0,0.0,0.0,0.0,mongenerator-battery_670,0.0,0.0,0.0
238,0.0,0.0,0.0,0.0,0.0,0.0,mongenerator-battery_670,0.0,0.0,0.0
239,0.0,0.0,0.0,0.0,0.0,0.0,mongenerator-battery_670,0.0,0.0,0.0
240,0.0,0.0,0.0,0.0,0.0,0.0,mongenerator-battery_670,0.0,0.0,0.0
241,0.0,0.0,0.0,0.0,0.0,0.0,mongenerator-battery_670,0.0,0.0,0.0
242,0.0,0.0,0.0,0.0,0.0,0.0,mongenerator-battery_670,0.0,0.0,0.0
243,0.0,0.0,0.0,0.0,0.0,0.0,mongenerator-battery_670,0.0,0.0,0.0
244,0.0,0.0,0.0,0.0,0.0,0.0,mongenerator-battery_670,0.0,0.0,0.0
245,0.0,0.0,0.0,0.0,0.0,0.0,mongenerator-battery_670,0.0,0.0,0.0
246,0.0,0.0,0.0,0.0,0.0,0.0,mongenerator-battery_670,0.0,0.0,0.0
247,0.0,0.0,0.0,0.0,0.0,0.0,mongenerator-battery_670,0.0,0.0,0.0
248,0.0,0.0,0.0,0.0,0.0,0.0,mongenerator-battery_670,0.0,0.0,0.0
249,0.0,-19.1745,7.2058000000000005e-06,-18.997,-1.05314e-05,-17.1288,mongenerator-battery_670,0.000405843,0.0,0.0
250,0.0,0.0,0.0,0.0,0.0,0.0,mongenerator-battery_670,0.0,0.0,0.0
251,0.0,142.137,-0.00439099,139.47299999999998,-0.000987416,127.654,mongenerator-battery_670,-0.00043806,0.0,0.0
252,0.0,16.9654,-0.000428614,16.6124,-7.49829e-05,15.1889,mongenerator-battery_670,-2.64379e-05,0.0,0.0
253,0.0,0.0,0.0,0.0,0.0,0.0,mongenerator-battery_670,0.0,0.0,0.0
254,0.0,0.0,0.0,0.0,0.0,0.0,mongenerator-battery_670,0.0,0.0,0.0
255,0.0,0.0,0.0,0.0,0.0,0.0,mongenerator-battery_670,0.0,0.0,0.0
256,0.0,0.0,0.0,0.0,0.0,0.0,mongenerator-battery_670,0.0,0.0,0.0
257,0.0,0.0,0.0,0.0,0.0,0.0,mongenerator-battery_670,0.0,0.0,0.0
258,0.0,0.0,0.0,0.0,0.0,0.0,mongenerator-battery_670,0.0,0.0,0.0
259,0.0,0.0,0.0,0.0,0.0,0.0,mongenerator-battery_670,0.0,0.0,0.0
260,0.0,0.0,0.0,0.0,0.0,0.0,mongenerator-battery_670,0.0,0.0,0.0
261,0.0,0.0,0.0,0.0,0.0,0.0,mongenerator-battery_670,0.0,0.0,0.0
262,0.0,0.0,0.0,0.0,0.0,0.0,mongenerator-battery_670,0.0,0.0,0.0
263,0.0,0.0,0.0,0.0,0.0,0.0,mongenerator-battery_670,0.0,0.0,0.0
264,0.0,0.0,0.0,0.0,0.0,0.0,mongenerator-battery_670,0.0,0.0,0.0
265,0.0,0.0,0.0,0.0,0.0,0.0,mongenerator-battery_670,0.0,0.0,0.0
266,0.0,0.0,0.0,0.0,0.0,0.0,mongenerator-battery_670,0.0,0.0,0.0
267,0.0,0.0,0.0,0.0,0.0,0.0,mongenerator-battery_670,0.0,0.0,0.0
268,0.0,0.0,0.0,0.0,0.0,0.0,mongenerator-battery_670,0.0,0.0,0.0
269,0.0,0.0,0.0,0.0,0.0,0.0,mongenerator-battery_670,0.0,0.0,0.0
270,0.0,0.0,0.0,0.0,0.0,0.0,mongenerator-battery_670,0.0,0.0,0.0
271,0.0,0.0,0.0,0.0,0.0,0.0,mongenerator-battery_670,0.0,0.0,0.0
272,0.0,0.0,0.0,0.0,0.0,0.0,mongenerator-battery_670,0.0,0.0,0.0
