hour,t(sec),V1,VAngle1,V2,VAngle2,I1,IAngle1,I2,IAngle2,V3,Name,VAngle3,I3,IAngle3,V4,VAngle4,I4,IAngle4,kv,V1(PU),V2(PU),V3(PU)
1,0.0,,111.227,,0.0,20.2518,111.23,20.2518,-68.7699,2407.5,monload-611_runway,,,,,,,,2.4,,,1.003125
2,0.0,,111.22,,0.0,21.49,111.22,21.49,-68.7799,2407.29,monload-611_runway,,,,,,,,2.4,,,1.0030375
3,0.0,,111.24600000000001,,0.0,18.735,111.244,18.735,-68.7563,2408.43,monload-611_runway,,,,,,,,2.4,,,1.0035125
4,0.0,,111.251,,0.0,18.1696,111.251,18.1696,-68.7493,2408.68,monload-611_runway,,,,,,,,2.4,,,1.0036166666666666
5,0.0,,111.04799999999999,,0.0,18.3433,111.05,18.3433,-68.9501,2399.11,monload-611_runway,,,,,,,,2.4,,,0.9996291666666667
6,0.0,,110.916,,0.0,19.8621,110.917,19.8621,-69.0826,2392.69,monload-611_runway,,,,,,,,2.4,,,0.9969541666666667
7,0.0,,110.163,,0.0,29.8483,110.164,29.8483,-69.8363,2357.26,monload-611_runway,,,,,,,,2.4,,,0.9821916666666668
8,0.0,,110.257,,0.0,31.8618,110.257,31.8618,-69.7434,2361.74,monload-611_runway,,,,,,,,2.4,,,0.9840583333333333
9,0.0,,109.945,,0.0,44.0268,109.946,44.0268,-70.0543,2348.5,monload-611_runway,,,,,,,,2.4,,,0.9785416666666666
10,0.0,,110.48299999999999,,0.0,37.8158,110.48299999999999,37.8158,-69.5166,2375.95,monload-611_runway,,,,,,,,2.4,,,0.9899791666666666
11,0.0,,111.1,,0.0,26.7204,111.101,26.7204,-68.899,2406.75,monload-611_runway,,,,,,,,2.4,,,1.0028125
12,0.0,,112.053,,0.0,25.0426,112.057,25.0426,-67.9428,2439.67,monload-611_runway,,,,,,,,2.4,,,1.0165291666666667
13,0.0,,111.27799999999999,,0.0,24.9564,111.279,24.9564,-68.721,2400.74,monload-611_runway,,,,,,,,2.4,,,1.0003083333333331
14,0.0,,111.29299999999999,,0.0,24.9959,111.292,24.9959,-68.7078,2400.96,monload-611_runway,,,,,,,,2.4,,,1.0004
15,0.0,,111.78,,0.0,24.9268,111.779,24.9268,-68.2211,2425.62,monload-611_runway,,,,,,,,2.4,,,1.010675
16,0.0,,112.346,,0.0,24.7866,112.346,24.7866,-67.6538,2454.62,monload-611_runway,,,,,,,,2.4,,,1.0227583333333332
17,0.0,,111.111,,0.0,25.989,111.11200000000001,25.989,-68.888,2392.02,monload-611_runway,,,,,,,,2.4,,,0.996675
18,0.0,,110.053,,0.0,31.4301,110.053,31.4301,-69.9469,2337.14,monload-611_runway,,,,,,,,2.4,,,0.9738083333333333
19,0.0,,109.802,,0.0,43.1551,109.79799999999999,43.1551,-70.2017,2340.05,monload-611_runway,,,,,,,,2.4,,,0.9750208333333334
20,0.0,,109.806,,0.0,45.3034,109.805,45.3034,-70.1952,2340.36,monload-611_runway,,,,,,,,2.4,,,0.9751500000000001
21,0.0,,109.946,,0.0,47.8087,109.945,47.8087,-70.0553,2347.12,monload-611_runway,,,,,,,,2.4,,,0.9779666666666667
22,0.0,,110.111,,0.0,46.4444,110.109,46.4444,-69.8907,2355.27,monload-611_runway,,,,,,,,2.4,,,0.9813625
23,0.0,,110.59,,0.0,35.6973,110.584,35.6973,-69.416,2378.01,monload-611_runway,,,,,,,,2.4,,,0.9908375
24,0.0,,110.976,,0.0,22.9122,110.971,22.9122,-69.0286,2395.99,monload-611_runway,,,,,,,,2.4,,,0.9983291666666666
25,0.0,,111.1,,0.0,18.6667,111.098,18.6667,-68.9016,2401.91,monload-611_runway,,,,,,,,2.4,,,1.0007958333333333
26,0.0,,111.103,,0.0,17.8494,111.103,17.8494,-68.8974,2402.04,monload-611_runway,,,,,,,,2.4,,,1.00085
27,0.0,,111.117,,0.0,16.9263,111.116,16.9263,-68.8844,2402.68,monload-611_runway,,,,,,,,2.4,,,1.0011166666666667
28,0.0,,111.118,,0.0,17.0116,111.118,17.0116,-68.8818,2402.72,monload-611_runway,,,,,,,,2.4,,,1.0011333333333332
29,0.0,,110.39,,0.0,17.6802,110.391,17.6802,-69.6088,2368.56,monload-611_runway,,,,,,,,2.4,,,0.9869
30,0.0,,110.117,,0.0,21.26,110.12100000000001,21.26,-69.8791,2355.52,monload-611_runway,,,,,,,,2.4,,,0.9814666666666667
31,0.0,,108.5,,0.0,33.1583,108.5,33.1583,-71.5,2278.52,monload-611_runway,,,,,,,,2.4,,,0.9493833333333334
32,0.0,,107.874,,0.0,34.5753,107.87299999999999,34.5753,-72.1265,2262.82,monload-611_runway,,,,,,,,2.4,,,0.9428416666666667
33,0.0,,108.14399999999999,,0.0,30.7513,108.14399999999999,30.7513,-71.8562,2278.31,monload-611_runway,,,,,,,,2.4,,,0.9492958333333333
34,0.0,,108.571,,0.0,31.0977,108.569,31.0977,-71.4311,2302.51,monload-611_runway,,,,,,,,2.4,,,0.9593791666666668
35,0.0,,109.069,,0.0,25.135,109.065,25.135,-70.9348,2328.72,monload-611_runway,,,,,,,,2.4,,,0.9702999999999999
36,0.0,,107.854,,0.0,25.8096,107.853,25.8096,-72.1468,2263.84,monload-611_runway,,,,,,,,2.4,,,0.9432666666666667
37,0.0,,110.73100000000001,,0.0,26.4116,110.73299999999999,26.4116,-69.2669,2401.51,monload-611_runway,,,,,,,,2.4,,,1.0006291666666667
38,0.0,,108.679,,0.0,25.3752,108.67399999999999,25.3752,-71.32600000000001,2294.7,monload-611_runway,,,,,,,,2.4,,,0.9561249999999999
39,0.0,,111.264,,0.0,24.5082,111.265,24.5082,-68.7346,2429.35,monload-611_runway,,,,,,,,2.4,,,1.0122291666666667
40,0.0,,110.213,,0.0,24.748,110.214,24.748,-69.7864,2375.35,monload-611_runway,,,,,,,,2.4,,,0.9897291666666667
41,0.0,,108.605,,0.0,25.8685,108.60600000000001,25.8685,-71.3939,2291.28,monload-611_runway,,,,,,,,2.4,,,0.9547000000000001
42,0.0,,107.509,,0.0,31.1463,107.508,31.1463,-72.4923,2244.77,monload-611_runway,,,,,,,,2.4,,,0.9353208333333334
43,0.0,,108.38799999999999,,0.0,38.7986,108.391,38.7986,-71.6092,2286.91,monload-611_runway,,,,,,,,2.4,,,0.9528791666666666
44,0.0,,108.37700000000001,,0.0,41.1781,108.37700000000001,41.1781,-71.6227,2286.51,monload-611_runway,,,,,,,,2.4,,,0.9527125000000001
45,0.0,,109.096,,0.0,45.1231,109.094,45.1231,-70.9058,2321.38,monload-611_runway,,,,,,,,2.4,,,0.9672416666666667
46,0.0,,109.449,,0.0,42.3023,109.448,42.3023,-70.5522,2338.69,monload-611_runway,,,,,,,,2.4,,,0.9744541666666667
47,0.0,,110.306,,0.0,30.8497,110.305,30.8497,-69.6954,2379.52,monload-611_runway,,,,,,,,2.4,,,0.9914666666666666
48,0.0,,110.647,,0.0,21.1497,110.641,21.1497,-69.3592,2395.62,monload-611_runway,,,,,,,,2.4,,,0.9981749999999999
49,0.0,,110.773,,0.0,18.8942,110.771,18.8942,-69.2295,2401.72,monload-611_runway,,,,,,,,2.4,,,1.0007166666666665
50,0.0,,110.809,,0.0,18.3946,110.803,18.3946,-69.1966,2403.41,monload-611_runway,,,,,,,,2.4,,,1.0014208333333332
51,0.0,,110.82700000000001,,0.0,17.8874,110.83,17.8874,-69.1697,2388.94,monload-611_runway,,,,,,,,2.4,,,0.9953916666666667
52,0.0,,110.825,,0.0,18.4384,110.825,18.4384,-69.1748,2388.85,monload-611_runway,,,,,,,,2.4,,,0.9953541666666667
53,0.0,,110.09,,0.0,19.6598,110.09100000000001,19.6598,-69.9095,2354.21,monload-611_runway,,,,,,,,2.4,,,0.9809208333333334
54,0.0,,109.791,,0.0,23.9779,109.794,23.9779,-70.2059,2339.89,monload-611_runway,,,,,,,,2.4,,,0.9749541666666666
55,0.0,,108.234,,0.0,35.7182,108.235,35.7182,-71.7654,2280.07,monload-611_runway,,,,,,,,2.4,,,0.9500291666666667
56,0.0,,107.63600000000001,,0.0,35.4958,107.63799999999999,35.4958,-72.3618,2251.01,monload-611_runway,,,,,,,,2.4,,,0.9379208333333334
57,0.0,,108.65899999999999,,0.0,31.5574,108.65700000000001,31.5574,-71.3431,2307.14,monload-611_runway,,,,,,,,2.4,,,0.9613083333333333
58,0.0,,110.57,,0.0,31.2533,110.572,31.2533,-69.4279,2394.05,monload-611_runway,,,,,,,,2.4,,,0.9975208333333334
59,0.0,,110.9,,0.0,24.7817,110.902,24.7817,-69.0979,2410.53,monload-611_runway,,,,,,,,2.4,,,1.0043875
60,0.0,,0.0,,0.0,0.0,0.0,0.0,0.0,0.0,monload-611_runway,,,,,,,,2.4,,,0.0
61,0.0,,0.0,,0.0,0.0,0.0,0.0,0.0,0.0,monload-611_runway,,,,,,,,2.4,,,0.0
62,0.0,,0.0,,0.0,0.0,0.0,0.0,0.0,0.0,monload-611_runway,,,,,,,,2.4,,,0.0
63,0.0,,0.0,,0.0,0.0,0.0,0.0,0.0,0.0,monload-611_runway,,,,,,,,2.4,,,0.0
64,0.0,,0.0,,0.0,0.0,0.0,0.0,0.0,0.0,monload-611_runway,,,,,,,,2.4,,,0.0
65,0.0,,0.0,,0.0,0.0,0.0,0.0,0.0,0.0,monload-611_runway,,,,,,,,2.4,,,0.0
66,0.0,,0.0,,0.0,0.0,0.0,0.0,0.0,0.0,monload-611_runway,,,,,,,,2.4,,,0.0
67,0.0,,0.0,,0.0,0.0,0.0,0.0,0.0,0.0,monload-611_runway,,,,,,,,2.4,,,0.0
68,0.0,,0.0,,0.0,0.0,0.0,0.0,0.0,0.0,monload-611_runway,,,,,,,,2.4,,,0.0
69,0.0,,0.0,,0.0,0.0,0.0,0.0,0.0,0.0,monload-611_runway,,,,,,,,2.4,,,0.0
70,0.0,,0.0,,0.0,0.0,0.0,0.0,0.0,0.0,monload-611_runway,,,,,,,,2.4,,,0.0
71,0.0,,0.0,,0.0,0.0,0.0,0.0,0.0,0.0,monload-611_runway,,,,,,,,2.4,,,0.0
72,0.0,,0.0,,0.0,0.0,0.0,0.0,0.0,0.0,monload-611_runway,,,,,,,,2.4,,,0.0
73,0.0,,0.0,,0.0,0.0,0.0,0.0,0.0,0.0,monload-611_runway,,,,,,,,2.4,,,0.0
74,0.0,,0.0,,0.0,0.0,0.0,0.0,0.0,0.0,monload-611_runway,,,,,,,,2.4,,,0.0
75,0.0,,0.0,,0.0,0.0,0.0,0.0,0.0,0.0,monload-611_runway,,,,,,,,2.4,,,0.0
76,0.0,,0.0,,0.0,0.0,0.0,0.0,0.0,0.0,monload-611_runway,,,,,,,,2.4,,,0.0
77,0.0,,0.0,,0.0,0.0,0.0,0.0,0.0,0.0,monload-611_runway,,,,,,,,2.4,,,0.0
78,0.0,,0.0,,0.0,0.0,0.0,0.0,0.0,0.0,monload-611_runway,,,,,,,,2.4,,,0.0
79,0.0,,0.0,,0.0,0.0,0.0,0.0,0.0,0.0,monload-611_runway,,,,,,,,2.4,,,0.0
80,0.0,,0.0,,0.0,0.0,0.0,0.0,0.0,0.0,monload-611_runway,,,,,,,,2.4,,,0.0
81,0.0,,0.0,,0.0,0.0,0.0,0.0,0.0,0.0,monload-611_runway,,,,,,,,2.4,,,0.0
82,0.0,,0.0,,0.0,0.0,0.0,0.0,0.0,0.0,monload-611_runway,,,,,,,,2.4,,,0.0
83,0.0,,0.0,,0.0,0.0,0.0,0.0,0.0,0.0,monload-611_runway,,,,,,,,2.4,,,0.0
84,0.0,,0.0,,0.0,0.0,0.0,0.0,0.0,0.0,monload-611_runway,,,,,,,,2.4,,,0.0
85,0.0,,0.0,,0.0,0.0,0.0,0.0,0.0,0.0,monload-611_runway,,,,,,,,2.4,,,0.0
86,0.0,,0.0,,0.0,0.0,0.0,0.0,0.0,0.0,monload-611_runway,,,,,,,,2.4,,,0.0
87,0.0,,0.0,,0.0,0.0,0.0,0.0,0.0,0.0,monload-611_runway,,,,,,,,2.4,,,0.0
88,0.0,,0.0,,0.0,0.0,0.0,0.0,0.0,0.0,monload-611_runway,,,,,,,,2.4,,,0.0
89,0.0,,0.0,,0.0,0.0,0.0,0.0,0.0,0.0,monload-611_runway,,,,,,,,2.4,,,0.0
90,0.0,,0.0,,0.0,0.0,0.0,0.0,0.0,0.0,monload-611_runway,,,,,,,,2.4,,,0.0
91,0.0,,0.0,,0.0,0.0,0.0,0.0,0.0,0.0,monload-611_runway,,,,,,,,2.4,,,0.0
92,0.0,,0.0,,0.0,0.0,0.0,0.0,0.0,0.0,monload-611_runway,,,,,,,,2.4,,,0.0
93,0.0,,0.0,,0.0,0.0,0.0,0.0,0.0,0.0,monload-611_runway,,,,,,,,2.4,,,0.0
94,0.0,,0.0,,0.0,0.0,0.0,0.0,0.0,0.0,monload-611_runway,,,,,,,,2.4,,,0.0
95,0.0,,0.0,,0.0,0.0,0.0,0.0,0.0,0.0,monload-611_runway,,,,,,,,2.4,,,0.0
96,0.0,,0.0,,0.0,0.0,0.0,0.0,0.0,0.0,monload-611_runway,,,,,,,,2.4,,,0.0
97,0.0,,0.0,,0.0,0.0,0.0,0.0,0.0,0.0,monload-611_runway,,,,,,,,2.4,,,0.0
98,0.0,,0.0,,0.0,0.0,0.0,0.0,0.0,0.0,monload-611_runway,,,,,,,,2.4,,,0.0
99,0.0,,0.0,,0.0,0.0,0.0,0.0,0.0,0.0,monload-611_runway,,,,,,,,2.4,,,0.0
100,0.0,,0.0,,0.0,0.0,0.0,0.0,0.0,0.0,monload-611_runway,,,,,,,,2.4,,,0.0
101,0.0,,0.0,,0.0,0.0,0.0,0.0,0.0,0.0,monload-611_runway,,,,,,,,2.4,,,0.0
102,0.0,,0.0,,0.0,0.0,0.0,0.0,0.0,0.0,monload-611_runway,,,,,,,,2.4,,,0.0
103,0.0,,0.0,,0.0,0.0,0.0,0.0,0.0,0.0,monload-611_runway,,,,,,,,2.4,,,0.0
104,0.0,,0.0,,0.0,0.0,0.0,0.0,0.0,0.0,monload-611_runway,,,,,,,,2.4,,,0.0
105,0.0,,0.0,,0.0,0.0,0.0,0.0,0.0,0.0,monload-611_runway,,,,,,,,2.4,,,0.0
106,0.0,,0.0,,0.0,0.0,0.0,0.0,0.0,0.0,monload-611_runway,,,,,,,,2.4,,,0.0
107,0.0,,0.0,,0.0,0.0,0.0,0.0,0.0,0.0,monload-611_runway,,,,,,,,2.4,,,0.0
108,0.0,,0.0,,0.0,0.0,0.0,0.0,0.0,0.0,monload-611_runway,,,,,,,,2.4,,,0.0
109,0.0,,0.0,,0.0,0.0,0.0,0.0,0.0,0.0,monload-611_runway,,,,,,,,2.4,,,0.0
110,0.0,,0.0,,0.0,0.0,0.0,0.0,0.0,0.0,monload-611_runway,,,,,,,,2.4,,,0.0
111,0.0,,0.0,,0.0,0.0,0.0,0.0,0.0,0.0,monload-611_runway,,,,,,,,2.4,,,0.0
112,0.0,,0.0,,0.0,0.0,0.0,0.0,0.0,0.0,monload-611_runway,,,,,,,,2.4,,,0.0
113,0.0,,0.0,,0.0,0.0,0.0,0.0,0.0,0.0,monload-611_runway,,,,,,,,2.4,,,0.0
114,0.0,,0.0,,0.0,0.0,0.0,0.0,0.0,0.0,monload-611_runway,,,,,,,,2.4,,,0.0
115,0.0,,0.0,,0.0,0.0,0.0,0.0,0.0,0.0,monload-611_runway,,,,,,,,2.4,,,0.0
116,0.0,,0.0,,0.0,0.0,0.0,0.0,0.0,0.0,monload-611_runway,,,,,,,,2.4,,,0.0
117,0.0,,0.0,,0.0,0.0,0.0,0.0,0.0,0.0,monload-611_runway,,,,,,,,2.4,,,0.0
118,0.0,,0.0,,0.0,0.0,0.0,0.0,0.0,0.0,monload-611_runway,,,,,,,,2.4,,,0.0
119,0.0,,0.0,,0.0,0.0,0.0,0.0,0.0,0.0,monload-611_runway,,,,,,,,2.4,,,0.0
120,0.0,,0.0,,0.0,0.0,0.0,0.0,0.0,0.0,monload-611_runway,,,,,,,,2.4,,,0.0
121,0.0,,0.0,,0.0,0.0,0.0,0.0,0.0,0.0,monload-611_runway,,,,,,,,2.4,,,0.0
122,0.0,,0.0,,0.0,0.0,0.0,0.0,0.0,0.0,monload-611_runway,,,,,,,,2.4,,,0.0
123,0.0,,0.0,,0.0,0.0,0.0,0.0,0.0,0.0,monload-611_runway,,,,,,,,2.4,,,0.0
124,0.0,,0.0,,0.0,0.0,0.0,0.0,0.0,0.0,monload-611_runway,,,,,,,,2.4,,,0.0
125,0.0,,0.0,,0.0,0.0,0.0,0.0,0.0,0.0,monload-611_runway,,,,,,,,2.4,,,0.0
126,0.0,,0.0,,0.0,0.0,0.0,0.0,0.0,0.0,monload-611_runway,,,,,,,,2.4,,,0.0
127,0.0,,0.0,,0.0,0.0,0.0,0.0,0.0,0.0,monload-611_runway,,,,,,,,2.4,,,0.0
128,0.0,,0.0,,0.0,0.0,0.0,0.0,0.0,0.0,monload-611_runway,,,,,,,,2.4,,,0.0
129,0.0,,0.0,,0.0,0.0,0.0,0.0,0.0,0.0,monload-611_runway,,,,,,,,2.4,,,0.0
130,0.0,,0.0,,0.0,0.0,0.0,0.0,0.0,0.0,monload-611_runway,,,,,,,,2.4,,,0.0
131,0.0,,0.0,,0.0,0.0,0.0,0.0,0.0,0.0,monload-611_runway,,,,,,,,2.4,,,0.0
132,0.0,,0.0,,0.0,0.0,0.0,0.0,0.0,0.0,monload-611_runway,,,,,,,,2.4,,,0.0
133,0.0,,0.0,,0.0,0.0,0.0,0.0,0.0,0.0,monload-611_runway,,,,,,,,2.4,,,0.0
134,0.0,,0.0,,0.0,0.0,0.0,0.0,0.0,0.0,monload-611_runway,,,,,,,,2.4,,,0.0
135,0.0,,0.0,,0.0,0.0,0.0,0.0,0.0,0.0,monload-611_runway,,,,,,,,2.4,,,0.0
136,0.0,,0.0,,0.0,0.0,0.0,0.0,0.0,0.0,monload-611_runway,,,,,,,,2.4,,,0.0
137,0.0,,0.0,,0.0,0.0,0.0,0.0,0.0,0.0,monload-611_runway,,,,,,,,2.4,,,0.0
138,0.0,,0.0,,0.0,0.0,0.0,0.0,0.0,0.0,monload-611_runway,,,,,,,,2.4,,,0.0
139,0.0,,0.0,,0.0,0.0,0.0,0.0,0.0,0.0,monload-611_runway,,,,,,,,2.4,,,0.0
140,0.0,,0.0,,0.0,0.0,0.0,0.0,0.0,0.0,monload-611_runway,,,,,,,,2.4,,,0.0
141,0.0,,0.0,,0.0,0.0,0.0,0.0,0.0,0.0,monload-611_runway,,,,,,,,2.4,,,0.0
142,0.0,,0.0,,0.0,0.0,0.0,0.0,0.0,0.0,monload-611_runway,,,,,,,,2.4,,,0.0
143,0.0,,0.0,,0.0,0.0,0.0,0.0,0.0,0.0,monload-611_runway,,,,,,,,2.4,,,0.0
144,0.0,,0.0,,0.0,0.0,0.0,0.0,0.0,0.0,monload-611_runway,,,,,,,,2.4,,,0.0
145,0.0,,0.0,,0.0,0.0,0.0,0.0,0.0,0.0,monload-611_runway,,,,,,,,2.4,,,0.0
146,0.0,,0.0,,0.0,0.0,0.0,0.0,0.0,0.0,monload-611_runway,,,,,,,,2.4,,,0.0
147,0.0,,0.0,,0.0,0.0,0.0,0.0,0.0,0.0,monload-611_runway,,,,,,,,2.4,,,0.0
148,0.0,,0.0,,0.0,0.0,0.0,0.0,0.0,0.0,monload-611_runway,,,,,,,,2.4,,,0.0
149,0.0,,0.0,,0.0,0.0,0.0,0.0,0.0,0.0,monload-611_runway,,,,,,,,2.4,,,0.0
150,0.0,,0.0,,0.0,0.0,0.0,0.0,0.0,0.0,monload-611_runway,,,,,,,,2.4,,,0.0
151,0.0,,0.0,,0.0,0.0,0.0,0.0,0.0,0.0,monload-611_runway,,,,,,,,2.4,,,0.0
152,0.0,,0.0,,0.0,0.0,0.0,0.0,0.0,0.0,monload-611_runway,,,,,,,,2.4,,,0.0
153,0.0,,0.0,,0.0,0.0,0.0,0.0,0.0,0.0,monload-611_runway,,,,,,,,2.4,,,0.0
154,0.0,,0.0,,0.0,0.0,0.0,0.0,0.0,0.0,monload-611_runway,,,,,,,,2.4,,,0.0
155,0.0,,0.0,,0.0,0.0,0.0,0.0,0.0,0.0,monload-611_runway,,,,,,,,2.4,,,0.0
156,0.0,,0.0,,0.0,0.0,0.0,0.0,0.0,0.0,monload-611_runway,,,,,,,,2.4,,,0.0
157,0.0,,0.0,,0.0,0.0,0.0,0.0,0.0,0.0,monload-611_runway,,,,,,,,2.4,,,0.0
158,0.0,,0.0,,0.0,0.0,0.0,0.0,0.0,0.0,monload-611_runway,,,,,,,,2.4,,,0.0
159,0.0,,0.0,,0.0,0.0,0.0,0.0,0.0,0.0,monload-611_runway,,,,,,,,2.4,,,0.0
160,0.0,,0.0,,0.0,0.0,0.0,0.0,0.0,0.0,monload-611_runway,,,,,,,,2.4,,,0.0
161,0.0,,0.0,,0.0,0.0,0.0,0.0,0.0,0.0,monload-611_runway,,,,,,,,2.4,,,0.0
162,0.0,,0.0,,0.0,0.0,0.0,0.0,0.0,0.0,monload-611_runway,,,,,,,,2.4,,,0.0
163,0.0,,0.0,,0.0,0.0,0.0,0.0,0.0,0.0,monload-611_runway,,,,,,,,2.4,,,0.0
164,0.0,,0.0,,0.0,0.0,0.0,0.0,0.0,0.0,monload-611_runway,,,,,,,,2.4,,,0.0
165,0.0,,0.0,,0.0,0.0,0.0,0.0,0.0,0.0,monload-611_runway,,,,,,,,2.4,,,0.0
166,0.0,,0.0,,0.0,0.0,0.0,0.0,0.0,0.0,monload-611_runway,,,,,,,,2.4,,,0.0
167,0.0,,0.0,,0.0,0.0,0.0,0.0,0.0,0.0,monload-611_runway,,,,,,,,2.4,,,0.0
168,0.0,,0.0,,0.0,0.0,0.0,0.0,0.0,0.0,monload-611_runway,,,,,,,,2.4,,,0.0
169,0.0,,0.0,,0.0,0.0,0.0,0.0,0.0,0.0,monload-611_runway,,,,,,,,2.4,,,0.0
170,0.0,,0.0,,0.0,0.0,0.0,0.0,0.0,0.0,monload-611_runway,,,,,,,,2.4,,,0.0
171,0.0,,0.0,,0.0,0.0,0.0,0.0,0.0,0.0,monload-611_runway,,,,,,,,2.4,,,0.0
172,0.0,,0.0,,0.0,0.0,0.0,0.0,0.0,0.0,monload-611_runway,,,,,,,,2.4,,,0.0
173,0.0,,0.0,,0.0,0.0,0.0,0.0,0.0,0.0,monload-611_runway,,,,,,,,2.4,,,0.0
174,0.0,,0.0,,0.0,0.0,0.0,0.0,0.0,0.0,monload-611_runway,,,,,,,,2.4,,,0.0
175,0.0,,0.0,,0.0,0.0,0.0,0.0,0.0,0.0,monload-611_runway,,,,,,,,2.4,,,0.0
176,0.0,,0.0,,0.0,0.0,0.0,0.0,0.0,0.0,monload-611_runway,,,,,,,,2.4,,,0.0
177,0.0,,0.0,,0.0,0.0,0.0,0.0,0.0,0.0,monload-611_runway,,,,,,,,2.4,,,0.0
178,0.0,,0.0,,0.0,0.0,0.0,0.0,0.0,0.0,monload-611_runway,,,,,,,,2.4,,,0.0
179,0.0,,0.0,,0.0,0.0,0.0,0.0,0.0,0.0,monload-611_runway,,,,,,,,2.4,,,0.0
180,0.0,,110.62299999999999,,0.0,38.1499,110.62799999999999,38.1499,-69.3723,2385.7,monload-611_runway,,,,,,,,2.4,,,0.9940416666666666
181,0.0,,112.029,,0.0,38.4204,112.03399999999999,38.4204,-67.96600000000001,2442.06,monload-611_runway,,,,,,,,2.4,,,1.017525
182,0.0,,113.12200000000001,,0.0,39.8211,113.12100000000001,39.8211,-66.8785,2497.4,monload-611_runway,,,,,,,,2.4,,,1.0405833333333334
183,0.0,,112.193,,0.0,41.1387,112.195,41.1387,-67.805,2451.32,monload-611_runway,,,,,,,,2.4,,,1.0213833333333333
184,0.0,,110.896,,0.0,40.2542,110.898,40.2542,-69.1021,2385.66,monload-611_runway,,,,,,,,2.4,,,0.9940249999999999
185,0.0,,110.05799999999999,,0.0,39.4232,110.05799999999999,39.4232,-69.942,2341.21,monload-611_runway,,,,,,,,2.4,,,0.9755041666666667
186,0.0,,109.375,,0.0,41.61,109.37100000000001,41.61,-70.6291,2319.13,monload-611_runway,,,,,,,,2.4,,,0.9663041666666667
187,0.0,,109.295,,0.0,50.661,109.296,50.661,-70.7044,2315.25,monload-611_runway,,,,,,,,2.4,,,0.9646875
188,0.0,,109.485,,0.0,50.93600000000001,109.48299999999999,50.93600000000001,-70.5171,2324.81,monload-611_runway,,,,,,,,2.4,,,0.9686708333333333
189,0.0,,109.699,,0.0,52.3523,109.696,52.3523,-70.3035,2335.3,monload-611_runway,,,,,,,,2.4,,,0.9730416666666667
190,0.0,,109.9,,0.0,50.5692,109.897,50.5692,-70.1027,2345.3,monload-611_runway,,,,,,,,2.4,,,0.9772083333333335
191,0.0,,110.434,,0.0,39.6945,110.434,39.6945,-69.5663,2370.85,monload-611_runway,,,,,,,,2.4,,,0.9878541666666666
192,0.0,,110.866,,0.0,26.4536,110.859,26.4536,-69.1408,2391.06,monload-611_runway,,,,,,,,2.4,,,0.996275
193,0.0,,111.035,,0.0,21.0984,111.03200000000001,21.0984,-68.9681,2399.11,monload-611_runway,,,,,,,,2.4,,,0.9996291666666667
194,0.0,,111.066,,0.0,19.0118,111.06200000000001,19.0118,-68.9383,2400.55,monload-611_runway,,,,,,,,2.4,,,1.0002291666666667
195,0.0,,111.08,,0.0,17.1605,111.07799999999999,17.1605,-68.9218,2401.17,monload-611_runway,,,,,,,,2.4,,,1.0004875
196,0.0,,111.057,,0.0,16.8089,111.06,16.8089,-68.94,2400.06,monload-611_runway,,,,,,,,2.4,,,1.000025
197,0.0,,110.34200000000001,,0.0,17.2796,110.34299999999999,17.2796,-69.657,2366.5,monload-611_runway,,,,,,,,2.4,,,0.9860416666666667
198,0.0,,110.155,,0.0,20.6862,110.15799999999999,20.6862,-69.8425,2357.47,monload-611_runway,,,,,,,,2.4,,,0.9822791666666666
199,0.0,,108.458,,0.0,33.2049,108.458,33.2049,-71.5416,2276.61,monload-611_runway,,,,,,,,2.4,,,0.9485875
200,0.0,,107.79700000000001,,0.0,36.0055,107.796,36.0055,-72.2038,2259.19,monload-611_runway,,,,,,,,2.4,,,0.9413291666666667
201,0.0,,109.73299999999999,,0.0,33.1764,109.734,33.1764,-70.2658,2363.59,monload-611_runway,,,,,,,,2.4,,,0.9848291666666668
202,0.0,,110.824,,0.0,35.1894,110.825,35.1894,-69.1745,2407.26,monload-611_runway,,,,,,,,2.4,,,1.003025
203,0.0,,109.80799999999999,,0.0,30.9635,109.809,30.9635,-70.1912,2354.01,monload-611_runway,,,,,,,,2.4,,,0.9808375000000001
204,0.0,,111.229,,0.0,34.0175,111.23,34.0175,-68.7699,2428.07,monload-611_runway,,,,,,,,2.4,,,1.0116958333333335
205,0.0,,110.62799999999999,,0.0,36.5232,110.631,36.5232,-69.3694,2396.75,monload-611_runway,,,,,,,,2.4,,,0.9986458333333333
206,0.0,,108.32700000000001,,0.0,37.9183,108.322,37.9183,-71.6784,2277.28,monload-611_runway,,,,,,,,2.4,,,0.9488666666666667
207,0.0,,108.604,,0.0,38.9807,108.603,38.9807,-71.3966,2292.45,monload-611_runway,,,,,,,,2.4,,,0.9551875
208,0.0,,108.336,,0.0,36.5452,108.33200000000001,36.5452,-71.6683,2278.07,monload-611_runway,,,,,,,,2.4,,,0.9491958333333333
209,0.0,,107.656,,0.0,35.8051,107.656,35.8051,-72.3442,2255.12,monload-611_runway,,,,,,,,2.4,,,0.9396333333333333
210,0.0,,107.44,,0.0,40.0751,107.441,40.0751,-72.5592,2241.67,monload-611_runway,,,,,,,,2.4,,,0.9340291666666667
211,0.0,,108.21700000000001,,0.0,46.4963,108.21600000000001,46.4963,-71.7839,2278.18,monload-611_runway,,,,,,,,2.4,,,0.9492416666666667
212,0.0,,108.236,,0.0,48.3867,108.236,48.3867,-71.7642,2279.51,monload-611_runway,,,,,,,,2.4,,,0.9497958333333334
213,0.0,,108.92200000000001,,0.0,52.3358,108.92,52.3358,-71.0795,2312.99,monload-611_runway,,,,,,,,2.4,,,0.9637458333333332
214,0.0,,109.205,,0.0,49.8536,109.199,49.8536,-70.8013,2327.05,monload-611_runway,,,,,,,,2.4,,,0.9696041666666667
