hour,t(sec),V1,VAngle1,V2,VAngle2,I1,IAngle1,I2,IAngle2,V3,Name,VAngle3,I3,IAngle3,V4,VAngle4,I4,IAngle4,kv,V1(PU),V2(PU),V3(PU)
1,0.0,,111.227,,0.0,20.2518,111.23,20.2518,-68.7699,2407.5,monload-611_runway,,,,,,,,2.4,,,1.003125
2,0.0,,111.22,,0.0,21.49,111.22,21.49,-68.7799,2407.29,monload-611_runway,,,,,,,,2.4,,,1.0030375
3,0.0,,111.24600000000001,,0.0,18.735,111.244,18.735,-68.7563,2408.43,monload-611_runway,,,,,,,,2.4,,,1.0035125
4,0.0,,111.251,,0.0,18.1696,111.251,18.1696,-68.7493,2408.68,monload-611_runway,,,,,,,,2.4,,,1.0036166666666666
5,0.0,,111.04799999999999,,0.0,18.3433,111.05,18.3433,-68.9501,2399.11,monload-611_runway,,,,,,,,2.4,,,0.9996291666666667
6,0.0,,110.916,,0.0,19.8621,110.917,19.8621,-69.0826,2392.69,monload-611_runway,,,,,,,,2.4,,,0.9969541666666667
7,0.0,,110.163,,0.0,29.8483,110.164,29.8483,-69.8363,2357.26,monload-611_runway,,,,,,,,2.4,,,0.9821916666666668
8,0.0,,110.257,,0.0,31.8618,110.257,31.8618,-69.7434,2361.74,monload-611_runway,,,,,,,,2.4,,,0.9840583333333333
9,0.0,,109.945,,0.0,44.0268,109.946,44.0268,-70.0543,2348.5,monload-611_runway,,,,,,,,2.4,,,0.9785416666666666
10,0.0,,110.48299999999999,,0.0,37.8158,110.48299999999999,37.8158,-69.5166,2375.95,monload-611_runway,,,,,,,,2.4,,,0.9899791666666666
11,0.0,,110.93799999999999,,0.0,26.7204,110.93700000000001,26.7204,-69.0632,2398.37,monload-611_runway,,,,,,,,2.4,,,0.9993208333333333
12,0.0,,112.67399999999999,,0.0,25.0426,112.678,25.0426,-67.322,2471.31,monload-611_runway,,,,,,,,2.4,,,1.0297125
13,0.0,,110.689,,0.0,24.9564,110.69,24.9564,-69.3099,2370.59,monload-611_runway,,,,,,,,2.4,,,0.9877458333333334
14,0.0,,111.52799999999999,,0.0,24.9959,111.527,24.9959,-68.4728,2413.13,monload-611_runway,,,,,,,,2.4,,,1.0054708333333333
15,0.0,,112.223,,0.0,24.9268,112.22200000000001,24.9268,-67.7776,2448.33,monload-611_runway,,,,,,,,2.4,,,1.0201375
16,0.0,,112.346,,0.0,24.7866,112.345,24.7866,-67.6554,2454.61,monload-611_runway,,,,,,,,2.4,,,1.0227541666666666
17,0.0,,111.111,,0.0,25.989,111.11200000000001,25.989,-68.8882,2392.02,monload-611_runway,,,,,,,,2.4,,,0.996675
18,0.0,,110.053,,0.0,31.4301,110.053,31.4301,-69.9469,2337.14,monload-611_runway,,,,,,,,2.4,,,0.9738083333333333
19,0.0,,109.802,,0.0,43.1551,109.79799999999999,43.1551,-70.2017,2340.05,monload-611_runway,,,,,,,,2.4,,,0.9750208333333334
20,0.0,,109.806,,0.0,45.3034,109.805,45.3034,-70.1952,2340.36,monload-611_runway,,,,,,,,2.4,,,0.9751500000000001
21,0.0,,109.946,,0.0,47.8087,109.945,47.8087,-70.0553,2347.12,monload-611_runway,,,,,,,,2.4,,,0.9779666666666667
22,0.0,,110.111,,0.0,46.4444,110.109,46.4444,-69.8907,2355.27,monload-611_runway,,,,,,,,2.4,,,0.9813625
23,0.0,,110.59,,0.0,35.6973,110.584,35.6973,-69.416,2378.01,monload-611_runway,,,,,,,,2.4,,,0.9908375
24,0.0,,110.976,,0.0,22.9122,110.971,22.9122,-69.0286,2395.99,monload-611_runway,,,,,,,,2.4,,,0.9983291666666666
25,0.0,,111.1,,0.0,18.6667,111.098,18.6667,-68.9016,2401.91,monload-611_runway,,,,,,,,2.4,,,1.0007958333333333
26,0.0,,111.103,,0.0,17.8494,111.103,17.8494,-68.8974,2402.04,monload-611_runway,,,,,,,,2.4,,,1.00085
27,0.0,,111.117,,0.0,16.9263,111.116,16.9263,-68.8844,2402.68,monload-611_runway,,,,,,,,2.4,,,1.0011166666666667
28,0.0,,111.118,,0.0,17.0116,111.118,17.0116,-68.8818,2402.72,monload-611_runway,,,,,,,,2.4,,,1.0011333333333332
29,0.0,,110.39,,0.0,17.6802,110.391,17.6802,-69.6088,2368.56,monload-611_runway,,,,,,,,2.4,,,0.9869
30,0.0,,110.117,,0.0,21.26,110.12100000000001,21.26,-69.8791,2355.52,monload-611_runway,,,,,,,,2.4,,,0.9814666666666667
31,0.0,,108.5,,0.0,33.1583,108.5,33.1583,-71.5,2278.52,monload-611_runway,,,,,,,,2.4,,,0.9493833333333334
32,0.0,,107.874,,0.0,34.5753,107.87299999999999,34.5753,-72.1265,2262.82,monload-611_runway,,,,,,,,2.4,,,0.9428416666666667
33,0.0,,108.14399999999999,,0.0,30.7513,108.14399999999999,30.7513,-71.8562,2278.31,monload-611_runway,,,,,,,,2.4,,,0.9492958333333333
34,0.0,,108.571,,0.0,31.0977,108.569,31.0977,-71.4311,2302.51,monload-611_runway,,,,,,,,2.4,,,0.9593791666666668
35,0.0,,109.069,,0.0,25.135,109.065,25.135,-70.9348,2328.72,monload-611_runway,,,,,,,,2.4,,,0.9702999999999999
36,0.0,,107.619,,0.0,25.6576,107.619,25.6576,-72.3811,2251.16,monload-611_runway,,,,,,,,2.4,,,0.9379833333333333
37,0.0,,110.78299999999999,,0.0,26.4116,110.785,26.4116,-69.2148,2404.17,monload-611_runway,,,,,,,,2.4,,,1.0017375
38,0.0,,108.419,,0.0,25.3752,108.42,25.3752,-71.5796,2281.28,monload-611_runway,,,,,,,,2.4,,,0.9505333333333335
39,0.0,,111.865,,0.0,24.5082,111.867,24.5082,-68.1331,2444.12,monload-611_runway,,,,,,,,2.4,,,1.0183833333333332
40,0.0,,110.14200000000001,,0.0,24.748,110.14299999999999,24.748,-69.8569,2356.87,monload-611_runway,,,,,,,,2.4,,,0.9820291666666666
41,0.0,,108.605,,0.0,25.8685,108.604,25.8685,-71.3963,2291.26,monload-611_runway,,,,,,,,2.4,,,0.9546916666666667
42,0.0,,107.45200000000001,,0.0,31.1015,107.45100000000001,31.1015,-72.5489,2241.7,monload-611_runway,,,,,,,,2.4,,,0.9340416666666665
43,0.0,,108.38799999999999,,0.0,38.7986,108.387,38.7986,-71.613,2286.89,monload-611_runway,,,,,,,,2.4,,,0.9528708333333333
44,0.0,,108.37700000000001,,0.0,41.1781,108.37700000000001,41.1781,-71.6227,2286.51,monload-611_runway,,,,,,,,2.4,,,0.9527125000000001
45,0.0,,109.096,,0.0,45.1231,109.09299999999999,45.1231,-70.9065,2321.38,monload-611_runway,,,,,,,,2.4,,,0.9672416666666667
46,0.0,,109.449,,0.0,42.3023,109.447,42.3023,-70.5525,2338.69,monload-611_runway,,,,,,,,2.4,,,0.9744541666666667
47,0.0,,110.306,,0.0,30.8497,110.304,30.8497,-69.6962,2379.53,monload-611_runway,,,,,,,,2.4,,,0.9914708333333334
48,0.0,,110.647,,0.0,21.1497,110.63799999999999,21.1497,-69.3617,2395.63,monload-611_runway,,,,,,,,2.4,,,0.9981791666666667
49,0.0,,110.773,,0.0,18.8942,110.77,18.8942,-69.2305,2401.73,monload-611_runway,,,,,,,,2.4,,,1.0007208333333333
50,0.0,,110.809,,0.0,18.3946,110.802,18.3946,-69.1977,2403.41,monload-611_runway,,,,,,,,2.4,,,1.0014208333333332
51,0.0,,110.82700000000001,,0.0,17.8874,110.83,17.8874,-69.1697,2388.94,monload-611_runway,,,,,,,,2.4,,,0.9953916666666667
52,0.0,,110.825,,0.0,18.4384,110.825,18.4384,-69.1748,2388.85,monload-611_runway,,,,,,,,2.4,,,0.9953541666666667
53,0.0,,110.09,,0.0,19.6598,110.09100000000001,19.6598,-69.9095,2354.21,monload-611_runway,,,,,,,,2.4,,,0.9809208333333334
54,0.0,,109.791,,0.0,23.9779,109.794,23.9779,-70.2059,2339.89,monload-611_runway,,,,,,,,2.4,,,0.9749541666666666
55,0.0,,108.234,,0.0,35.7182,108.235,35.7182,-71.7654,2280.07,monload-611_runway,,,,,,,,2.4,,,0.9500291666666667
56,0.0,,107.63600000000001,,0.0,35.4958,107.63799999999999,35.4958,-72.3618,2251.01,monload-611_runway,,,,,,,,2.4,,,0.9379208333333334
57,0.0,,108.65899999999999,,0.0,31.5574,108.65700000000001,31.5574,-71.3431,2307.14,monload-611_runway,,,,,,,,2.4,,,0.9613083333333333
58,0.0,,110.079,,0.0,31.2533,110.081,31.2533,-69.9191,2368.86,monload-611_runway,,,,,,,,2.4,,,0.987025
59,0.0,,111.492,,0.0,24.7817,111.493,24.7817,-68.5065,2425.08,monload-611_runway,,,,,,,,2.4,,,1.01045
60,0.0,,0.0,,0.0,0.0,0.0,0.0,0.0,0.0,monload-611_runway,,,,,,,,2.4,,,0.0
61,0.0,,0.0,,0.0,0.0,0.0,0.0,0.0,0.0,monload-611_runway,,,,,,,,2.4,,,0.0
62,0.0,,0.0,,0.0,0.0,0.0,0.0,0.0,0.0,monload-611_runway,,,,,,,,2.4,,,0.0
63,0.0,,0.0,,0.0,0.0,0.0,0.0,0.0,0.0,monload-611_runway,,,,,,,,2.4,,,0.0
64,0.0,,0.0,,0.0,0.0,0.0,0.0,0.0,0.0,monload-611_runway,,,,,,,,2.4,,,0.0
65,0.0,,0.0,,0.0,0.0,0.0,0.0,0.0,0.0,monload-611_runway,,,,,,,,2.4,,,0.0
66,0.0,,0.0,,0.0,0.0,0.0,0.0,0.0,0.0,monload-611_runway,,,,,,,,2.4,,,0.0
67,0.0,,0.0,,0.0,0.0,0.0,0.0,0.0,0.0,monload-611_runway,,,,,,,,2.4,,,0.0
68,0.0,,0.0,,0.0,0.0,0.0,0.0,0.0,0.0,monload-611_runway,,,,,,,,2.4,,,0.0
69,0.0,,0.0,,0.0,0.0,0.0,0.0,0.0,0.0,monload-611_runway,,,,,,,,2.4,,,0.0
70,0.0,,0.0,,0.0,0.0,0.0,0.0,0.0,0.0,monload-611_runway,,,,,,,,2.4,,,0.0
71,0.0,,0.0,,0.0,0.0,0.0,0.0,0.0,0.0,monload-611_runway,,,,,,,,2.4,,,0.0
72,0.0,,0.0,,0.0,0.0,0.0,0.0,0.0,0.0,monload-611_runway,,,,,,,,2.4,,,0.0
73,0.0,,0.0,,0.0,0.0,0.0,0.0,0.0,0.0,monload-611_runway,,,,,,,,2.4,,,0.0
74,0.0,,0.0,,0.0,0.0,0.0,0.0,0.0,0.0,monload-611_runway,,,,,,,,2.4,,,0.0
75,0.0,,0.0,,0.0,0.0,0.0,0.0,0.0,0.0,monload-611_runway,,,,,,,,2.4,,,0.0
76,0.0,,0.0,,0.0,0.0,0.0,0.0,0.0,0.0,monload-611_runway,,,,,,,,2.4,,,0.0
77,0.0,,0.0,,0.0,0.0,0.0,0.0,0.0,0.0,monload-611_runway,,,,,,,,2.4,,,0.0
78,0.0,,0.0,,0.0,0.0,0.0,0.0,0.0,0.0,monload-611_runway,,,,,,,,2.4,,,0.0
79,0.0,,0.0,,0.0,0.0,0.0,0.0,0.0,0.0,monload-611_runway,,,,,,,,2.4,,,0.0
80,0.0,,0.0,,0.0,0.0,0.0,0.0,0.0,0.0,monload-611_runway,,,,,,,,2.4,,,0.0
81,0.0,,0.0,,0.0,0.0,0.0,0.0,0.0,0.0,monload-611_runway,,,,,,,,2.4,,,0.0
82,0.0,,0.0,,0.0,0.0,0.0,0.0,0.0,0.0,monload-611_runway,,,,,,,,2.4,,,0.0
83,0.0,,0.0,,0.0,0.0,0.0,0.0,0.0,0.0,monload-611_runway,,,,,,,,2.4,,,0.0
84,0.0,,0.0,,0.0,0.0,0.0,0.0,0.0,0.0,monload-611_runway,,,,,,,,2.4,,,0.0
85,0.0,,0.0,,0.0,0.0,0.0,0.0,0.0,0.0,monload-611_runway,,,,,,,,2.4,,,0.0
86,0.0,,0.0,,0.0,0.0,0.0,0.0,0.0,0.0,monload-611_runway,,,,,,,,2.4,,,0.0
87,0.0,,0.0,,0.0,0.0,0.0,0.0,0.0,0.0,monload-611_runway,,,,,,,,2.4,,,0.0
88,0.0,,0.0,,0.0,0.0,0.0,0.0,0.0,0.0,monload-611_runway,,,,,,,,2.4,,,0.0
89,0.0,,0.0,,0.0,0.0,0.0,0.0,0.0,0.0,monload-611_runway,,,,,,,,2.4,,,0.0
90,0.0,,0.0,,0.0,0.0,0.0,0.0,0.0,0.0,monload-611_runway,,,,,,,,2.4,,,0.0
91,0.0,,0.0,,0.0,0.0,0.0,0.0,0.0,0.0,monload-611_runway,,,,,,,,2.4,,,0.0
92,0.0,,0.0,,0.0,0.0,0.0,0.0,0.0,0.0,monload-611_runway,,,,,,,,2.4,,,0.0
93,0.0,,0.0,,0.0,0.0,0.0,0.0,0.0,0.0,monload-611_runway,,,,,,,,2.4,,,0.0
94,0.0,,0.0,,0.0,0.0,0.0,0.0,0.0,0.0,monload-611_runway,,,,,,,,2.4,,,0.0
95,0.0,,0.0,,0.0,0.0,0.0,0.0,0.0,0.0,monload-611_runway,,,,,,,,2.4,,,0.0
96,0.0,,0.0,,0.0,0.0,0.0,0.0,0.0,0.0,monload-611_runway,,,,,,,,2.4,,,0.0
97,0.0,,0.0,,0.0,0.0,0.0,0.0,0.0,0.0,monload-611_runway,,,,,,,,2.4,,,0.0
98,0.0,,0.0,,0.0,0.0,0.0,0.0,0.0,0.0,monload-611_runway,,,,,,,,2.4,,,0.0
99,0.0,,0.0,,0.0,0.0,0.0,0.0,0.0,0.0,monload-611_runway,,,,,,,,2.4,,,0.0
100,0.0,,0.0,,0.0,0.0,0.0,0.0,0.0,0.0,monload-611_runway,,,,,,,,2.4,,,0.0
101,0.0,,0.0,,0.0,0.0,0.0,0.0,0.0,0.0,monload-611_runway,,,,,,,,2.4,,,0.0
102,0.0,,0.0,,0.0,0.0,0.0,0.0,0.0,0.0,monload-611_runway,,,,,,,,2.4,,,0.0
103,0.0,,0.0,,0.0,0.0,0.0,0.0,0.0,0.0,monload-611_runway,,,,,,,,2.4,,,0.0
104,0.0,,0.0,,0.0,0.0,0.0,0.0,0.0,0.0,monload-611_runway,,,,,,,,2.4,,,0.0
105,0.0,,0.0,,0.0,0.0,0.0,0.0,0.0,0.0,monload-611_runway,,,,,,,,2.4,,,0.0
106,0.0,,0.0,,0.0,0.0,0.0,0.0,0.0,0.0,monload-611_runway,,,,,,,,2.4,,,0.0
107,0.0,,0.0,,0.0,0.0,0.0,0.0,0.0,0.0,monload-611_runway,,,,,,,,2.4,,,0.0
108,0.0,,0.0,,0.0,0.0,0.0,0.0,0.0,0.0,monload-611_runway,,,,,,,,2.4,,,0.0
109,0.0,,0.0,,0.0,0.0,0.0,0.0,0.0,0.0,monload-611_runway,,,,,,,,2.4,,,0.0
110,0.0,,0.0,,0.0,0.0,0.0,0.0,0.0,0.0,monload-611_runway,,,,,,,,2.4,,,0.0
111,0.0,,0.0,,0.0,0.0,0.0,0.0,0.0,0.0,monload-611_runway,,,,,,,,2.4,,,0.0
112,0.0,,0.0,,0.0,0.0,0.0,0.0,0.0,0.0,monload-611_runway,,,,,,,,2.4,,,0.0
113,0.0,,0.0,,0.0,0.0,0.0,0.0,0.0,0.0,monload-611_runway,,,,,,,,2.4,,,0.0
114,0.0,,0.0,,0.0,0.0,0.0,0.0,0.0,0.0,monload-611_runway,,,,,,,,2.4,,,0.0
115,0.0,,0.0,,0.0,0.0,0.0,0.0,0.0,0.0,monload-611_runway,,,,,,,,2.4,,,0.0
116,0.0,,0.0,,0.0,0.0,0.0,0.0,0.0,0.0,monload-611_runway,,,,,,,,2.4,,,0.0
117,0.0,,0.0,,0.0,0.0,0.0,0.0,0.0,0.0,monload-611_runway,,,,,,,,2.4,,,0.0
118,0.0,,0.0,,0.0,0.0,0.0,0.0,0.0,0.0,monload-611_runway,,,,,,,,2.4,,,0.0
119,0.0,,0.0,,0.0,0.0,0.0,0.0,0.0,0.0,monload-611_runway,,,,,,,,2.4,,,0.0
120,0.0,,0.0,,0.0,0.0,0.0,0.0,0.0,0.0,monload-611_runway,,,,,,,,2.4,,,0.0
121,0.0,,0.0,,0.0,0.0,0.0,0.0,0.0,0.0,monload-611_runway,,,,,,,,2.4,,,0.0
122,0.0,,0.0,,0.0,0.0,0.0,0.0,0.0,0.0,monload-611_runway,,,,,,,,2.4,,,0.0
123,0.0,,0.0,,0.0,0.0,0.0,0.0,0.0,0.0,monload-611_runway,,,,,,,,2.4,,,0.0
124,0.0,,0.0,,0.0,0.0,0.0,0.0,0.0,0.0,monload-611_runway,,,,,,,,2.4,,,0.0
125,0.0,,0.0,,0.0,0.0,0.0,0.0,0.0,0.0,monload-611_runway,,,,,,,,2.4,,,0.0
126,0.0,,0.0,,0.0,0.0,0.0,0.0,0.0,0.0,monload-611_runway,,,,,,,,2.4,,,0.0
127,0.0,,0.0,,0.0,0.0,0.0,0.0,0.0,0.0,monload-611_runway,,,,,,,,2.4,,,0.0
128,0.0,,0.0,,0.0,0.0,0.0,0.0,0.0,0.0,monload-611_runway,,,,,,,,2.4,,,0.0
129,0.0,,0.0,,0.0,0.0,0.0,0.0,0.0,0.0,monload-611_runway,,,,,,,,2.4,,,0.0
130,0.0,,0.0,,0.0,0.0,0.0,0.0,0.0,0.0,monload-611_runway,,,,,,,,2.4,,,0.0
131,0.0,,0.0,,0.0,0.0,0.0,0.0,0.0,0.0,monload-611_runway,,,,,,,,2.4,,,0.0
132,0.0,,0.0,,0.0,0.0,0.0,0.0,0.0,0.0,monload-611_runway,,,,,,,,2.4,,,0.0
133,0.0,,0.0,,0.0,0.0,0.0,0.0,0.0,0.0,monload-611_runway,,,,,,,,2.4,,,0.0
134,0.0,,0.0,,0.0,0.0,0.0,0.0,0.0,0.0,monload-611_runway,,,,,,,,2.4,,,0.0
135,0.0,,0.0,,0.0,0.0,0.0,0.0,0.0,0.0,monload-611_runway,,,,,,,,2.4,,,0.0
136,0.0,,0.0,,0.0,0.0,0.0,0.0,0.0,0.0,monload-611_runway,,,,,,,,2.4,,,0.0
137,0.0,,0.0,,0.0,0.0,0.0,0.0,0.0,0.0,monload-611_runway,,,,,,,,2.4,,,0.0
138,0.0,,0.0,,0.0,0.0,0.0,0.0,0.0,0.0,monload-611_runway,,,,,,,,2.4,,,0.0
139,0.0,,0.0,,0.0,0.0,0.0,0.0,0.0,0.0,monload-611_runway,,,,,,,,2.4,,,0.0
140,0.0,,0.0,,0.0,0.0,0.0,0.0,0.0,0.0,monload-611_runway,,,,,,,,2.4,,,0.0
141,0.0,,0.0,,0.0,0.0,0.0,0.0,0.0,0.0,monload-611_runway,,,,,,,,2.4,,,0.0
142,0.0,,0.0,,0.0,0.0,0.0,0.0,0.0,0.0,monload-611_runway,,,,,,,,2.4,,,0.0
143,0.0,,0.0,,0.0,0.0,0.0,0.0,0.0,0.0,monload-611_runway,,,,,,,,2.4,,,0.0
144,0.0,,0.0,,0.0,0.0,0.0,0.0,0.0,0.0,monload-611_runway,,,,,,,,2.4,,,0.0
145,0.0,,0.0,,0.0,0.0,0.0,0.0,0.0,0.0,monload-611_runway,,,,,,,,2.4,,,0.0
146,0.0,,0.0,,0.0,0.0,0.0,0.0,0.0,0.0,monload-611_runway,,,,,,,,2.4,,,0.0
147,0.0,,0.0,,0.0,0.0,0.0,0.0,0.0,0.0,monload-611_runway,,,,,,,,2.4,,,0.0
148,0.0,,0.0,,0.0,0.0,0.0,0.0,0.0,0.0,monload-611_runway,,,,,,,,2.4,,,0.0
149,0.0,,0.0,,0.0,0.0,0.0,0.0,0.0,0.0,monload-611_runway,,,,,,,,2.4,,,0.0
150,0.0,,0.0,,0.0,0.0,0.0,0.0,0.0,0.0,monload-611_runway,,,,,,,,2.4,,,0.0
151,0.0,,0.0,,0.0,0.0,0.0,0.0,0.0,0.0,monload-611_runway,,,,,,,,2.4,,,0.0
152,0.0,,0.0,,0.0,0.0,0.0,0.0,0.0,0.0,monload-611_runway,,,,,,,,2.4,,,0.0
153,0.0,,0.0,,0.0,0.0,0.0,0.0,0.0,0.0,monload-611_runway,,,,,,,,2.4,,,0.0
154,0.0,,0.0,,0.0,0.0,0.0,0.0,0.0,0.0,monload-611_runway,,,,,,,,2.4,,,0.0
155,0.0,,0.0,,0.0,0.0,0.0,0.0,0.0,0.0,monload-611_runway,,,,,,,,2.4,,,0.0
156,0.0,,0.0,,0.0,0.0,0.0,0.0,0.0,0.0,monload-611_runway,,,,,,,,2.4,,,0.0
157,0.0,,0.0,,0.0,0.0,0.0,0.0,0.0,0.0,monload-611_runway,,,,,,,,2.4,,,0.0
158,0.0,,0.0,,0.0,0.0,0.0,0.0,0.0,0.0,monload-611_runway,,,,,,,,2.4,,,0.0
159,0.0,,0.0,,0.0,0.0,0.0,0.0,0.0,0.0,monload-611_runway,,,,,,,,2.4,,,0.0
160,0.0,,0.0,,0.0,0.0,0.0,0.0,0.0,0.0,monload-611_runway,,,,,,,,2.4,,,0.0
161,0.0,,0.0,,0.0,0.0,0.0,0.0,0.0,0.0,monload-611_runway,,,,,,,,2.4,,,0.0
162,0.0,,0.0,,0.0,0.0,0.0,0.0,0.0,0.0,monload-611_runway,,,,,,,,2.4,,,0.0
163,0.0,,0.0,,0.0,0.0,0.0,0.0,0.0,0.0,monload-611_runway,,,,,,,,2.4,,,0.0
164,0.0,,0.0,,0.0,0.0,0.0,0.0,0.0,0.0,monload-611_runway,,,,,,,,2.4,,,0.0
165,0.0,,0.0,,0.0,0.0,0.0,0.0,0.0,0.0,monload-611_runway,,,,,,,,2.4,,,0.0
166,0.0,,0.0,,0.0,0.0,0.0,0.0,0.0,0.0,monload-611_runway,,,,,,,,2.4,,,0.0
167,0.0,,0.0,,0.0,0.0,0.0,0.0,0.0,0.0,monload-611_runway,,,,,,,,2.4,,,0.0
168,0.0,,0.0,,0.0,0.0,0.0,0.0,0.0,0.0,monload-611_runway,,,,,,,,2.4,,,0.0
169,0.0,,0.0,,0.0,0.0,0.0,0.0,0.0,0.0,monload-611_runway,,,,,,,,2.4,,,0.0
170,0.0,,0.0,,0.0,0.0,0.0,0.0,0.0,0.0,monload-611_runway,,,,,,,,2.4,,,0.0
171,0.0,,0.0,,0.0,0.0,0.0,0.0,0.0,0.0,monload-611_runway,,,,,,,,2.4,,,0.0
172,0.0,,0.0,,0.0,0.0,0.0,0.0,0.0,0.0,monload-611_runway,,,,,,,,2.4,,,0.0
173,0.0,,0.0,,0.0,0.0,0.0,0.0,0.0,0.0,monload-611_runway,,,,,,,,2.4,,,0.0
174,0.0,,0.0,,0.0,0.0,0.0,0.0,0.0,0.0,monload-611_runway,,,,,,,,2.4,,,0.0
175,0.0,,0.0,,0.0,0.0,0.0,0.0,0.0,0.0,monload-611_runway,,,,,,,,2.4,,,0.0
176,0.0,,0.0,,0.0,0.0,0.0,0.0,0.0,0.0,monload-611_runway,,,,,,,,2.4,,,0.0
177,0.0,,0.0,,0.0,0.0,0.0,0.0,0.0,0.0,monload-611_runway,,,,,,,,2.4,,,0.0
178,0.0,,0.0,,0.0,0.0,0.0,0.0,0.0,0.0,monload-611_runway,,,,,,,,2.4,,,0.0
179,0.0,,0.0,,0.0,0.0,0.0,0.0,0.0,0.0,monload-611_runway,,,,,,,,2.4,,,0.0
180,0.0,,110.62299999999999,,0.0,38.1499,110.624,38.1499,-69.3764,2385.67,monload-611_runway,,,,,,,,2.4,,,0.9940291666666667
181,0.0,,112.66,,0.0,38.4204,112.665,38.4204,-67.3353,2473.91,monload-611_runway,,,,,,,,2.4,,,1.0307958333333334
182,0.0,,113.195,,0.0,39.8211,113.195,39.8211,-66.8054,2501.06,monload-611_runway,,,,,,,,2.4,,,1.0421083333333334
183,0.0,,112.193,,0.0,41.1387,112.195,41.1387,-67.8054,2451.32,monload-611_runway,,,,,,,,2.4,,,1.0213833333333333
184,0.0,,110.896,,0.0,40.2542,110.897,40.2542,-69.10300000000001,2385.65,monload-611_runway,,,,,,,,2.4,,,0.9940208333333334
185,0.0,,110.05799999999999,,0.0,39.4232,110.05799999999999,39.4232,-69.942,2341.21,monload-611_runway,,,,,,,,2.4,,,0.9755041666666667
186,0.0,,109.375,,0.0,41.61,109.37100000000001,41.61,-70.6291,2319.13,monload-611_runway,,,,,,,,2.4,,,0.9663041666666667
187,0.0,,109.295,,0.0,50.661,109.296,50.661,-70.7044,2315.25,monload-611_runway,,,,,,,,2.4,,,0.9646875
188,0.0,,109.485,,0.0,50.93600000000001,109.48299999999999,50.93600000000001,-70.5171,2324.81,monload-611_runway,,,,,,,,2.4,,,0.9686708333333333
189,0.0,,109.699,,0.0,52.3523,109.696,52.3523,-70.3035,2335.3,monload-611_runway,,,,,,,,2.4,,,0.9730416666666667
190,0.0,,109.9,,0.0,50.5692,109.897,50.5692,-70.1027,2345.3,monload-611_runway,,,,,,,,2.4,,,0.9772083333333335
191,0.0,,110.434,,0.0,39.6945,110.434,39.6945,-69.5663,2370.85,monload-611_runway,,,,,,,,2.4,,,0.9878541666666666
192,0.0,,110.866,,0.0,26.4536,110.859,26.4536,-69.1408,2391.06,monload-611_runway,,,,,,,,2.4,,,0.996275
193,0.0,,111.035,,0.0,21.0984,111.03200000000001,21.0984,-68.9681,2399.11,monload-611_runway,,,,,,,,2.4,,,0.9996291666666667
194,0.0,,111.066,,0.0,19.0118,111.06200000000001,19.0118,-68.9383,2400.55,monload-611_runway,,,,,,,,2.4,,,1.0002291666666667
195,0.0,,111.08,,0.0,17.1605,111.07799999999999,17.1605,-68.9218,2401.17,monload-611_runway,,,,,,,,2.4,,,1.0004875
196,0.0,,111.057,,0.0,16.8089,111.06,16.8089,-68.94,2400.06,monload-611_runway,,,,,,,,2.4,,,1.000025
197,0.0,,110.34200000000001,,0.0,17.2796,110.34299999999999,17.2796,-69.657,2366.5,monload-611_runway,,,,,,,,2.4,,,0.9860416666666667
198,0.0,,110.155,,0.0,20.6862,110.15799999999999,20.6862,-69.8425,2357.47,monload-611_runway,,,,,,,,2.4,,,0.9822791666666666
199,0.0,,108.458,,0.0,33.2049,108.458,33.2049,-71.5416,2276.61,monload-611_runway,,,,,,,,2.4,,,0.9485875
200,0.0,,107.79700000000001,,0.0,36.0055,107.796,36.0055,-72.2038,2259.19,monload-611_runway,,,,,,,,2.4,,,0.9413291666666667
201,0.0,,109.179,,0.0,33.1764,109.178,33.1764,-70.8222,2335.02,monload-611_runway,,,,,,,,2.4,,,0.972925
202,0.0,,111.416,,0.0,35.1894,111.417,35.1894,-68.5826,2421.8,monload-611_runway,,,,,,,,2.4,,,1.0090833333333333
203,0.0,,109.24700000000001,,0.0,30.9635,109.245,30.9635,-70.7551,2325.29,monload-611_runway,,,,,,,,2.4,,,0.9688708333333333
204,0.0,,111.831,,0.0,34.0175,111.833,34.0175,-68.1673,2442.83,monload-611_runway,,,,,,,,2.4,,,1.0178458333333333
205,0.0,,110.55799999999999,,0.0,36.5232,110.559,36.5232,-69.4411,2378.18,monload-611_runway,,,,,,,,2.4,,,0.9909083333333333
206,0.0,,108.32600000000001,,0.0,37.92,108.32600000000001,37.92,-71.6739,2277.28,monload-611_runway,,,,,,,,2.4,,,0.9488666666666667
207,0.0,,108.604,,0.0,38.9807,108.602,38.9807,-71.3975,2292.45,monload-611_runway,,,,,,,,2.4,,,0.9551875
208,0.0,,108.335,,0.0,36.547,108.334,36.547,-71.6662,2278.06,monload-611_runway,,,,,,,,2.4,,,0.9491916666666667
209,0.0,,107.656,,0.0,35.8051,107.656,35.8051,-72.3442,2255.12,monload-611_runway,,,,,,,,2.4,,,0.9396333333333333
210,0.0,,107.44,,0.0,40.0751,107.441,40.0751,-72.5592,2241.67,monload-611_runway,,,,,,,,2.4,,,0.9340291666666667
211,0.0,,108.21700000000001,,0.0,46.4963,108.21600000000001,46.4963,-71.7839,2278.18,monload-611_runway,,,,,,,,2.4,,,0.9492416666666667
212,0.0,,108.236,,0.0,48.3867,108.236,48.3867,-71.7642,2279.51,monload-611_runway,,,,,,,,2.4,,,0.9497958333333334
213,0.0,,108.92200000000001,,0.0,52.3358,108.92,52.3358,-71.0795,2312.99,monload-611_runway,,,,,,,,2.4,,,0.9637458333333332
214,0.0,,109.205,,0.0,49.8536,109.199,49.8536,-70.8013,2327.05,monload-611_runway,,,,,,,,2.4,,,0.9696041666666667
