hour,t(sec),V1,VAngle1,V2,VAngle2,V3,VAngle3,I1,IAngle1,I2,IAngle2,I3,IAngle3,Name,P1(kW),P2(kW),P3(kW)
1,0.0,277.128,1.93668e-08,,,,,0.0,0.0,,,,,monvsource-lead_gen_634_1,0.0,,
2,0.0,277.128,1.93668e-08,,,,,0.0,0.0,,,,,monvsource-lead_gen_634_1,0.0,,
3,0.0,277.128,1.93668e-08,,,,,0.0,0.0,,,,,monvsource-lead_gen_634_1,0.0,,
4,0.0,277.128,1.93668e-08,,,,,0.0,0.0,,,,,monvsource-lead_gen_634_1,0.0,,
5,0.0,277.128,1.93668e-08,,,,,0.0,0.0,,,,,monvsource-lead_gen_634_1,0.0,,
6,0.0,277.128,1.93668e-08,,,,,0.0,0.0,,,,,monvsource-lead_gen_634_1,0.0,,
7,0.0,277.128,1.93668e-08,,,,,0.0,0.0,,,,,monvsource-lead_gen_634_1,0.0,,
8,0.0,277.128,1.93668e-08,,,,,0.0,0.0,,,,,monvsource-lead_gen_634_1,0.0,,
9,0.0,277.128,1.93668e-08,,,,,0.0,0.0,,,,,monvsource-lead_gen_634_1,0.0,,
10,0.0,277.128,1.93668e-08,,,,,0.0,0.0,,,,,monvsource-lead_gen_634_1,0.0,,
11,0.0,277.128,1.93668e-08,,,,,0.0,0.0,,,,,monvsource-lead_gen_634_1,0.0,,
12,0.0,277.128,1.93668e-08,,,,,0.0,0.0,,,,,monvsource-lead_gen_634_1,0.0,,
13,0.0,277.128,1.93668e-08,,,,,0.0,0.0,,,,,monvsource-lead_gen_634_1,0.0,,
14,0.0,277.128,1.93668e-08,,,,,0.0,0.0,,,,,monvsource-lead_gen_634_1,0.0,,
15,0.0,277.128,1.93668e-08,,,,,0.0,0.0,,,,,monvsource-lead_gen_634_1,0.0,,
16,0.0,277.128,1.93668e-08,,,,,0.0,0.0,,,,,monvsource-lead_gen_634_1,0.0,,
17,0.0,277.128,1.93668e-08,,,,,0.0,0.0,,,,,monvsource-lead_gen_634_1,0.0,,
18,0.0,277.128,1.93668e-08,,,,,0.0,0.0,,,,,monvsource-lead_gen_634_1,0.0,,
19,0.0,277.128,1.93668e-08,,,,,0.0,0.0,,,,,monvsource-lead_gen_634_1,0.0,,
20,0.0,277.128,1.93668e-08,,,,,0.0,0.0,,,,,monvsource-lead_gen_634_1,0.0,,
21,0.0,277.128,1.93668e-08,,,,,0.0,0.0,,,,,monvsource-lead_gen_634_1,0.0,,
22,0.0,277.128,1.93668e-08,,,,,0.0,0.0,,,,,monvsource-lead_gen_634_1,0.0,,
23,0.0,277.128,1.93668e-08,,,,,0.0,0.0,,,,,monvsource-lead_gen_634_1,0.0,,
24,0.0,277.128,1.93668e-08,,,,,0.0,0.0,,,,,monvsource-lead_gen_634_1,0.0,,
25,0.0,277.128,1.93668e-08,,,,,0.0,0.0,,,,,monvsource-lead_gen_634_1,0.0,,
26,0.0,277.128,1.93668e-08,,,,,0.0,0.0,,,,,monvsource-lead_gen_634_1,0.0,,
27,0.0,277.128,1.93668e-08,,,,,0.0,0.0,,,,,monvsource-lead_gen_634_1,0.0,,
28,0.0,277.128,1.93668e-08,,,,,0.0,0.0,,,,,monvsource-lead_gen_634_1,0.0,,
29,0.0,277.128,1.93668e-08,,,,,0.0,0.0,,,,,monvsource-lead_gen_634_1,0.0,,
30,0.0,277.128,1.93668e-08,,,,,0.0,0.0,,,,,monvsource-lead_gen_634_1,0.0,,
31,0.0,277.128,1.93668e-08,,,,,0.0,0.0,,,,,monvsource-lead_gen_634_1,0.0,,
32,0.0,277.128,1.93668e-08,,,,,0.0,0.0,,,,,monvsource-lead_gen_634_1,0.0,,
33,0.0,277.128,1.93668e-08,,,,,0.0,0.0,,,,,monvsource-lead_gen_634_1,0.0,,
34,0.0,277.128,1.93668e-08,,,,,0.0,0.0,,,,,monvsource-lead_gen_634_1,0.0,,
35,0.0,277.128,1.93668e-08,,,,,0.0,0.0,,,,,monvsource-lead_gen_634_1,0.0,,
36,0.0,277.128,1.93668e-08,,,,,0.0,0.0,,,,,monvsource-lead_gen_634_1,0.0,,
37,0.0,277.128,1.93668e-08,,,,,0.0,0.0,,,,,monvsource-lead_gen_634_1,0.0,,
38,0.0,277.128,1.93668e-08,,,,,0.0,0.0,,,,,monvsource-lead_gen_634_1,0.0,,
39,0.0,277.128,1.93668e-08,,,,,0.0,0.0,,,,,monvsource-lead_gen_634_1,0.0,,
40,0.0,277.128,1.93668e-08,,,,,0.0,0.0,,,,,monvsource-lead_gen_634_1,0.0,,
41,0.0,277.128,1.93668e-08,,,,,0.0,0.0,,,,,monvsource-lead_gen_634_1,0.0,,
42,0.0,277.128,1.93668e-08,,,,,0.0,0.0,,,,,monvsource-lead_gen_634_1,0.0,,
43,0.0,277.128,1.93668e-08,,,,,0.0,0.0,,,,,monvsource-lead_gen_634_1,0.0,,
44,0.0,277.128,1.93668e-08,,,,,0.0,0.0,,,,,monvsource-lead_gen_634_1,0.0,,
45,0.0,277.128,1.93668e-08,,,,,0.0,0.0,,,,,monvsource-lead_gen_634_1,0.0,,
46,0.0,277.128,1.93668e-08,,,,,0.0,0.0,,,,,monvsource-lead_gen_634_1,0.0,,
47,0.0,277.128,1.93668e-08,,,,,0.0,0.0,,,,,monvsource-lead_gen_634_1,0.0,,
48,0.0,277.128,1.93668e-08,,,,,0.0,0.0,,,,,monvsource-lead_gen_634_1,0.0,,
49,0.0,277.128,1.93668e-08,,,,,0.0,0.0,,,,,monvsource-lead_gen_634_1,0.0,,
50,0.0,277.128,1.93668e-08,,,,,0.0,0.0,,,,,monvsource-lead_gen_634_1,0.0,,
51,0.0,277.128,1.93668e-08,,,,,0.0,0.0,,,,,monvsource-lead_gen_634_1,0.0,,
52,0.0,277.128,1.93668e-08,,,,,0.0,0.0,,,,,monvsource-lead_gen_634_1,0.0,,
53,0.0,277.128,1.93668e-08,,,,,0.0,0.0,,,,,monvsource-lead_gen_634_1,0.0,,
54,0.0,277.128,1.93668e-08,,,,,0.0,0.0,,,,,monvsource-lead_gen_634_1,0.0,,
55,0.0,277.128,1.93668e-08,,,,,0.0,0.0,,,,,monvsource-lead_gen_634_1,0.0,,
56,0.0,277.128,1.93668e-08,,,,,0.0,0.0,,,,,monvsource-lead_gen_634_1,0.0,,
57,0.0,277.128,1.93668e-08,,,,,0.0,0.0,,,,,monvsource-lead_gen_634_1,0.0,,
58,0.0,277.128,1.93668e-08,,,,,0.0,0.0,,,,,monvsource-lead_gen_634_1,0.0,,
59,0.0,277.128,1.93668e-08,,,,,0.0,0.0,,,,,monvsource-lead_gen_634_1,0.0,,
60,0.0,277.123,-0.0034908,,,,,479.007,179.897,,,,,monvsource-lead_gen_634_1,132.743856861,,
61,0.0,277.124,-0.00328025,,,,,450.103,179.904,,,,,monvsource-lead_gen_634_1,124.734343772,,
62,0.0,277.124,-0.00322438,,,,,442.433,179.905,,,,,monvsource-lead_gen_634_1,122.60880269200001,,
63,0.0,277.122,-0.00438285,,,,,601.486,179.871,,,,,monvsource-lead_gen_634_1,166.685003292,,
64,0.0,277.121,-0.00506341,,,,,694.948,179.851,,,,,monvsource-lead_gen_634_1,192.584684708,,
65,0.0,277.123,-0.0037582,,,,,515.718,179.89,,,,,monvsource-lead_gen_634_1,142.917319314,,
66,0.0,277.121,-0.00509322,,,,,699.043,179.85,,,,,monvsource-lead_gen_634_1,193.719495203,,
67,0.0,277.121,-0.00505474,,,,,693.758,179.851,,,,,monvsource-lead_gen_634_1,192.254910718,,
68,0.0,277.122,-0.00468042,,,,,642.35,179.862,,,,,monvsource-lead_gen_634_1,178.00931670000003,,
69,0.0,277.123,-0.00411617,,,,,564.868,179.879,,,,,monvsource-lead_gen_634_1,156.53791476400002,,
70,0.0,277.124,-0.00277764,,,,,381.11,179.919,,,,,monvsource-lead_gen_634_1,105.61472764000001,,
71,0.0,277.126,-0.00170652,,,,,234.112,179.95,,,,,monvsource-lead_gen_634_1,64.87852211199998,,
72,0.0,277.125,-0.00232731,,,,,319.303,179.931,,,,,monvsource-lead_gen_634_1,88.486843875,,
73,0.0,277.126,-0.00181345,,,,,248.785,179.947,,,,,monvsource-lead_gen_634_1,68.94479191,,
74,0.0,277.126,-0.00168134,,,,,230.658,179.951,,,,,monvsource-lead_gen_634_1,63.921328907999985,,
75,0.0,277.126,-0.00170595,,,,,234.034,179.95,,,,,monvsource-lead_gen_634_1,64.85690628399999,,
76,0.0,277.126,-0.00172998,,,,,237.331,179.949,,,,,monvsource-lead_gen_634_1,65.770590706,,
77,0.0,277.126,-0.00187621,,,,,257.398,179.945,,,,,monvsource-lead_gen_634_1,71.33167814800001,,
78,0.0,277.126,-0.00189522,,,,,260.007,179.944,,,,,monvsource-lead_gen_634_1,72.054699882,,
79,0.0,277.124,-0.00289145,,,,,396.732,179.915,,,,,monvsource-lead_gen_634_1,109.94395876800002,,
80,0.0,277.124,-0.00278538,,,,,382.173,179.918,,,,,monvsource-lead_gen_634_1,105.909310452,,
81,0.0,277.125,-0.00206677,,,,,283.547,179.939,,,,,monvsource-lead_gen_634_1,78.577962375,,
82,0.0,277.128,0.000170783,,,,,23.4187,0.0191522,,,,,monvsource-lead_gen_634_1,6.4899774936000005,,
83,0.0,277.135,0.00485487,,,,,665.423,0.142526,,,,,monvsource-lead_gen_634_1,184.41200310499997,,
84,0.0,277.136,0.00598674,,,,,820.437,0.175665,,,,,monvsource-lead_gen_634_1,227.37262843200003,,
85,0.0,277.136,0.00598677,,,,,820.44,0.175649,,,,,monvsource-lead_gen_634_1,227.37345984000004,,
86,0.0,277.136,0.00598678,,,,,820.442,0.17565,,,,,monvsource-lead_gen_634_1,227.37401411200003,,
87,0.0,277.129,0.000947163,,,,,129.887,0.0280665,,,,,monvsource-lead_gen_634_1,35.995454423000005,,
88,0.0,277.128,6.6634e-09,,,,,0.00224856,-122.99,,,,,monvsource-lead_gen_634_1,0.00062313893568,,
89,0.0,277.122,-0.00457958,,,,,628.502,179.866,,,,,monvsource-lead_gen_634_1,174.171731244,,
90,0.0,277.117,-0.00821225,,,,,1127.61,179.759,,,,,monvsource-lead_gen_634_1,312.47990037,,
91,0.0,277.116,-0.00873708,,,,,1199.76,179.743,,,,,monvsource-lead_gen_634_1,332.47269215999995,,
92,0.0,277.117,-0.00856765,,,,,1176.47,179.748,,,,,monvsource-lead_gen_634_1,326.01983699000004,,
93,0.0,277.12,-0.00621378,,,,,852.97,179.817,,,,,monvsource-lead_gen_634_1,236.37504640000003,,
94,0.0,277.123,-0.0035431,,,,,486.187,179.896,,,,,monvsource-lead_gen_634_1,134.73360000099999,,
95,0.0,277.125,-0.00238221,,,,,326.838,179.93,,,,,monvsource-lead_gen_634_1,90.57498075000001,,
96,0.0,277.124,-0.0029384,,,,,403.176,179.914,,,,,monvsource-lead_gen_634_1,111.729745824,,
97,0.0,277.125,-0.00258013,,,,,354.002,179.924,,,,,monvsource-lead_gen_634_1,98.10280425,,
98,0.0,277.125,-0.00240372,,,,,329.789,179.929,,,,,monvsource-lead_gen_634_1,91.392776625,,
99,0.0,277.125,-0.00240523,,,,,329.997,179.929,,,,,monvsource-lead_gen_634_1,91.45041862500001,,
100,0.0,277.125,-0.0024026,,,,,329.636,179.929,,,,,monvsource-lead_gen_634_1,91.35037650000001,,
101,0.0,277.125,-0.00255158,,,,,350.084,179.925,,,,,monvsource-lead_gen_634_1,97.0170285,,
102,0.0,277.125,-0.0025517,,,,,350.1,179.925,,,,,monvsource-lead_gen_634_1,97.02146250000001,,
103,0.0,277.123,-0.00357476,,,,,490.534,179.895,,,,,monvsource-lead_gen_634_1,135.93825368199998,,
104,0.0,277.123,-0.00363773,,,,,499.179,179.893,,,,,monvsource-lead_gen_634_1,138.333982017,,
105,0.0,277.124,-0.00273718,,,,,375.557,179.92,,,,,monvsource-lead_gen_634_1,104.07585806800002,,
106,0.0,277.127,-0.000581257,,,,,79.7302,179.984,,,,,monvsource-lead_gen_634_1,22.0953911354,,
107,0.0,277.133,0.00344175,,,,,471.825,0.101498,,,,,monvsource-lead_gen_634_1,130.758277725,,
108,0.0,277.136,0.00567052,,,,,777.134,0.166433,,,,,monvsource-lead_gen_634_1,215.37180822400003,,
109,0.0,277.136,0.00598676,,,,,820.439,0.175648,,,,,monvsource-lead_gen_634_1,227.37318270400002,,
110,0.0,277.136,0.00598677,,,,,820.441,0.175649,,,,,monvsource-lead_gen_634_1,227.373736976,,
111,0.0,277.133,0.00386045,,,,,529.195,0.113544,,,,,monvsource-lead_gen_634_1,146.657397935,,
112,0.0,277.128,4.7165e-05,,,,,6.46599,0.00671217,,,,,monvsource-lead_gen_634_1,1.79190687672,,
113,0.0,277.12,-0.00578664,,,,,794.29,179.83,,,,,monvsource-lead_gen_634_1,220.11364479999997,,
114,0.0,277.116,-0.00879424,,,,,1207.62,179.742,,,,,monvsource-lead_gen_634_1,334.65082391999994,,
115,0.0,277.116,-0.00918748,,,,,1261.69,179.73,,,,,monvsource-lead_gen_634_1,349.63448604,,
116,0.0,277.116,-0.00899982,,,,,1235.89,179.735,,,,,monvsource-lead_gen_634_1,342.48489324,,
117,0.0,277.12,-0.00611291,,,,,839.111,179.821,,,,,monvsource-lead_gen_634_1,232.53444032,,
118,0.0,277.123,-0.00379115,,,,,520.242,179.889,,,,,monvsource-lead_gen_634_1,144.171023766,,
119,0.0,277.125,-0.0025127,,,,,344.746,179.926,,,,,monvsource-lead_gen_634_1,95.53773525,,
120,0.0,277.124,-0.00302554,,,,,415.137,179.911,,,,,monvsource-lead_gen_634_1,115.044425988,,
121,0.0,277.125,-0.00268188,,,,,367.967,179.921,,,,,monvsource-lead_gen_634_1,101.972854875,,
122,0.0,277.125,-0.00250908,,,,,344.249,179.926,,,,,monvsource-lead_gen_634_1,95.40000412500001,,
123,0.0,277.125,-0.00248913,,,,,341.512,179.927,,,,,monvsource-lead_gen_634_1,94.641513,,
124,0.0,277.125,-0.00248011,,,,,340.274,179.927,,,,,monvsource-lead_gen_634_1,94.29843225,,
125,0.0,277.124,-0.00298665,,,,,409.799,179.912,,,,,monvsource-lead_gen_634_1,113.565138076,,
126,0.0,277.124,-0.00298793,,,,,409.975,179.912,,,,,monvsource-lead_gen_634_1,113.61391190000002,,
127,0.0,277.123,-0.00407159,,,,,558.746,179.88,,,,,monvsource-lead_gen_634_1,154.841367758,,
128,0.0,277.123,-0.00398575,,,,,546.961,179.883,,,,,monvsource-lead_gen_634_1,151.575473203,,
129,0.0,277.124,-0.00342372,,,,,469.798,179.899,,,,,monvsource-lead_gen_634_1,130.192300952,,
130,0.0,277.126,-0.00167321,,,,,229.542,179.951,,,,,monvsource-lead_gen_634_1,63.61205629199999,,
131,0.0,277.131,0.00207016,,,,,283.846,0.0617657,,,,,monvsource-lead_gen_634_1,78.66252582599999,,
132,0.0,277.128,-0.00021923,,,,,30.0707,-179.999,,,,,monvsource-lead_gen_634_1,8.333432949599999,,
133,0.0,277.13,0.00145948,,,,,200.13,0.0441822,,,,,monvsource-lead_gen_634_1,55.4620269,,
134,0.0,277.131,0.00182782,,,,,250.628,0.0537398,,,,,monvsource-lead_gen_634_1,69.45678826799998,,
135,0.0,277.131,0.00224052,,,,,307.199,0.0658348,,,,,monvsource-lead_gen_634_1,85.134366069,,
136,0.0,277.126,-0.00127411,,,,,174.78,179.964,,,,,monvsource-lead_gen_634_1,48.436082279999994,,
137,0.0,277.12,-0.00628323,,,,,862.511,179.815,,,,,monvsource-lead_gen_634_1,239.01904832,,
138,0.0,277.12,-0.00599909,,,,,823.474,179.824,,,,,monvsource-lead_gen_634_1,228.20111488,,
139,0.0,277.12,-0.00626925,,,,,860.591,179.816,,,,,monvsource-lead_gen_634_1,238.48697792000002,,
140,0.0,277.12,-0.00591294,,,,,811.64,179.826,,,,,monvsource-lead_gen_634_1,224.9216768,,
141,0.0,277.121,-0.005411,,,,,742.69,179.841,,,,,monvsource-lead_gen_634_1,205.81499549,,
142,0.0,277.123,-0.00358558,,,,,492.019,179.895,,,,,monvsource-lead_gen_634_1,136.349781337,,
143,0.0,277.125,-0.00236415,,,,,324.359,179.931,,,,,monvsource-lead_gen_634_1,89.887987875,,
144,0.0,277.124,-0.00288391,,,,,395.697,179.915,,,,,monvsource-lead_gen_634_1,109.657135428,,
145,0.0,277.125,-0.00244221,,,,,335.072,179.928,,,,,monvsource-lead_gen_634_1,92.856828,,
146,0.0,277.125,-0.00227129,,,,,311.615,179.933,,,,,monvsource-lead_gen_634_1,86.35630687500002,,
147,0.0,277.125,-0.00226832,,,,,311.208,179.933,,,,,monvsource-lead_gen_634_1,86.24351700000001,,
148,0.0,277.125,-0.00226682,,,,,311.001,179.933,,,,,monvsource-lead_gen_634_1,86.18615212499999,,
149,0.0,277.125,-0.00240208,,,,,329.565,179.929,,,,,monvsource-lead_gen_634_1,91.33070062499999,,
150,0.0,277.125,-0.00239307,,,,,328.328,179.93,,,,,monvsource-lead_gen_634_1,90.987897,,
151,0.0,277.124,-0.00308585,,,,,423.417,179.909,,,,,monvsource-lead_gen_634_1,117.33901270800001,,
152,0.0,277.124,-0.00308978,,,,,423.956,179.909,,,,,monvsource-lead_gen_634_1,117.48838254400002,,
153,0.0,277.125,-0.00232898,,,,,319.532,179.932,,,,,monvsource-lead_gen_634_1,88.55030550000001,,
154,0.0,277.124,-0.00304504,,,,,417.815,179.91,,,,,monvsource-lead_gen_634_1,115.78656406,,
155,0.0,277.132,0.00297647,,,,,408.065,0.08816,,,,,monvsource-lead_gen_634_1,113.08786958,,
156,0.0,277.134,0.00415204,,,,,569.145,0.121867,,,,,monvsource-lead_gen_634_1,157.72943043,,
157,0.0,277.132,0.00279034,,,,,382.558,0.0820748,,,,,monvsource-lead_gen_634_1,106.019063656,,
158,0.0,277.131,0.00215771,,,,,295.849,0.0635253,,,,,monvsource-lead_gen_634_1,81.98892921899998,,
159,0.0,277.128,9.55323e-05,,,,,13.0998,0.00167955,,,,,monvsource-lead_gen_634_1,3.6303213744,,
160,0.0,277.12,-0.0057433,,,,,788.336,179.831,,,,,monvsource-lead_gen_634_1,218.46367232,,
161,0.0,277.118,-0.00735114,,,,,1009.25,179.784,,,,,monvsource-lead_gen_634_1,279.6813415,,
162,0.0,277.12,-0.00612394,,,,,840.627,179.82,,,,,monvsource-lead_gen_634_1,232.95455424,,
163,0.0,277.121,-0.00550254,,,,,755.265,179.838,,,,,monvsource-lead_gen_634_1,209.299792065,,
164,0.0,277.122,-0.00462308,,,,,634.476,179.864,,,,,monvsource-lead_gen_634_1,175.827258072,,
165,0.0,277.122,-0.00435935,,,,,598.26,179.872,,,,,monvsource-lead_gen_634_1,165.79100771999998,,
166,0.0,277.124,-0.00320914,,,,,440.34,179.906,,,,,monvsource-lead_gen_634_1,122.02878216,,
167,0.0,277.125,-0.00234702,,,,,322.007,179.931,,,,,monvsource-lead_gen_634_1,89.236189875,,
168,0.0,277.124,-0.00288799,,,,,396.257,179.915,,,,,monvsource-lead_gen_634_1,109.812324868,,
169,0.0,277.125,-0.00249563,,,,,342.404,179.927,,,,,monvsource-lead_gen_634_1,94.88870849999999,,
170,0.0,277.125,-0.00231187,,,,,317.184,179.932,,,,,monvsource-lead_gen_634_1,87.89961600000001,,
171,0.0,277.125,-0.00230895,,,,,316.783,179.932,,,,,monvsource-lead_gen_634_1,87.78848887500001,,
172,0.0,277.125,-0.00231358,,,,,317.419,179.932,,,,,monvsource-lead_gen_634_1,87.96474037499999,,
173,0.0,277.125,-0.00246056,,,,,337.59,179.928,,,,,monvsource-lead_gen_634_1,93.55462874999999,,
174,0.0,277.125,-0.00245119,,,,,336.305,179.928,,,,,monvsource-lead_gen_634_1,93.19852312500001,,
175,0.0,277.124,-0.00313381,,,,,430.0,179.908,,,,,monvsource-lead_gen_634_1,119.16332000000001,,
176,0.0,277.124,-0.00313501,,,,,430.165,179.908,,,,,monvsource-lead_gen_634_1,119.20904546000003,,
177,0.0,277.126,-0.00172183,,,,,236.214,179.949,,,,,monvsource-lead_gen_634_1,65.46104096399999,,
178,0.0,277.132,0.00262297,,,,,359.618,0.0775682,,,,,monvsource-lead_gen_634_1,99.661655576,,
179,0.0,277.122,-0.00448082,,,,,614.938,179.869,,,,,monvsource-lead_gen_634_1,170.412848436,,
180,0.0,277.128,1.93668e-08,,,,,0.0,0.0,,,,,monvsource-lead_gen_634_1,0.0,,
181,0.0,277.128,1.93668e-08,,,,,0.0,0.0,,,,,monvsource-lead_gen_634_1,0.0,,
182,0.0,277.128,1.93668e-08,,,,,0.0,0.0,,,,,monvsource-lead_gen_634_1,0.0,,
183,0.0,277.128,1.93668e-08,,,,,0.0,0.0,,,,,monvsource-lead_gen_634_1,0.0,,
184,0.0,277.128,1.93668e-08,,,,,0.0,0.0,,,,,monvsource-lead_gen_634_1,0.0,,
185,0.0,277.128,1.93668e-08,,,,,0.0,0.0,,,,,monvsource-lead_gen_634_1,0.0,,
186,0.0,277.128,1.93668e-08,,,,,0.0,0.0,,,,,monvsource-lead_gen_634_1,0.0,,
187,0.0,277.128,1.93668e-08,,,,,0.0,0.0,,,,,monvsource-lead_gen_634_1,0.0,,
188,0.0,277.128,1.93668e-08,,,,,0.0,0.0,,,,,monvsource-lead_gen_634_1,0.0,,
189,0.0,277.128,1.93668e-08,,,,,0.0,0.0,,,,,monvsource-lead_gen_634_1,0.0,,
190,0.0,277.128,1.93668e-08,,,,,0.0,0.0,,,,,monvsource-lead_gen_634_1,0.0,,
191,0.0,277.128,1.93668e-08,,,,,0.0,0.0,,,,,monvsource-lead_gen_634_1,0.0,,
192,0.0,277.128,1.93668e-08,,,,,0.0,0.0,,,,,monvsource-lead_gen_634_1,0.0,,
193,0.0,277.128,1.93668e-08,,,,,0.0,0.0,,,,,monvsource-lead_gen_634_1,0.0,,
194,0.0,277.128,1.93668e-08,,,,,0.0,0.0,,,,,monvsource-lead_gen_634_1,0.0,,
195,0.0,277.128,1.93668e-08,,,,,0.0,0.0,,,,,monvsource-lead_gen_634_1,0.0,,
196,0.0,277.128,1.93668e-08,,,,,0.0,0.0,,,,,monvsource-lead_gen_634_1,0.0,,
197,0.0,277.128,1.93668e-08,,,,,0.0,0.0,,,,,monvsource-lead_gen_634_1,0.0,,
198,0.0,277.128,1.93668e-08,,,,,0.0,0.0,,,,,monvsource-lead_gen_634_1,0.0,,
199,0.0,277.128,1.93668e-08,,,,,0.0,0.0,,,,,monvsource-lead_gen_634_1,0.0,,
200,0.0,277.128,1.93668e-08,,,,,0.0,0.0,,,,,monvsource-lead_gen_634_1,0.0,,
201,0.0,277.128,1.93668e-08,,,,,0.0,0.0,,,,,monvsource-lead_gen_634_1,0.0,,
202,0.0,277.128,1.93668e-08,,,,,0.0,0.0,,,,,monvsource-lead_gen_634_1,0.0,,
203,0.0,277.128,1.93668e-08,,,,,0.0,0.0,,,,,monvsource-lead_gen_634_1,0.0,,
204,0.0,277.128,1.93668e-08,,,,,0.0,0.0,,,,,monvsource-lead_gen_634_1,0.0,,
205,0.0,277.128,1.93668e-08,,,,,0.0,0.0,,,,,monvsource-lead_gen_634_1,0.0,,
206,0.0,277.128,1.93668e-08,,,,,0.0,0.0,,,,,monvsource-lead_gen_634_1,0.0,,
207,0.0,277.128,1.93668e-08,,,,,0.0,0.0,,,,,monvsource-lead_gen_634_1,0.0,,
208,0.0,277.128,1.93668e-08,,,,,0.0,0.0,,,,,monvsource-lead_gen_634_1,0.0,,
209,0.0,277.128,1.93668e-08,,,,,0.0,0.0,,,,,monvsource-lead_gen_634_1,0.0,,
210,0.0,277.128,1.93668e-08,,,,,0.0,0.0,,,,,monvsource-lead_gen_634_1,0.0,,
211,0.0,277.128,1.93668e-08,,,,,0.0,0.0,,,,,monvsource-lead_gen_634_1,0.0,,
212,0.0,277.128,1.93668e-08,,,,,0.0,0.0,,,,,monvsource-lead_gen_634_1,0.0,,
213,0.0,277.128,1.93668e-08,,,,,0.0,0.0,,,,,monvsource-lead_gen_634_1,0.0,,
214,0.0,277.128,1.93668e-08,,,,,0.0,0.0,,,,,monvsource-lead_gen_634_1,0.0,,
215,0.0,277.128,1.93668e-08,,,,,0.0,0.0,,,,,monvsource-lead_gen_634_1,0.0,,
216,0.0,277.128,1.93668e-08,,,,,0.0,0.0,,,,,monvsource-lead_gen_634_1,0.0,,
217,0.0,277.128,1.93668e-08,,,,,0.0,0.0,,,,,monvsource-lead_gen_634_1,0.0,,
218,0.0,277.128,1.93668e-08,,,,,0.0,0.0,,,,,monvsource-lead_gen_634_1,0.0,,
219,0.0,277.128,1.93668e-08,,,,,0.0,0.0,,,,,monvsource-lead_gen_634_1,0.0,,
220,0.0,277.128,1.93668e-08,,,,,0.0,0.0,,,,,monvsource-lead_gen_634_1,0.0,,
221,0.0,277.128,1.93668e-08,,,,,0.0,0.0,,,,,monvsource-lead_gen_634_1,0.0,,
222,0.0,277.128,1.93668e-08,,,,,0.0,0.0,,,,,monvsource-lead_gen_634_1,0.0,,
223,0.0,277.128,1.93668e-08,,,,,0.0,0.0,,,,,monvsource-lead_gen_634_1,0.0,,
224,0.0,277.128,1.93668e-08,,,,,0.0,0.0,,,,,monvsource-lead_gen_634_1,0.0,,
225,0.0,277.128,1.93668e-08,,,,,0.0,0.0,,,,,monvsource-lead_gen_634_1,0.0,,
226,0.0,277.128,1.93668e-08,,,,,0.0,0.0,,,,,monvsource-lead_gen_634_1,0.0,,
227,0.0,277.128,1.93668e-08,,,,,0.0,0.0,,,,,monvsource-lead_gen_634_1,0.0,,
228,0.0,277.128,1.93668e-08,,,,,0.0,0.0,,,,,monvsource-lead_gen_634_1,0.0,,
229,0.0,277.128,1.93668e-08,,,,,0.0,0.0,,,,,monvsource-lead_gen_634_1,0.0,,
230,0.0,277.128,1.93668e-08,,,,,0.0,0.0,,,,,monvsource-lead_gen_634_1,0.0,,
231,0.0,277.128,1.93668e-08,,,,,0.0,0.0,,,,,monvsource-lead_gen_634_1,0.0,,
232,0.0,277.128,1.93668e-08,,,,,0.0,0.0,,,,,monvsource-lead_gen_634_1,0.0,,
