hour,t(sec),V1,VAngle1,V2,VAngle2,I1,IAngle1,I2,IAngle2,V3,Name,VAngle3,I3,IAngle3,V4,VAngle4,I4,IAngle4,kv,V1(PU),V2(PU),V3(PU)
1,0.0,,114.449,,0.0,20.2518,114.45,20.2518,-65.5497,2356.74,monload-611_runway,,,,,,,,2.4,,,0.9819749999999999
2,0.0,,114.424,,0.0,21.49,114.425,21.49,-65.5745,2355.79,monload-611_runway,,,,,,,,2.4,,,0.9815791666666667
3,0.0,,114.454,,0.0,18.735,114.452,18.735,-65.5483,2357.02,monload-611_runway,,,,,,,,2.4,,,0.9820916666666667
4,0.0,,114.46,,0.0,18.1696,114.46,18.1696,-65.5401,2357.27,monload-611_runway,,,,,,,,2.4,,,0.9821958333333334
5,0.0,,114.266,,0.0,18.3433,114.268,18.3433,-65.7323,2349.46,monload-611_runway,,,,,,,,2.4,,,0.9789416666666667
6,0.0,,114.156,,0.0,19.8621,114.157,19.8621,-65.8434,2344.87,monload-611_runway,,,,,,,,2.4,,,0.9770291666666666
7,0.0,,113.374,,0.0,29.8483,113.375,29.8483,-66.6249,2313.37,monload-611_runway,,,,,,,,2.4,,,0.9639041666666667
8,0.0,,113.404,,0.0,31.8618,113.401,31.8618,-66.5989,2314.6,monload-611_runway,,,,,,,,2.4,,,0.9644166666666666
9,0.0,,116.904,,0.0,44.0268,116.904,44.0268,-63.096,2462.81,monload-611_runway,,,,,,,,2.4,,,1.0261708333333333
10,0.0,,120.519,,0.0,38.8534,120.521,38.8534,-59.4788,2589.17,monload-611_runway,,,,,,,,2.4,,,1.0788208333333333
11,0.0,,121.712,,0.0,27.7611,121.712,27.7611,-58.2882,2618.15,monload-611_runway,,,,,,,,2.4,,,1.0908958333333334
12,0.0,,125.362,,0.0,27.1313,125.363,27.1313,-54.6372,2730.24,monload-611_runway,,,,,,,,2.4,,,1.1376
13,0.0,,126.103,,0.0,27.2828,126.103,27.2828,-53.8967,2754.92,monload-611_runway,,,,,,,,2.4,,,1.1478833333333334
14,0.0,,125.615,,0.0,27.1613,125.615,27.1613,-54.3851,2738.3,monload-611_runway,,,,,,,,2.4,,,1.1409583333333335
15,0.0,,124.048,,0.0,26.5546,124.049,26.5546,-55.9513,2684.45,monload-611_runway,,,,,,,,2.4,,,1.1185208333333332
16,0.0,,121.485,,0.0,25.4945,121.486,25.4945,-58.5142,2592.03,monload-611_runway,,,,,,,,2.4,,,1.0800125
17,0.0,,117.582,,0.0,25.989,117.577,25.989,-62.4231,2458.02,monload-611_runway,,,,,,,,2.4,,,1.024175
18,0.0,,113.493,,0.0,31.4301,113.493,31.4301,-66.5072,2318.62,monload-611_runway,,,,,,,,2.4,,,0.9660916666666666
19,0.0,,113.009,,0.0,43.1551,113.01,43.1551,-66.9898,2298.13,monload-611_runway,,,,,,,,2.4,,,0.9575541666666667
20,0.0,,113.009,,0.0,45.3034,113.008,45.3034,-66.9917,2298.16,monload-611_runway,,,,,,,,2.4,,,0.9575666666666666
21,0.0,,113.151,,0.0,47.8087,113.149,47.8087,-66.8506,2303.95,monload-611_runway,,,,,,,,2.4,,,0.9599791666666666
22,0.0,,113.308,,0.0,46.4444,113.306,46.4444,-66.6936,2310.54,monload-611_runway,,,,,,,,2.4,,,0.9627249999999999
23,0.0,,113.829,,0.0,35.6973,113.828,35.6973,-66.1716,2331.74,monload-611_runway,,,,,,,,2.4,,,0.9715583333333332
24,0.0,,114.212,,0.0,22.9122,114.208,22.9122,-65.792,2347.2,monload-611_runway,,,,,,,,2.4,,,0.9779999999999999
25,0.0,,0.0,,0.0,0.0,0.0,0.0,0.0,0.0,monload-611_runway,,,,,,,,2.4,,,0.0
26,0.0,,0.0,,0.0,0.0,0.0,0.0,0.0,0.0,monload-611_runway,,,,,,,,2.4,,,0.0
27,0.0,,0.0,,0.0,0.0,0.0,0.0,0.0,0.0,monload-611_runway,,,,,,,,2.4,,,0.0
28,0.0,,0.0,,0.0,0.0,0.0,0.0,0.0,0.0,monload-611_runway,,,,,,,,2.4,,,0.0
29,0.0,,0.0,,0.0,0.0,0.0,0.0,0.0,0.0,monload-611_runway,,,,,,,,2.4,,,0.0
30,0.0,,0.0,,0.0,0.0,0.0,0.0,0.0,0.0,monload-611_runway,,,,,,,,2.4,,,0.0
31,0.0,,0.0,,0.0,0.0,0.0,0.0,0.0,0.0,monload-611_runway,,,,,,,,2.4,,,0.0
32,0.0,,0.0,,0.0,0.0,0.0,0.0,0.0,0.0,monload-611_runway,,,,,,,,2.4,,,0.0
33,0.0,,0.0,,0.0,0.0,0.0,0.0,0.0,0.0,monload-611_runway,,,,,,,,2.4,,,0.0
34,0.0,,0.0,,0.0,0.0,0.0,0.0,0.0,0.0,monload-611_runway,,,,,,,,2.4,,,0.0
35,0.0,,0.0,,0.0,0.0,0.0,0.0,0.0,0.0,monload-611_runway,,,,,,,,2.4,,,0.0
36,0.0,,0.0,,0.0,0.0,0.0,0.0,0.0,0.0,monload-611_runway,,,,,,,,2.4,,,0.0
37,0.0,,0.0,,0.0,0.0,0.0,0.0,0.0,0.0,monload-611_runway,,,,,,,,2.4,,,0.0
38,0.0,,0.0,,0.0,0.0,0.0,0.0,0.0,0.0,monload-611_runway,,,,,,,,2.4,,,0.0
39,0.0,,0.0,,0.0,0.0,0.0,0.0,0.0,0.0,monload-611_runway,,,,,,,,2.4,,,0.0
40,0.0,,0.0,,0.0,0.0,0.0,0.0,0.0,0.0,monload-611_runway,,,,,,,,2.4,,,0.0
41,0.0,,0.0,,0.0,0.0,0.0,0.0,0.0,0.0,monload-611_runway,,,,,,,,2.4,,,0.0
42,0.0,,0.0,,0.0,0.0,0.0,0.0,0.0,0.0,monload-611_runway,,,,,,,,2.4,,,0.0
43,0.0,,0.0,,0.0,0.0,0.0,0.0,0.0,0.0,monload-611_runway,,,,,,,,2.4,,,0.0
44,0.0,,0.0,,0.0,0.0,0.0,0.0,0.0,0.0,monload-611_runway,,,,,,,,2.4,,,0.0
45,0.0,,0.0,,0.0,0.0,0.0,0.0,0.0,0.0,monload-611_runway,,,,,,,,2.4,,,0.0
46,0.0,,0.0,,0.0,0.0,0.0,0.0,0.0,0.0,monload-611_runway,,,,,,,,2.4,,,0.0
47,0.0,,0.0,,0.0,0.0,0.0,0.0,0.0,0.0,monload-611_runway,,,,,,,,2.4,,,0.0
48,0.0,,0.0,,0.0,0.0,0.0,0.0,0.0,0.0,monload-611_runway,,,,,,,,2.4,,,0.0
49,0.0,,0.0,,0.0,0.0,0.0,0.0,0.0,0.0,monload-611_runway,,,,,,,,2.4,,,0.0
50,0.0,,0.0,,0.0,0.0,0.0,0.0,0.0,0.0,monload-611_runway,,,,,,,,2.4,,,0.0
51,0.0,,0.0,,0.0,0.0,0.0,0.0,0.0,0.0,monload-611_runway,,,,,,,,2.4,,,0.0
52,0.0,,0.0,,0.0,0.0,0.0,0.0,0.0,0.0,monload-611_runway,,,,,,,,2.4,,,0.0
53,0.0,,0.0,,0.0,0.0,0.0,0.0,0.0,0.0,monload-611_runway,,,,,,,,2.4,,,0.0
54,0.0,,0.0,,0.0,0.0,0.0,0.0,0.0,0.0,monload-611_runway,,,,,,,,2.4,,,0.0
55,0.0,,0.0,,0.0,0.0,0.0,0.0,0.0,0.0,monload-611_runway,,,,,,,,2.4,,,0.0
56,0.0,,0.0,,0.0,0.0,0.0,0.0,0.0,0.0,monload-611_runway,,,,,,,,2.4,,,0.0
57,0.0,,0.0,,0.0,0.0,0.0,0.0,0.0,0.0,monload-611_runway,,,,,,,,2.4,,,0.0
58,0.0,,0.0,,0.0,0.0,0.0,0.0,0.0,0.0,monload-611_runway,,,,,,,,2.4,,,0.0
59,0.0,,0.0,,0.0,0.0,0.0,0.0,0.0,0.0,monload-611_runway,,,,,,,,2.4,,,0.0
60,0.0,,0.0,,0.0,0.0,0.0,0.0,0.0,0.0,monload-611_runway,,,,,,,,2.4,,,0.0
61,0.0,,0.0,,0.0,0.0,0.0,0.0,0.0,0.0,monload-611_runway,,,,,,,,2.4,,,0.0
62,0.0,,0.0,,0.0,0.0,0.0,0.0,0.0,0.0,monload-611_runway,,,,,,,,2.4,,,0.0
63,0.0,,0.0,,0.0,0.0,0.0,0.0,0.0,0.0,monload-611_runway,,,,,,,,2.4,,,0.0
64,0.0,,0.0,,0.0,0.0,0.0,0.0,0.0,0.0,monload-611_runway,,,,,,,,2.4,,,0.0
65,0.0,,0.0,,0.0,0.0,0.0,0.0,0.0,0.0,monload-611_runway,,,,,,,,2.4,,,0.0
66,0.0,,0.0,,0.0,0.0,0.0,0.0,0.0,0.0,monload-611_runway,,,,,,,,2.4,,,0.0
67,0.0,,0.0,,0.0,0.0,0.0,0.0,0.0,0.0,monload-611_runway,,,,,,,,2.4,,,0.0
68,0.0,,0.0,,0.0,0.0,0.0,0.0,0.0,0.0,monload-611_runway,,,,,,,,2.4,,,0.0
69,0.0,,0.0,,0.0,0.0,0.0,0.0,0.0,0.0,monload-611_runway,,,,,,,,2.4,,,0.0
70,0.0,,0.0,,0.0,0.0,0.0,0.0,0.0,0.0,monload-611_runway,,,,,,,,2.4,,,0.0
71,0.0,,0.0,,0.0,0.0,0.0,0.0,0.0,0.0,monload-611_runway,,,,,,,,2.4,,,0.0
72,0.0,,0.0,,0.0,0.0,0.0,0.0,0.0,0.0,monload-611_runway,,,,,,,,2.4,,,0.0
73,0.0,,114.254,,0.0,18.5785,114.256,18.5785,-65.7443,2348.96,monload-611_runway,,,,,,,,2.4,,,0.9787333333333333
74,0.0,,114.281,,0.0,17.7129,114.278,17.7129,-65.7216,2350.03,monload-611_runway,,,,,,,,2.4,,,0.9791791666666667
75,0.0,,114.31,,0.0,16.7422,114.307,16.7422,-65.6931,2351.19,monload-611_runway,,,,,,,,2.4,,,0.9796625
76,0.0,,114.306,,0.0,16.8093,114.306,16.8093,-65.6937,2351.05,monload-611_runway,,,,,,,,2.4,,,0.9796041666666667
77,0.0,,113.581,,0.0,17.5128,113.582,17.5128,-66.418,2322.04,monload-611_runway,,,,,,,,2.4,,,0.9675166666666667
78,0.0,,113.405,,0.0,20.9229,113.408,20.9229,-66.5923,2314.8,monload-611_runway,,,,,,,,2.4,,,0.9645
79,0.0,,111.74,,0.0,32.429,111.74,32.429,-68.2601,2260.99,monload-611_runway,,,,,,,,2.4,,,0.9420791666666666
80,0.0,,111.111,,0.0,34.2623,111.112,34.2623,-68.8883,2234.84,monload-611_runway,,,,,,,,2.4,,,0.9311833333333334
81,0.0,,112.867,,0.0,30.82,112.865,30.82,-67.1348,2314.66,monload-611_runway,,,,,,,,2.4,,,0.9644416666666666
82,0.0,,117.264,,0.0,30.1071,117.266,30.1071,-62.7343,2485.09,monload-611_runway,,,,,,,,2.4,,,1.0354541666666668
83,0.0,,120.374,,0.0,23.751,120.375,23.751,-59.6254,2593.27,monload-611_runway,,,,,,,,2.4,,,1.0805291666666668
84,0.0,,119.001,,0.0,23.8044,119.0,23.8044,-60.9995,2539.48,monload-611_runway,,,,,,,,2.4,,,1.0581166666666666
85,0.0,,117.484,,0.0,24.733,117.484,24.733,-62.5155,2478.72,monload-611_runway,,,,,,,,2.4,,,1.0328
86,0.0,,114.636,,0.0,26.0612,114.635,26.0612,-65.3645,2363.17,monload-611_runway,,,,,,,,2.4,,,0.9846541666666667
87,0.0,,120.798,,0.0,27.1931,120.799,27.1931,-59.201,2595.34,monload-611_runway,,,,,,,,2.4,,,1.0813916666666668
88,0.0,,114.801,,0.0,26.3335,114.798,26.3335,-65.2018,2370.91,monload-611_runway,,,,,,,,2.4,,,0.9878791666666666
89,0.0,,112.511,,0.0,27.5633,112.507,27.5633,-67.4925,2301.32,monload-611_runway,,,,,,,,2.4,,,0.9588833333333334
90,0.0,,110.625,,0.0,33.024,110.624,33.024,-69.3763,2228.95,monload-611_runway,,,,,,,,2.4,,,0.9287291666666666
91,0.0,,111.378,,0.0,41.066,111.378,41.066,-68.6217,2259.32,monload-611_runway,,,,,,,,2.4,,,0.9413833333333333
92,0.0,,111.382,,0.0,44.1232,111.382,44.1232,-68.6177,2259.55,monload-611_runway,,,,,,,,2.4,,,0.9414791666666668
93,0.0,,112.056,,0.0,49.2734,112.055,49.2734,-67.9452,2287.79,monload-611_runway,,,,,,,,2.4,,,0.9532458333333333
94,0.0,,112.424,,0.0,46.4184,112.423,46.4184,-67.5771,2303.37,monload-611_runway,,,,,,,,2.4,,,0.9597374999999999
95,0.0,,113.372,,0.0,34.3923,113.37,34.3923,-66.6304,2342.49,monload-611_runway,,,,,,,,2.4,,,0.9760374999999999
96,0.0,,113.719,,0.0,24.0131,113.712,24.0131,-66.2882,2356.82,monload-611_runway,,,,,,,,2.4,,,0.9820083333333334
1,0.0,275.72,-2.04562,,0.0,140.542,-2.04565,140.542,177.954,,monload-634a_data_center,,,,,,,,0.277,0.9953790613718413,,
2,0.0,275.56,-2.091,,0.0,147.97,-2.08991,147.97,177.91,,monload-634a_data_center,,,,,,,,0.277,0.9948014440433213,,
3,0.0,275.496,-2.10755,,0.0,150.245,-2.10704,150.245,177.893,,monload-634a_data_center,,,,,,,,0.277,0.9945703971119133,,
4,0.0,275.473,-2.11387,,0.0,151.156,-2.11369,151.156,177.886,,monload-634a_data_center,,,,,,,,0.277,0.9944873646209387,,
5,0.0,275.13,-2.19912,,0.0,160.968,-2.19904,160.968,177.801,,monload-634a_data_center,,,,,,,,0.277,0.9932490974729242,,
6,0.0,275.071,-2.20849,,0.0,159.882,-2.20847,159.882,177.792,,monload-634a_data_center,,,,,,,,0.277,0.9930361010830326,,
7,0.0,273.642,-2.57343,,0.0,205.923,-2.57342,205.923,177.427,,monload-634a_data_center,,,,,,,,0.277,0.9878772563176895,,
8,0.0,273.741,-2.56096,,0.0,208.964,-2.56224,208.964,177.438,,monload-634a_data_center,,,,,,,,0.277,0.9882346570397111,,
9,0.0,292.338,2.22908,,0.0,231.484,2.23284,231.484,-177.767,,monload-634a_data_center,,,,,,,,0.277,1.0553718411552346,,
10,0.0,311.113,7.84793,,0.0,221.983,7.85043,221.983,-172.15,,monload-634a_data_center,,,,,,,,0.277,1.1231516245487365,,
11,0.0,319.874,10.5422,,0.0,283.152,10.5422,283.152,-169.458,,monload-634a_data_center,,,,,,,,0.277,1.1547797833935018,,
12,0.0,331.869,14.4752,,0.0,323.719,14.4749,323.719,-165.525,,monload-634a_data_center,,,,,,,,0.277,1.1980830324909748,,
13,0.0,334.205,15.3357,,0.0,359.878,15.3354,359.878,-164.665,,monload-634a_data_center,,,,,,,,0.277,1.2065162454873646,,
14,0.0,331.939,14.506,,0.0,357.747,14.5066,357.747,-165.493,,monload-634a_data_center,,,,,,,,0.277,1.1983357400722023,,
15,0.0,325.126,12.1501,,0.0,342.868,12.1571,342.868,-167.843,,monload-634a_data_center,,,,,,,,0.277,1.173740072202166,,
16,0.0,312.618,8.25477,,0.0,324.829,8.25215,324.829,-171.748,,monload-634a_data_center,,,,,,,,0.277,1.1285848375451264,,
17,0.0,293.067,2.92022,,0.0,302.542,2.9201,302.542,-177.08,,monload-634a_data_center,,,,,,,,0.277,1.0580036101083032,,
18,0.0,273.452,-2.68115,,0.0,280.615,-2.68249,280.615,177.318,,monload-634a_data_center,,,,,,,,0.277,0.9871913357400722,,
19,0.0,271.469,-3.13612,,0.0,282.863,-3.13603,282.863,176.864,,monload-634a_data_center,,,,,,,,0.277,0.9800324909747292,,
20,0.0,271.955,-3.01004,,0.0,265.207,-3.01572,265.207,176.984,,monload-634a_data_center,,,,,,,,0.277,0.9817870036101083,,
21,0.0,272.497,-2.87169,,0.0,247.055,-2.87202,247.055,177.128,,monload-634a_data_center,,,,,,,,0.277,0.9837436823104694,,
22,0.0,273.383,-2.64423,,0.0,216.924,-2.6447,216.924,177.355,,monload-634a_data_center,,,,,,,,0.277,0.986942238267148,,
23,0.0,275.556,-2.07354,,0.0,138.098,-2.07354,138.098,177.926,,monload-634a_data_center,,,,,,,,0.277,0.9947870036101082,,
24,0.0,274.742,-2.29863,,0.0,173.945,-2.29826,173.945,177.702,,monload-634a_data_center,,,,,,,,0.277,0.9918483754512636,,
25,0.0,276.82,-0.0653302,,0.0,142.841,-0.0653302,142.841,179.935,,monload-634a_data_center,,,,,,,,0.277,0.9993501805054151,,
26,0.0,276.847,-0.0594633,,0.0,130.014,-0.0594763,130.014,179.941,,monload-634a_data_center,,,,,,,,0.277,0.9994476534296028,,
27,0.0,276.857,-0.0575307,,0.0,125.788,-0.057535,125.788,179.942,,monload-634a_data_center,,,,,,,,0.277,0.9994837545126355,,
28,0.0,276.862,-0.0563925,,0.0,123.3,-0.056395,123.3,179.944,,monload-634a_data_center,,,,,,,,0.277,0.9995018050541518,,
29,0.0,276.848,-0.0594164,,0.0,129.911,-0.0594097,129.911,179.941,,monload-634a_data_center,,,,,,,,0.277,0.9994512635379061,,
30,0.0,276.85,-0.0588779,,0.0,128.734,-0.0588791,128.734,179.941,,monload-634a_data_center,,,,,,,,0.277,0.9994584837545127,,
31,0.0,276.72,-0.0865017,,0.0,189.132,-0.0864404,189.132,179.914,,monload-634a_data_center,,,,,,,,0.277,0.9989891696750903,,
32,0.0,276.736,-0.0830272,,0.0,181.535,-0.0830349,181.535,179.917,,monload-634a_data_center,,,,,,,,0.277,0.9990469314079422,,
33,0.0,276.839,-0.0612418,,0.0,282.673,-0.0612902,282.673,179.939,,monload-634a_data_center,,,,,,,,0.277,0.9994187725631769,,
34,0.0,277.478,0.0743217,,0.0,334.563,0.0740208,334.563,-179.926,,monload-634a_data_center,,,,,,,,0.277,1.0017256317689531,,
35,0.0,278.256,0.239622,,0.0,325.958,0.239255,325.958,-179.761,,monload-634a_data_center,,,,,,,,0.277,1.0045342960288808,,
36,0.0,278.599,0.312724,,0.0,363.654,0.312724,363.654,-179.687,,monload-634a_data_center,,,,,,,,0.277,1.0057725631768952,,
37,0.0,278.99,0.396149,,0.0,347.044,0.396149,347.044,-179.604,,monload-634a_data_center,,,,,,,,0.277,1.0071841155234658,,
38,0.0,279.445,0.49337,,0.0,345.992,0.49337,345.992,-179.507,,monload-634a_data_center,,,,,,,,0.277,1.008826714801444,,
39,0.0,278.261,0.240706,,0.0,343.644,0.240706,343.644,-179.759,,monload-634a_data_center,,,,,,,,0.277,1.0045523465703972,,
40,0.0,278.429,0.276364,,0.0,340.063,0.276364,340.063,-179.724,,monload-634a_data_center,,,,,,,,0.277,1.0051588447653428,,
41,0.0,277.431,0.0641554,,0.0,340.792,0.0641554,340.792,-179.936,,monload-634a_data_center,,,,,,,,0.277,1.0015559566787002,,
42,0.0,276.408,-0.152397,,0.0,350.291,-0.152397,350.291,179.848,,monload-634a_data_center,,,,,,,,0.277,0.9978628158844766,,
43,0.0,276.394,-0.155447,,0.0,339.877,-0.155447,339.877,179.845,,monload-634a_data_center,,,,,,,,0.277,0.9978122743682311,,
44,0.0,276.431,-0.147506,,0.0,322.515,-0.147506,322.515,179.852,,monload-634a_data_center,,,,,,,,0.277,0.9979458483754512,,
45,0.0,276.521,-0.128619,,0.0,281.218,-0.128619,281.218,179.871,,monload-634a_data_center,,,,,,,,0.277,0.9982707581227437,,
46,0.0,276.712,-0.0881081,,0.0,192.644,-0.0881081,192.644,179.912,,monload-634a_data_center,,,,,,,,0.277,0.9989602888086642,,
47,0.0,276.867,-0.0552411,,0.0,120.782,-0.0552411,120.782,179.945,,monload-634a_data_center,,,,,,,,0.277,0.9995198555956679,,
48,0.0,276.785,-0.0726938,,0.0,158.942,-0.0726938,158.942,179.927,,monload-634a_data_center,,,,,,,,0.277,0.9992238267148016,,
49,0.0,276.859,-0.0571201,,0.0,124.89,-0.0571201,124.89,179.943,,monload-634a_data_center,,,,,,,,0.277,0.9994909747292418,,
50,0.0,276.877,-0.0531226,,0.0,116.15,-0.0531314,116.15,179.947,,monload-634a_data_center,,,,,,,,0.277,0.9995559566787003,,
51,0.0,276.879,-0.0528608,,0.0,115.578,-0.0528613,115.578,179.947,,monload-634a_data_center,,,,,,,,0.277,0.9995631768953069,,
52,0.0,276.88,-0.0526524,,0.0,115.122,-0.0526529,115.122,179.947,,monload-634a_data_center,,,,,,,,0.277,0.9995667870036101,,
53,0.0,276.825,-0.0642054,,0.0,140.382,-0.0641797,140.382,179.936,,monload-634a_data_center,,,,,,,,0.277,0.9993682310469314,,
54,0.0,276.827,-0.0638554,,0.0,139.617,-0.0638561,139.617,179.936,,monload-634a_data_center,,,,,,,,0.277,0.9993754512635379,,
55,0.0,276.694,-0.0919132,,0.0,200.964,-0.091851,200.964,179.908,,monload-634a_data_center,,,,,,,,0.277,0.9988953068592058,,
56,0.0,276.732,-0.0838929,,0.0,183.428,-0.0839107,183.428,179.916,,monload-634a_data_center,,,,,,,,0.277,0.9990324909747293,,
57,0.0,276.942,-0.0394902,,0.0,275.1,-0.0395888,275.1,179.96,,monload-634a_data_center,,,,,,,,0.277,0.9997906137184116,,
58,0.0,278.206,0.229007,,0.0,322.738,0.228411,322.738,-179.772,,monload-634a_data_center,,,,,,,,0.277,1.0043537906137185,,
59,0.0,278.964,0.390548,,0.0,313.337,0.39019,313.337,-179.61,,monload-634a_data_center,,,,,,,,0.277,1.0070902527075811,,
60,0.0,279.322,0.466939,,0.0,351.2,0.466939,351.2,-179.533,,monload-634a_data_center,,,,,,,,0.277,1.0083826714801445,,
61,0.0,279.535,0.512668,,0.0,333.438,0.512668,333.438,-179.487,,monload-634a_data_center,,,,,,,,0.277,1.0091516245487366,,
62,0.0,279.429,0.489978,,0.0,331.201,0.489978,331.201,-179.51,,monload-634a_data_center,,,,,,,,0.277,1.008768953068592,,
63,0.0,277.946,0.173634,,0.0,327.915,0.173634,327.915,-179.826,,monload-634a_data_center,,,,,,,,0.277,1.0034151624548737,,
64,0.0,278.142,0.21531,,0.0,324.647,0.21531,324.647,-179.785,,monload-634a_data_center,,,,,,,,0.277,1.0041227436823104,,
65,0.0,277.26,0.0280559,,0.0,326.902,0.0280559,326.902,-179.972,,monload-634a_data_center,,,,,,,,0.277,1.0009386281588448,,
66,0.0,276.439,-0.145838,,0.0,334.374,-0.145838,334.374,179.854,,monload-634a_data_center,,,,,,,,0.277,0.9979747292418774,,
67,0.0,276.425,-0.148807,,0.0,325.359,-0.148807,325.359,179.851,,monload-634a_data_center,,,,,,,,0.277,0.9979241877256319,,
68,0.0,276.478,-0.137743,,0.0,301.167,-0.137743,301.167,179.862,,monload-634a_data_center,,,,,,,,0.277,0.998115523465704,,
69,0.0,276.556,-0.121236,,0.0,265.077,-0.121236,265.077,179.879,,monload-634a_data_center,,,,,,,,0.277,0.9983971119133573,,
70,0.0,276.742,-0.0817556,,0.0,178.755,-0.0817556,178.755,179.918,,monload-634a_data_center,,,,,,,,0.277,0.9990685920577618,,
71,0.0,276.89,-0.0503974,,0.0,110.192,-0.0503974,110.192,179.95,,monload-634a_data_center,,,,,,,,0.277,0.9996028880866425,,
72,0.0,276.805,-0.0684697,,0.0,149.706,-0.0684697,149.706,179.932,,monload-634a_data_center,,,,,,,,0.277,0.9992960288808664,,
73,0.0,276.19,-1.90954,,0.0,117.105,-1.90957,117.105,178.09,,monload-634a_data_center,,,,,,,,0.277,0.9970758122743683,,
74,0.0,276.416,-1.84883,,0.0,108.401,-1.8503,108.401,178.15,,monload-634a_data_center,,,,,,,,0.277,0.9978916967509025,,
75,0.0,276.388,-1.85718,,0.0,109.865,-1.857,109.865,178.143,,monload-634a_data_center,,,,,,,,0.277,0.9977906137184115,,
76,0.0,276.349,-1.86762,,0.0,111.409,-1.86737,111.409,178.133,,monload-634a_data_center,,,,,,,,0.277,0.9976498194945848,,
77,0.0,275.834,-1.98694,,0.0,121.009,-1.98696,121.009,178.013,,monload-634a_data_center,,,,,,,,0.277,0.9957906137184116,,
78,0.0,275.714,-2.01284,,0.0,122.269,-2.01283,122.269,177.987,,monload-634a_data_center,,,,,,,,0.277,0.9953574007220216,,
79,0.0,273.435,-2.58106,,0.0,187.992,-2.58109,187.992,177.419,,monload-634a_data_center,,,,,,,,0.277,0.9871299638989169,,
80,0.0,273.354,-2.58405,,0.0,181.13,-2.58396,181.13,177.416,,monload-634a_data_center,,,,,,,,0.277,0.9868375451263537,,
81,0.0,283.913,-0.189352,,0.0,276.111,-0.1893,276.111,179.811,,monload-634a_data_center,,,,,,,,0.277,1.024956678700361,,
82,0.0,302.221,5.33416,,0.0,335.412,5.33232,335.412,-174.668,,monload-634a_data_center,,,,,,,,0.277,1.0910505415162455,,
83,0.0,318.054,9.90878,,0.0,346.653,9.90885,346.653,-170.091,,monload-634a_data_center,,,,,,,,0.277,1.1482093862815883,,
84,0.0,310.118,7.52474,,0.0,379.758,7.5289,379.758,-172.471,,monload-634a_data_center,,,,,,,,0.277,1.1195595667870035,,
85,0.0,302.445,5.37966,,0.0,360.804,5.37224,360.804,-174.628,,monload-634a_data_center,,,,,,,,0.277,1.0918592057761733,,
86,0.0,290.505,2.26434,,0.0,350.963,2.26641,350.963,-177.734,,monload-634a_data_center,,,,,,,,0.277,1.048754512635379,,
87,0.0,321.319,10.9237,,0.0,386.253,10.9235,386.253,-169.076,,monload-634a_data_center,,,,,,,,0.277,1.1599963898916967,,
88,0.0,292.483,2.77009,,0.0,349.865,2.77009,349.865,-177.23,,monload-634a_data_center,,,,,,,,0.277,1.0558953068592059,,
89,0.0,280.111,-0.307637,,0.0,362.278,-0.307597,362.278,179.692,,monload-634a_data_center,,,,,,,,0.277,1.0112310469314079,,
90,0.0,269.186,-3.75018,,0.0,387.248,-3.75438,387.248,176.246,,monload-634a_data_center,,,,,,,,0.277,0.9717906137184115,,
