hour,t(sec),P1(kW),Q1(kvar),P2(kW),Q2(kvar),P3(kW),Name,Q3(kvar),P4(kW),Q4(kvar)
1,0.0,0.0,0.0,,0.0,,mongenerator-battery_634,,,
2,0.0,0.0,0.0,,0.0,,mongenerator-battery_634,,,
3,0.0,0.0,0.0,,0.0,,mongenerator-battery_634,,,
4,0.0,0.0,0.0,,0.0,,mongenerator-battery_634,,,
5,0.0,0.0,0.0,,0.0,,mongenerator-battery_634,,,
6,0.0,0.0,0.0,,0.0,,mongenerator-battery_634,,,
7,0.0,0.0,0.0,,0.0,,mongenerator-battery_634,,,
8,0.0,0.0,0.0,,0.0,,mongenerator-battery_634,,,
9,0.0,0.0,0.0,,0.0,,mongenerator-battery_634,,,
10,0.0,0.0,0.0,,0.0,,mongenerator-battery_634,,,
11,0.0,0.0,0.0,,0.0,,mongenerator-battery_634,,,
12,0.0,0.0,0.0,,0.0,,mongenerator-battery_634,,,
13,0.0,0.0,0.0,,0.0,,mongenerator-battery_634,,,
14,0.0,0.0,0.0,,0.0,,mongenerator-battery_634,,,
15,0.0,0.0,0.0,,0.0,,mongenerator-battery_634,,,
16,0.0,0.0,0.0,,0.0,,mongenerator-battery_634,,,
17,0.0,0.0,0.0,,0.0,,mongenerator-battery_634,,,
18,0.0,0.0,0.0,,0.0,,mongenerator-battery_634,,,
19,0.0,0.0,0.0,,0.0,,mongenerator-battery_634,,,
20,0.0,0.0,0.0,,0.0,,mongenerator-battery_634,,,
21,0.0,0.0,0.0,,0.0,,mongenerator-battery_634,,,
22,0.0,0.0,0.0,,0.0,,mongenerator-battery_634,,,
23,0.0,0.0,0.0,,0.0,,mongenerator-battery_634,,,
24,0.0,0.0,0.0,,0.0,,mongenerator-battery_634,,,
25,0.0,0.0,0.0,,0.0,,mongenerator-battery_634,,,
26,0.0,0.0,0.0,,0.0,,mongenerator-battery_634,,,
27,0.0,0.0,0.0,,0.0,,mongenerator-battery_634,,,
28,0.0,0.0,0.0,,0.0,,mongenerator-battery_634,,,
29,0.0,0.0,0.0,,0.0,,mongenerator-battery_634,,,
30,0.0,0.0,0.0,,0.0,,mongenerator-battery_634,,,
31,0.0,0.0,0.0,,0.0,,mongenerator-battery_634,,,
32,0.0,0.0,0.0,,0.0,,mongenerator-battery_634,,,
33,0.0,0.0,0.0,,0.0,,mongenerator-battery_634,,,
34,0.0,0.0,0.0,,0.0,,mongenerator-battery_634,,,
35,0.0,0.0,0.0,,0.0,,mongenerator-battery_634,,,
36,0.0,-0.921483,6.63464e-05,,0.0,,mongenerator-battery_634,,,
37,0.0,0.0,0.0,,0.0,,mongenerator-battery_634,,,
38,0.0,0.0,0.0,,0.0,,mongenerator-battery_634,,,
39,0.0,0.0,0.0,,0.0,,mongenerator-battery_634,,,
40,0.0,0.0,0.0,,0.0,,mongenerator-battery_634,,,
41,0.0,0.0,0.0,,0.0,,mongenerator-battery_634,,,
42,0.0,-0.561745,1.2578e-05,,0.0,,mongenerator-battery_634,,,
43,0.0,-0.545851,5.80496e-08,,0.0,,mongenerator-battery_634,,,
44,0.0,-0.254816,1.36375e-08,,0.0,,mongenerator-battery_634,,,
45,0.0,0.0,0.0,,0.0,,mongenerator-battery_634,,,
46,0.0,0.0,0.0,,0.0,,mongenerator-battery_634,,,
47,0.0,0.0,0.0,,0.0,,mongenerator-battery_634,,,
48,0.0,0.0,0.0,,0.0,,mongenerator-battery_634,,,
49,0.0,0.0,0.0,,0.0,,mongenerator-battery_634,,,
50,0.0,0.0,0.0,,0.0,,mongenerator-battery_634,,,
51,0.0,0.0,0.0,,0.0,,mongenerator-battery_634,,,
52,0.0,0.0,0.0,,0.0,,mongenerator-battery_634,,,
53,0.0,0.0,0.0,,0.0,,mongenerator-battery_634,,,
54,0.0,0.0,0.0,,0.0,,mongenerator-battery_634,,,
55,0.0,0.0,0.0,,0.0,,mongenerator-battery_634,,,
56,0.0,0.0,0.0,,0.0,,mongenerator-battery_634,,,
57,0.0,0.0,0.0,,0.0,,mongenerator-battery_634,,,
58,0.0,0.0,0.0,,0.0,,mongenerator-battery_634,,,
59,0.0,0.0,0.0,,0.0,,mongenerator-battery_634,,,
60,0.0,0.0,0.0,,0.0,,mongenerator-battery_634,,,
61,0.0,0.0,0.0,,0.0,,mongenerator-battery_634,,,
62,0.0,0.0,0.0,,0.0,,mongenerator-battery_634,,,
63,0.0,0.0,0.0,,0.0,,mongenerator-battery_634,,,
64,0.0,0.0,0.0,,0.0,,mongenerator-battery_634,,,
65,0.0,0.0,0.0,,0.0,,mongenerator-battery_634,,,
66,0.0,-0.350118,1.39486e-05,,0.0,,mongenerator-battery_634,,,
67,0.0,-0.302499,1.5222e-06,,0.0,,mongenerator-battery_634,,,
68,0.0,0.0,0.0,,0.0,,mongenerator-battery_634,,,
69,0.0,0.0,0.0,,0.0,,mongenerator-battery_634,,,
70,0.0,0.0,0.0,,0.0,,mongenerator-battery_634,,,
71,0.0,0.0,0.0,,0.0,,mongenerator-battery_634,,,
72,0.0,0.0,0.0,,0.0,,mongenerator-battery_634,,,
73,0.0,0.0,0.0,,0.0,,mongenerator-battery_634,,,
74,0.0,0.0,0.0,,0.0,,mongenerator-battery_634,,,
75,0.0,0.0,0.0,,0.0,,mongenerator-battery_634,,,
76,0.0,0.0,0.0,,0.0,,mongenerator-battery_634,,,
77,0.0,0.0,0.0,,0.0,,mongenerator-battery_634,,,
78,0.0,0.0,0.0,,0.0,,mongenerator-battery_634,,,
79,0.0,0.0,0.0,,0.0,,mongenerator-battery_634,,,
80,0.0,0.0,0.0,,0.0,,mongenerator-battery_634,,,
81,0.0,0.0,0.0,,0.0,,mongenerator-battery_634,,,
82,0.0,0.0,0.0,,0.0,,mongenerator-battery_634,,,
83,0.0,1.90916,-2.3274e-07,,0.0,,mongenerator-battery_634,,,
84,0.0,2.24771,-7.44176e-07,,0.0,,mongenerator-battery_634,,,
85,0.0,0.0,0.0,,0.0,,mongenerator-battery_634,,,
86,0.0,0.0,0.0,,0.0,,mongenerator-battery_634,,,
87,0.0,0.0,0.0,,0.0,,mongenerator-battery_634,,,
88,0.0,0.0,0.0,,0.0,,mongenerator-battery_634,,,
89,0.0,0.0,0.0,,0.0,,mongenerator-battery_634,,,
90,0.0,-0.508901,-1.40267e-06,,0.0,,mongenerator-battery_634,,,
91,0.0,-1.00931,-1.95912e-06,,0.0,,mongenerator-battery_634,,,
92,0.0,-0.828383,-4.62395e-07,,0.0,,mongenerator-battery_634,,,
93,0.0,-0.268273,2.79185e-07,,0.0,,mongenerator-battery_634,,,
94,0.0,0.0,0.0,,0.0,,mongenerator-battery_634,,,
95,0.0,0.0,0.0,,0.0,,mongenerator-battery_634,,,
96,0.0,0.0,0.0,,0.0,,mongenerator-battery_634,,,
97,0.0,0.0,0.0,,0.0,,mongenerator-battery_634,,,
98,0.0,0.0,0.0,,0.0,,mongenerator-battery_634,,,
99,0.0,0.0,0.0,,0.0,,mongenerator-battery_634,,,
100,0.0,0.0,0.0,,0.0,,mongenerator-battery_634,,,
101,0.0,0.0,0.0,,0.0,,mongenerator-battery_634,,,
102,0.0,0.0,0.0,,0.0,,mongenerator-battery_634,,,
103,0.0,0.0,0.0,,0.0,,mongenerator-battery_634,,,
104,0.0,-0.787069,3.54766e-07,,0.0,,mongenerator-battery_634,,,
105,0.0,-2.24771,-3.62437e-05,,0.0,,mongenerator-battery_634,,,
106,0.0,-1.16826,-2.78359e-06,,0.0,,mongenerator-battery_634,,,
107,0.0,1.10619,-2.14332e-07,,0.0,,mongenerator-battery_634,,,
108,0.0,2.18275,1.20748e-06,,0.0,,mongenerator-battery_634,,,
109,0.0,2.24771,-7.35732e-07,,0.0,,mongenerator-battery_634,,,
110,0.0,2.05094,-4.18411e-07,,0.0,,mongenerator-battery_634,,,
111,0.0,0.0,0.0,,0.0,,mongenerator-battery_634,,,
112,0.0,0.0,0.0,,0.0,,mongenerator-battery_634,,,
113,0.0,0.0,0.0,,0.0,,mongenerator-battery_634,,,
114,0.0,-1.13471,-6.02123e-06,,0.0,,mongenerator-battery_634,,,
115,0.0,-1.49578,-3.927e-06,,0.0,,mongenerator-battery_634,,,
116,0.0,-1.29634,-2.9281e-06,,0.0,,mongenerator-battery_634,,,
117,0.0,-0.723136,-1.65623e-09,,0.0,,mongenerator-battery_634,,,
118,0.0,1.0674,1.45787e-05,,0.0,,mongenerator-battery_634,,,
119,0.0,2.24771,-1.34547e-06,,0.0,,mongenerator-battery_634,,,
120,0.0,0.650636,4.02279e-05,,0.0,,mongenerator-battery_634,,,
121,0.0,0.0,0.0,,0.0,,mongenerator-battery_634,,,
122,0.0,0.0,0.0,,0.0,,mongenerator-battery_634,,,
123,0.0,0.0,0.0,,0.0,,mongenerator-battery_634,,,
124,0.0,0.0,0.0,,0.0,,mongenerator-battery_634,,,
125,0.0,0.0,0.0,,0.0,,mongenerator-battery_634,,,
126,0.0,0.0,0.0,,0.0,,mongenerator-battery_634,,,
127,0.0,0.0,0.0,,0.0,,mongenerator-battery_634,,,
128,0.0,0.0,0.0,,0.0,,mongenerator-battery_634,,,
129,0.0,0.0,0.0,,0.0,,mongenerator-battery_634,,,
130,0.0,0.0,0.0,,0.0,,mongenerator-battery_634,,,
131,0.0,0.413579,8.21616e-09,,0.0,,mongenerator-battery_634,,,
132,0.0,0.0,0.0,,0.0,,mongenerator-battery_634,,,
133,0.0,0.0737473,-1.63292e-08,,0.0,,mongenerator-battery_634,,,
134,0.0,0.250606,-4.5257e-09,,0.0,,mongenerator-battery_634,,,
135,0.0,0.471194,1.1478e-06,,0.0,,mongenerator-battery_634,,,
136,0.0,0.0,0.0,,0.0,,mongenerator-battery_634,,,
137,0.0,0.0,0.0,,0.0,,mongenerator-battery_634,,,
138,0.0,-1.30505,-6.3196e-05,,0.0,,mongenerator-battery_634,,,
139,0.0,-1.59918,-3.2973e-06,,0.0,,mongenerator-battery_634,,,
140,0.0,-1.21624,1.62453e-05,,0.0,,mongenerator-battery_634,,,
141,0.0,-0.675117,-5.09559e-06,,0.0,,mongenerator-battery_634,,,
142,0.0,1.29147,8.88858e-06,,0.0,,mongenerator-battery_634,,,
143,0.0,0.358322,3.04687e-07,,0.0,,mongenerator-battery_634,,,
144,0.0,0.0,0.0,,0.0,,mongenerator-battery_634,,,
145,0.0,0.0,0.0,,0.0,,mongenerator-battery_634,,,
146,0.0,0.0,0.0,,0.0,,mongenerator-battery_634,,,
147,0.0,0.0,0.0,,0.0,,mongenerator-battery_634,,,
148,0.0,0.0,0.0,,0.0,,mongenerator-battery_634,,,
149,0.0,0.0,0.0,,0.0,,mongenerator-battery_634,,,
150,0.0,0.0,0.0,,0.0,,mongenerator-battery_634,,,
151,0.0,0.0,0.0,,0.0,,mongenerator-battery_634,,,
152,0.0,0.0,0.0,,0.0,,mongenerator-battery_634,,,
153,0.0,0.0,0.0,,0.0,,mongenerator-battery_634,,,
154,0.0,0.0,0.0,,0.0,,mongenerator-battery_634,,,
155,0.0,0.925517,-2.73344e-07,,0.0,,mongenerator-battery_634,,,
156,0.0,1.46215,-2.87465e-07,,0.0,,mongenerator-battery_634,,,
157,0.0,0.806104,-4.23549e-06,,0.0,,mongenerator-battery_634,,,
158,0.0,0.493387,-1.28211e-07,,0.0,,mongenerator-battery_634,,,
159,0.0,0.0,0.0,,0.0,,mongenerator-battery_634,,,
160,0.0,0.0,0.0,,0.0,,mongenerator-battery_634,,,
161,0.0,0.0,0.0,,0.0,,mongenerator-battery_634,,,
162,0.0,-1.21473,-1.00913e-05,,0.0,,mongenerator-battery_634,,,
163,0.0,-0.777933,5.88129e-08,,0.0,,mongenerator-battery_634,,,
164,0.0,0.172703,2.64129e-05,,0.0,,mongenerator-battery_634,,,
165,0.0,0.457708,2.4406e-06,,0.0,,mongenerator-battery_634,,,
166,0.0,0.62617,3.35251e-05,,0.0,,mongenerator-battery_634,,,
167,0.0,0.0,0.0,,0.0,,mongenerator-battery_634,,,
168,0.0,0.0,0.0,,0.0,,mongenerator-battery_634,,,
169,0.0,0.0,0.0,,0.0,,mongenerator-battery_634,,,
170,0.0,0.0,0.0,,0.0,,mongenerator-battery_634,,,
171,0.0,0.0,0.0,,0.0,,mongenerator-battery_634,,,
172,0.0,0.0,0.0,,0.0,,mongenerator-battery_634,,,
173,0.0,0.0,0.0,,0.0,,mongenerator-battery_634,,,
174,0.0,0.0,0.0,,0.0,,mongenerator-battery_634,,,
175,0.0,0.0,0.0,,0.0,,mongenerator-battery_634,,,
176,0.0,0.0,0.0,,0.0,,mongenerator-battery_634,,,
177,0.0,0.0,0.0,,0.0,,mongenerator-battery_634,,,
178,0.0,0.960964,-9.14167e-08,,0.0,,mongenerator-battery_634,,,
179,0.0,0.0,0.0,,0.0,,mongenerator-battery_634,,,
180,0.0,0.0,0.0,,0.0,,mongenerator-battery_634,,,
181,0.0,0.0,0.0,,0.0,,mongenerator-battery_634,,,
182,0.0,0.0,0.0,,0.0,,mongenerator-battery_634,,,
183,0.0,0.0,0.0,,0.0,,mongenerator-battery_634,,,
184,0.0,0.0,0.0,,0.0,,mongenerator-battery_634,,,
185,0.0,0.0,0.0,,0.0,,mongenerator-battery_634,,,
186,0.0,0.0,0.0,,0.0,,mongenerator-battery_634,,,
187,0.0,0.0,0.0,,0.0,,mongenerator-battery_634,,,
188,0.0,0.0,0.0,,0.0,,mongenerator-battery_634,,,
189,0.0,0.0,0.0,,0.0,,mongenerator-battery_634,,,
190,0.0,0.0,0.0,,0.0,,mongenerator-battery_634,,,
191,0.0,0.0,0.0,,0.0,,mongenerator-battery_634,,,
192,0.0,0.0,0.0,,0.0,,mongenerator-battery_634,,,
193,0.0,0.0,0.0,,0.0,,mongenerator-battery_634,,,
194,0.0,0.0,0.0,,0.0,,mongenerator-battery_634,,,
195,0.0,0.0,0.0,,0.0,,mongenerator-battery_634,,,
196,0.0,0.0,0.0,,0.0,,mongenerator-battery_634,,,
197,0.0,0.0,0.0,,0.0,,mongenerator-battery_634,,,
198,0.0,0.0,0.0,,0.0,,mongenerator-battery_634,,,
199,0.0,0.0,0.0,,0.0,,mongenerator-battery_634,,,
200,0.0,0.0,0.0,,0.0,,mongenerator-battery_634,,,
201,0.0,0.0,0.0,,0.0,,mongenerator-battery_634,,,
202,0.0,0.0,0.0,,0.0,,mongenerator-battery_634,,,
203,0.0,0.0,0.0,,0.0,,mongenerator-battery_634,,,
204,0.0,0.0,0.0,,0.0,,mongenerator-battery_634,,,
205,0.0,0.0,0.0,,0.0,,mongenerator-battery_634,,,
206,0.0,0.0,0.0,,0.0,,mongenerator-battery_634,,,
207,0.0,0.0,0.0,,0.0,,mongenerator-battery_634,,,
208,0.0,0.0,0.0,,0.0,,mongenerator-battery_634,,,
209,0.0,-0.419055,1.72469e-05,,0.0,,mongenerator-battery_634,,,
210,0.0,-1.06904,-1.04968e-05,,0.0,,mongenerator-battery_634,,,
211,0.0,-1.31469,1.35706e-05,,0.0,,mongenerator-battery_634,,,
212,0.0,-1.0501,-4.02757e-05,,0.0,,mongenerator-battery_634,,,
213,0.0,-0.445621,-3.79186e-06,,0.0,,mongenerator-battery_634,,,
214,0.0,1.24617,0.000346202,,0.0,,mongenerator-battery_634,,,
215,0.0,0.566505,3.81788e-07,,0.0,,mongenerator-battery_634,,,
216,0.0,0.0,0.0,,0.0,,mongenerator-battery_634,,,
217,0.0,0.0,0.0,,0.0,,mongenerator-battery_634,,,
218,0.0,0.0,0.0,,0.0,,mongenerator-battery_634,,,
219,0.0,0.0,0.0,,0.0,,mongenerator-battery_634,,,
220,0.0,0.0,0.0,,0.0,,mongenerator-battery_634,,,
221,0.0,0.0,0.0,,0.0,,mongenerator-battery_634,,,
222,0.0,0.0,0.0,,0.0,,mongenerator-battery_634,,,
223,0.0,0.0,0.0,,0.0,,mongenerator-battery_634,,,
224,0.0,0.0,0.0,,0.0,,mongenerator-battery_634,,,
225,0.0,0.0,0.0,,0.0,,mongenerator-battery_634,,,
226,0.0,0.0,0.0,,0.0,,mongenerator-battery_634,,,
227,0.0,0.0,0.0,,0.0,,mongenerator-battery_634,,,
228,0.0,0.0,0.0,,0.0,,mongenerator-battery_634,,,
229,0.0,0.0,0.0,,0.0,,mongenerator-battery_634,,,
230,0.0,0.0,0.0,,0.0,,mongenerator-battery_634,,,
231,0.0,0.0,0.0,,0.0,,mongenerator-battery_634,,,
232,0.0,0.0,0.0,,0.0,,mongenerator-battery_634,,,
233,0.0,0.0,0.0,,0.0,,mongenerator-battery_634,,,
234,0.0,-1.28536,2.43172e-05,,0.0,,mongenerator-battery_634,,,
235,0.0,-1.39833,-2.69382e-06,,0.0,,mongenerator-battery_634,,,
236,0.0,-1.01919,1.36932e-05,,0.0,,mongenerator-battery_634,,,
237,0.0,-0.445274,-2.90274e-07,,0.0,,mongenerator-battery_634,,,
238,0.0,0.0,0.0,,0.0,,mongenerator-battery_634,,,
239,0.0,0.0,0.0,,0.0,,mongenerator-battery_634,,,
240,0.0,0.0,0.0,,0.0,,mongenerator-battery_634,,,
241,0.0,0.0,0.0,,0.0,,mongenerator-battery_634,,,
242,0.0,0.0,0.0,,0.0,,mongenerator-battery_634,,,
243,0.0,0.0,0.0,,0.0,,mongenerator-battery_634,,,
244,0.0,0.0,0.0,,0.0,,mongenerator-battery_634,,,
245,0.0,0.0,0.0,,0.0,,mongenerator-battery_634,,,
246,0.0,0.0,0.0,,0.0,,mongenerator-battery_634,,,
247,0.0,0.0,0.0,,0.0,,mongenerator-battery_634,,,
248,0.0,0.0,0.0,,0.0,,mongenerator-battery_634,,,
249,0.0,0.0,0.0,,0.0,,mongenerator-battery_634,,,
250,0.0,0.0,0.0,,0.0,,mongenerator-battery_634,,,
251,0.0,1.61875,-2.40942e-07,,0.0,,mongenerator-battery_634,,,
252,0.0,2.24771,-1.33421e-06,,0.0,,mongenerator-battery_634,,,
253,0.0,2.24771,-3.84023e-06,,0.0,,mongenerator-battery_634,,,
254,0.0,1.47342,-5.40281e-07,,0.0,,mongenerator-battery_634,,,
255,0.0,0.0,0.0,,0.0,,mongenerator-battery_634,,,
256,0.0,0.0,0.0,,0.0,,mongenerator-battery_634,,,
257,0.0,0.0,0.0,,0.0,,mongenerator-battery_634,,,
258,0.0,-0.762156,-3.04697e-06,,0.0,,mongenerator-battery_634,,,
259,0.0,-1.44801,-3.14776e-06,,0.0,,mongenerator-battery_634,,,
260,0.0,-1.16677,1.42655e-05,,0.0,,mongenerator-battery_634,,,
261,0.0,-0.453213,-3.82939e-07,,0.0,,mongenerator-battery_634,,,
262,0.0,0.0,0.0,,0.0,,mongenerator-battery_634,,,
263,0.0,0.0,0.0,,0.0,,mongenerator-battery_634,,,
264,0.0,0.0,0.0,,0.0,,mongenerator-battery_634,,,
265,0.0,0.0,0.0,,0.0,,mongenerator-battery_634,,,
266,0.0,0.0,0.0,,0.0,,mongenerator-battery_634,,,
267,0.0,0.0,0.0,,0.0,,mongenerator-battery_634,,,
268,0.0,0.0,0.0,,0.0,,mongenerator-battery_634,,,
269,0.0,0.0,0.0,,0.0,,mongenerator-battery_634,,,
270,0.0,0.0,0.0,,0.0,,mongenerator-battery_634,,,
271,0.0,0.0,0.0,,0.0,,mongenerator-battery_634,,,
272,0.0,-0.265456,7.11499e-06,,0.0,,mongenerator-battery_634,,,
273,0.0,-2.2477,-2.72436e-05,,0.0,,mongenerator-battery_634,,,
274,0.0,-0.474579,2.15528e-07,,0.0,,mongenerator-battery_634,,,
275,0.0,1.89539,-3.99379e-07,,0.0,,mongenerator-battery_634,,,
276,0.0,2.24771,-9.12925e-07,,0.0,,mongenerator-battery_634,,,
277,0.0,2.24771,-6.12759e-07,,0.0,,mongenerator-battery_634,,,
278,0.0,1.19678,-2.20715e-07,,0.0,,mongenerator-battery_634,,,
279,0.0,0.0,0.0,,0.0,,mongenerator-battery_634,,,
280,0.0,0.0,0.0,,0.0,,mongenerator-battery_634,,,
281,0.0,0.0,0.0,,0.0,,mongenerator-battery_634,,,
282,0.0,0.0,0.0,,0.0,,mongenerator-battery_634,,,
283,0.0,-0.383446,4.15501e-07,,0.0,,mongenerator-battery_634,,,
284,0.0,-0.0758816,2.02817e-08,,0.0,,mongenerator-battery_634,,,
285,0.0,0.0,0.0,,0.0,,mongenerator-battery_634,,,
286,0.0,0.0,0.0,,0.0,,mongenerator-battery_634,,,
287,0.0,0.0,0.0,,0.0,,mongenerator-battery_634,,,
288,0.0,0.0,0.0,,0.0,,mongenerator-battery_634,,,
289,0.0,0.0,0.0,,0.0,,mongenerator-battery_634,,,
290,0.0,0.0,0.0,,0.0,,mongenerator-battery_634,,,
291,0.0,0.0,0.0,,0.0,,mongenerator-battery_634,,,
292,0.0,0.0,0.0,,0.0,,mongenerator-battery_634,,,
293,0.0,0.0,0.0,,0.0,,mongenerator-battery_634,,,
294,0.0,0.0,0.0,,0.0,,mongenerator-battery_634,,,
295,0.0,-0.0533487,2.59444e-06,,0.0,,mongenerator-battery_634,,,
296,0.0,-2.2477,-2.6657e-06,,0.0,,mongenerator-battery_634,,,
297,0.0,-2.22886,8.10475e-06,,0.0,,mongenerator-battery_634,,,
298,0.0,-0.149771,8.69537e-09,,0.0,,mongenerator-battery_634,,,
299,0.0,2.05822,-2.83137e-07,,0.0,,mongenerator-battery_634,,,
300,0.0,0.758928,-3.05728e-08,,0.0,,mongenerator-battery_634,,,
301,0.0,1.72143,-5.14276e-07,,0.0,,mongenerator-battery_634,,,
302,0.0,0.95783,-0.000122099,,0.0,,mongenerator-battery_634,,,
303,0.0,0.222637,-6.16693e-08,,0.0,,mongenerator-battery_634,,,
304,0.0,0.0,0.0,,0.0,,mongenerator-battery_634,,,
305,0.0,0.0,0.0,,0.0,,mongenerator-battery_634,,,
306,0.0,-0.310017,-6.99923e-07,,0.0,,mongenerator-battery_634,,,
307,0.0,-0.967257,-1.97989e-06,,0.0,,mongenerator-battery_634,,,
308,0.0,-0.633088,-6.10176e-07,,0.0,,mongenerator-battery_634,,,
309,0.0,-0.0545711,-3.90612e-08,,0.0,,mongenerator-battery_634,,,
310,0.0,0.0,0.0,,0.0,,mongenerator-battery_634,,,
311,0.0,0.0,0.0,,0.0,,mongenerator-battery_634,,,
312,0.0,0.0,0.0,,0.0,,mongenerator-battery_634,,,
313,0.0,0.0,0.0,,0.0,,mongenerator-battery_634,,,
314,0.0,0.0,0.0,,0.0,,mongenerator-battery_634,,,
315,0.0,0.0,0.0,,0.0,,mongenerator-battery_634,,,
316,0.0,0.0,0.0,,0.0,,mongenerator-battery_634,,,
317,0.0,0.0,0.0,,0.0,,mongenerator-battery_634,,,
318,0.0,0.0,0.0,,0.0,,mongenerator-battery_634,,,
319,0.0,0.0,0.0,,0.0,,mongenerator-battery_634,,,
320,0.0,0.0,0.0,,0.0,,mongenerator-battery_634,,,
321,0.0,0.0,0.0,,0.0,,mongenerator-battery_634,,,
322,0.0,0.0,0.0,,0.0,,mongenerator-battery_634,,,
323,0.0,0.0,0.0,,0.0,,mongenerator-battery_634,,,
324,0.0,0.0,0.0,,0.0,,mongenerator-battery_634,,,
325,0.0,0.0,0.0,,0.0,,mongenerator-battery_634,,,
326,0.0,0.0,0.0,,0.0,,mongenerator-battery_634,,,
327,0.0,0.0,0.0,,0.0,,mongenerator-battery_634,,,
328,0.0,0.0,0.0,,0.0,,mongenerator-battery_634,,,
329,0.0,-0.0657809,1.79684e-08,,0.0,,mongenerator-battery_634,,,
330,0.0,-1.35776,2.03946e-06,,0.0,,mongenerator-battery_634,,,
331,0.0,-1.0524,1.4094e-06,,0.0,,mongenerator-battery_634,,,
332,0.0,-0.102741,-6.40905e-08,,0.0,,mongenerator-battery_634,,,
333,0.0,0.0,0.0,,0.0,,mongenerator-battery_634,,,
334,0.0,0.0,0.0,,0.0,,mongenerator-battery_634,,,
335,0.0,0.0,0.0,,0.0,,mongenerator-battery_634,,,
336,0.0,0.0,0.0,,0.0,,mongenerator-battery_634,,,
337,0.0,0.0,0.0,,0.0,,mongenerator-battery_634,,,
338,0.0,0.0,0.0,,0.0,,mongenerator-battery_634,,,
339,0.0,0.0,0.0,,0.0,,mongenerator-battery_634,,,
340,0.0,0.0,0.0,,0.0,,mongenerator-battery_634,,,
341,0.0,0.0,0.0,,0.0,,mongenerator-battery_634,,,
342,0.0,0.0,0.0,,0.0,,mongenerator-battery_634,,,
343,0.0,0.0,0.0,,0.0,,mongenerator-battery_634,,,
344,0.0,0.0,0.0,,0.0,,mongenerator-battery_634,,,
345,0.0,-0.0265742,-1.89118e-08,,0.0,,mongenerator-battery_634,,,
346,0.0,-2.24771,6.57131e-07,,0.0,,mongenerator-battery_634,,,
347,0.0,1.34976,-7.50271e-07,,0.0,,mongenerator-battery_634,,,
348,0.0,2.24771,-8.99899e-07,,0.0,,mongenerator-battery_634,,,
349,0.0,2.24761,-0.000159762,,0.0,,mongenerator-battery_634,,,
350,0.0,1.74243,-8.69015e-07,,0.0,,mongenerator-battery_634,,,
351,0.0,0.0,0.0,,0.0,,mongenerator-battery_634,,,
352,0.0,0.0,0.0,,0.0,,mongenerator-battery_634,,,
353,0.0,0.0,0.0,,0.0,,mongenerator-battery_634,,,
354,0.0,0.0,0.0,,0.0,,mongenerator-battery_634,,,
355,0.0,0.0,0.0,,0.0,,mongenerator-battery_634,,,
356,0.0,0.0,0.0,,0.0,,mongenerator-battery_634,,,
357,0.0,0.0,0.0,,0.0,,mongenerator-battery_634,,,
358,0.0,0.0,0.0,,0.0,,mongenerator-battery_634,,,
359,0.0,0.0,0.0,,0.0,,mongenerator-battery_634,,,
360,0.0,0.0,0.0,,0.0,,mongenerator-battery_634,,,
361,0.0,0.0,0.0,,0.0,,mongenerator-battery_634,,,
362,0.0,0.0,0.0,,0.0,,mongenerator-battery_634,,,
363,0.0,0.0,0.0,,0.0,,mongenerator-battery_634,,,
364,0.0,0.0,0.0,,0.0,,mongenerator-battery_634,,,
365,0.0,0.0,0.0,,0.0,,mongenerator-battery_634,,,
366,0.0,0.0,0.0,,0.0,,mongenerator-battery_634,,,
367,0.0,-1.63953,4.40674e-05,,0.0,,mongenerator-battery_634,,,
368,0.0,-2.24771,-4.72044e-07,,0.0,,mongenerator-battery_634,,,
369,0.0,-2.02223,5.08439e-07,,0.0,,mongenerator-battery_634,,,
370,0.0,1.06047,3.64573e-05,,0.0,,mongenerator-battery_634,,,
371,0.0,2.01284,-1.04801e-06,,0.0,,mongenerator-battery_634,,,
372,0.0,0.452701,-3.04639e-06,,0.0,,mongenerator-battery_634,,,
