hour,t(sec),V1,VAngle1,V2,VAngle2,I1,IAngle1,I2,IAngle2,V3,Name,VAngle3,I3,IAngle3,V4,VAngle4,I4,IAngle4,kv,V1(PU),V2(PU),V3(PU)
1,0.0,,111.165,,0.0,20.2518,111.168,20.2518,-68.8319,2404.75,monload-611_runway,,,,,,,,2.4,,,1.0019791666666666
2,0.0,,111.154,,0.0,21.49,111.155,21.49,-68.8452,2404.39,monload-611_runway,,,,,,,,2.4,,,1.0018291666666665
3,0.0,,111.181,,0.0,18.735,111.179,18.735,-68.8214,2405.56,monload-611_runway,,,,,,,,2.4,,,1.0023166666666667
4,0.0,,111.186,,0.0,18.1696,111.186,18.1696,-68.8143,2405.8,monload-611_runway,,,,,,,,2.4,,,1.0024166666666667
5,0.0,,110.956,,0.0,18.3433,110.958,18.3433,-69.0416,2395.04,monload-611_runway,,,,,,,,2.4,,,0.9979333333333333
6,0.0,,110.814,,0.0,19.8621,110.811,19.8621,-69.1891,2387.96,monload-611_runway,,,,,,,,2.4,,,0.9949833333333333
7,0.0,,109.959,,0.0,29.8483,109.96,29.8483,-70.0404,2347.84,monload-611_runway,,,,,,,,2.4,,,0.9782666666666667
8,0.0,,110.533,,0.0,31.8618,110.533,31.8618,-69.4669,2376.63,monload-611_runway,,,,,,,,2.4,,,0.9902625
9,0.0,,111.07,,0.0,44.0268,111.071,44.0268,-68.9292,2405.53,monload-611_runway,,,,,,,,2.4,,,1.0023041666666668
10,0.0,,111.28,,0.0,37.8158,111.279,37.8158,-68.7208,2415.09,monload-611_runway,,,,,,,,2.4,,,1.0062875
11,0.0,,112.295,,0.0,26.7204,112.3,26.7204,-67.7004,2447.33,monload-611_runway,,,,,,,,2.4,,,1.0197208333333334
12,0.0,,113.849,,0.0,25.0426,113.853,25.0426,-66.1475,2505.68,monload-611_runway,,,,,,,,2.4,,,1.0440333333333334
13,0.0,,114.095,,0.0,24.9564,114.093,24.9564,-65.9074,2516.94,monload-611_runway,,,,,,,,2.4,,,1.0487250000000001
14,0.0,,113.996,,0.0,24.9959,113.998,24.9959,-66.0025,2512.18,monload-611_runway,,,,,,,,2.4,,,1.0467416666666667
15,0.0,,113.517,,0.0,24.9268,113.522,24.9268,-66.4783,2489.87,monload-611_runway,,,,,,,,2.4,,,1.0374458333333332
16,0.0,,112.675,,0.0,24.7866,112.675,24.7866,-67.3248,2450.15,monload-611_runway,,,,,,,,2.4,,,1.0208958333333333
17,0.0,,111.332,,0.0,25.989,111.332,25.989,-68.668,2385.65,monload-611_runway,,,,,,,,2.4,,,0.9940208333333334
18,0.0,,109.842,,0.0,31.4301,109.842,31.4301,-70.1581,2327.65,monload-611_runway,,,,,,,,2.4,,,0.9698541666666667
19,0.0,,109.525,,0.0,43.1551,109.52,43.1551,-70.4798,2327.53,monload-611_runway,,,,,,,,2.4,,,0.9698041666666668
20,0.0,,109.538,,0.0,45.3034,109.536,45.3034,-70.4644,2328.27,monload-611_runway,,,,,,,,2.4,,,0.9701125
21,0.0,,109.705,,0.0,47.8087,109.702,47.8087,-70.2975,2336.25,monload-611_runway,,,,,,,,2.4,,,0.9734375
22,0.0,,109.901,,0.0,46.4444,109.899,46.4444,-70.1012,2345.85,monload-611_runway,,,,,,,,2.4,,,0.9774375
23,0.0,,110.466,,0.0,35.6973,110.465,35.6973,-69.5349,2372.48,monload-611_runway,,,,,,,,2.4,,,0.9885333333333334
24,0.0,,110.872,,0.0,22.9122,110.866,22.9122,-69.1337,2391.37,monload-611_runway,,,,,,,,2.4,,,0.9964041666666666
25,0.0,,111.018,,0.0,18.6667,111.016,18.6667,-68.9844,2398.27,monload-611_runway,,,,,,,,2.4,,,0.9992791666666666
26,0.0,,111.026,,0.0,17.8494,111.025,17.8494,-68.975,2398.64,monload-611_runway,,,,,,,,2.4,,,0.9994333333333333
27,0.0,,111.043,,0.0,16.9263,111.041,16.9263,-68.9588,2399.41,monload-611_runway,,,,,,,,2.4,,,0.9997541666666666
28,0.0,,111.045,,0.0,17.0116,111.045,17.0116,-68.9551,2399.49,monload-611_runway,,,,,,,,2.4,,,0.9997874999999999
29,0.0,,110.231,,0.0,17.6802,110.233,17.6802,-69.7673,2361.45,monload-611_runway,,,,,,,,2.4,,,0.9839374999999999
30,0.0,,109.92,,0.0,21.26,109.925,21.26,-70.0754,2346.65,monload-611_runway,,,,,,,,2.4,,,0.9777708333333334
31,0.0,,108.051,,0.0,33.0635,108.055,33.0635,-71.9451,2272.16,monload-611_runway,,,,,,,,2.4,,,0.9467333333333333
32,0.0,,107.488,,0.0,34.2956,107.489,34.2956,-72.5111,2245.47,monload-611_runway,,,,,,,,2.4,,,0.9356125
33,0.0,,107.533,,0.0,30.3307,107.532,30.3307,-72.4676,2248.78,monload-611_runway,,,,,,,,2.4,,,0.9369916666666668
34,0.0,,108.485,,0.0,31.0977,108.486,31.0977,-71.5135,2300.76,monload-611_runway,,,,,,,,2.4,,,0.9586500000000001
35,0.0,,109.436,,0.0,25.135,109.435,25.135,-70.5646,2349.03,monload-611_runway,,,,,,,,2.4,,,0.9787625000000001
36,0.0,,109.213,,0.0,26.0047,109.214,26.0047,-70.786,2338.24,monload-611_runway,,,,,,,,2.4,,,0.9742666666666666
37,0.0,,109.369,,0.0,26.4116,109.366,26.4116,-70.6337,2345.4,monload-611_runway,,,,,,,,2.4,,,0.9772500000000001
38,0.0,,109.255,,0.0,25.3752,109.259,25.3752,-70.7414,2340.49,monload-611_runway,,,,,,,,2.4,,,0.9752041666666665
39,0.0,,108.795,,0.0,24.5082,108.798,24.5082,-71.2021,2316.82,monload-611_runway,,,,,,,,2.4,,,0.9653416666666668
40,0.0,,108.929,,0.0,24.748,108.933,24.748,-71.0672,2323.83,monload-611_runway,,,,,,,,2.4,,,0.9682624999999999
41,0.0,,107.675,,0.0,25.6108,107.67,25.6108,-72.3302,2258.6,monload-611_runway,,,,,,,,2.4,,,0.9410833333333333
42,0.0,,107.016,,0.0,30.8152,107.015,30.8152,-72.9847,2222.15,monload-611_runway,,,,,,,,2.4,,,0.9258958333333334
43,0.0,,107.891,,0.0,38.5083,107.891,38.5083,-72.1086,2263.84,monload-611_runway,,,,,,,,2.4,,,0.9432666666666667
44,0.0,,107.887,,0.0,40.8684,107.887,40.8684,-72.1132,2263.75,monload-611_runway,,,,,,,,2.4,,,0.9432291666666667
45,0.0,,108.659,,0.0,45.1231,108.661,45.1231,-71.3393,2301.3,monload-611_runway,,,,,,,,2.4,,,0.958875
46,0.0,,109.094,,0.0,42.3023,109.093,42.3023,-70.9069,2322.49,monload-611_runway,,,,,,,,2.4,,,0.9677041666666666
47,0.0,,110.145,,0.0,30.8497,110.143,30.8497,-69.857,2372.25,monload-611_runway,,,,,,,,2.4,,,0.9884375
48,0.0,,110.504,,0.0,21.1497,110.498,21.1497,-69.5021,2389.21,monload-611_runway,,,,,,,,2.4,,,0.9955041666666666
49,0.0,,110.658,,0.0,18.8942,110.655,18.8942,-69.345,2396.57,monload-611_runway,,,,,,,,2.4,,,0.9985708333333334
50,0.0,,110.702,,0.0,18.3946,110.695,18.3946,-69.3048,2398.61,monload-611_runway,,,,,,,,2.4,,,0.9994208333333334
51,0.0,,110.757,,0.0,17.8874,110.756,17.8874,-69.2443,2401.14,monload-611_runway,,,,,,,,2.4,,,1.000475
52,0.0,,110.751,,0.0,18.4384,110.752,18.4384,-69.2479,2400.9,monload-611_runway,,,,,,,,2.4,,,1.000375
53,0.0,,109.924,,0.0,19.6598,109.926,19.6598,-70.0742,2361.83,monload-611_runway,,,,,,,,2.4,,,0.9840958333333333
54,0.0,,109.594,,0.0,23.9779,109.6,23.9779,-70.4002,2345.95,monload-611_runway,,,,,,,,2.4,,,0.9774791666666666
55,0.0,,107.782,,0.0,35.3719,107.783,35.3719,-72.2169,2259.05,monload-611_runway,,,,,,,,2.4,,,0.9412708333333334
56,0.0,,107.589,,0.0,35.5138,107.577,35.5138,-72.423,2252.15,monload-611_runway,,,,,,,,2.4,,,0.9383958333333333
57,0.0,,108.129,,0.0,31.5574,108.147,31.5574,-71.8532,2281.86,monload-611_runway,,,,,,,,2.4,,,0.950775
58,0.0,,108.558,,0.0,31.2533,108.555,31.2533,-71.4451,2304.72,monload-611_runway,,,,,,,,2.4,,,0.9602999999999999
59,0.0,,109.386,,0.0,24.7817,109.383,24.7817,-70.6169,2346.48,monload-611_runway,,,,,,,,2.4,,,0.9777
60,0.0,,109.393,,0.0,25.9092,109.392,25.9092,-70.6085,2346.73,monload-611_runway,,,,,,,,2.4,,,0.9778041666666667
61,0.0,,109.659,,0.0,27.1001,109.657,27.1001,-70.3428,2359.18,monload-611_runway,,,,,,,,2.4,,,0.9829916666666666
62,0.0,,110.247,,0.0,27.5835,110.247,27.5835,-69.7528,2390.44,monload-611_runway,,,,,,,,2.4,,,0.9960166666666667
63,0.0,,108.396,,0.0,27.9419,108.398,27.9419,-71.6019,2296.12,monload-611_runway,,,,,,,,2.4,,,0.9567166666666667
64,0.0,,108.533,,0.0,28.0794,108.528,28.0794,-71.4716,2303.36,monload-611_runway,,,,,,,,2.4,,,0.9597333333333334
65,0.0,,107.5,,0.0,28.1085,107.5,28.1085,-72.5003,2248.96,monload-611_runway,,,,,,,,2.4,,,0.9370666666666667
66,0.0,,107.114,,0.0,31.7979,107.114,31.7979,-72.8863,2226.84,monload-611_runway,,,,,,,,2.4,,,0.9278500000000001
67,0.0,,108.125,,0.0,38.6422,108.125,38.6422,-71.875,2275.23,monload-611_runway,,,,,,,,2.4,,,0.9480125
68,0.0,,108.132,,0.0,40.7897,108.132,40.7897,-71.8676,2275.7,monload-611_runway,,,,,,,,2.4,,,0.9482083333333332
69,0.0,,108.949,,0.0,44.806,108.951,44.806,-71.0492,2315.22,monload-611_runway,,,,,,,,2.4,,,0.964675
70,0.0,,109.336,,0.0,41.9513,109.335,41.9513,-70.6648,2334.02,monload-611_runway,,,,,,,,2.4,,,0.9725083333333333
71,0.0,,110.357,,0.0,30.874,110.355,30.874,-69.6451,2382.24,monload-611_runway,,,,,,,,2.4,,,0.9925999999999999
72,0.0,,110.727,,0.0,21.1947,110.721,21.1947,-69.2791,2399.7,monload-611_runway,,,,,,,,2.4,,,0.999875
73,0.0,,110.916,,0.0,18.5785,110.919,18.5785,-69.0809,2393.4,monload-611_runway,,,,,,,,2.4,,,0.9972500000000001
74,0.0,,110.944,,0.0,17.7129,110.942,17.7129,-69.0585,2394.71,monload-611_runway,,,,,,,,2.4,,,0.9977958333333333
75,0.0,,110.975,,0.0,16.7422,110.972,16.7422,-69.0277,2396.15,monload-611_runway,,,,,,,,2.4,,,0.9983958333333334
76,0.0,,110.972,,0.0,16.8093,110.972,16.8093,-69.0276,2396.02,monload-611_runway,,,,,,,,2.4,,,0.9983416666666667
77,0.0,,110.156,,0.0,17.5128,110.156,17.5128,-69.8436,2357.82,monload-611_runway,,,,,,,,2.4,,,0.9824250000000001
78,0.0,,109.951,,0.0,20.9229,109.953,20.9229,-70.0475,2348.0,monload-611_runway,,,,,,,,2.4,,,0.9783333333333334
79,0.0,,108.039,,0.0,32.5945,108.043,32.5945,-71.9572,2271.72,monload-611_runway,,,,,,,,2.4,,,0.9465499999999999
80,0.0,,107.438,,0.0,34.3975,107.439,34.3975,-72.561,2243.16,monload-611_runway,,,,,,,,2.4,,,0.93465
81,0.0,,107.714,,0.0,30.5187,107.714,30.5187,-72.2862,2258.89,monload-611_runway,,,,,,,,2.4,,,0.9412041666666666
82,0.0,,108.74,,0.0,30.1071,108.742,30.1071,-71.2584,2313.78,monload-611_runway,,,,,,,,2.4,,,0.9640750000000001
83,0.0,,109.468,,0.0,23.08,109.465,23.08,-70.5349,2350.28,monload-611_runway,,,,,,,,2.4,,,0.9792833333333334
84,0.0,,109.302,,0.0,23.6213,109.307,23.6213,-70.6934,2342.35,monload-611_runway,,,,,,,,2.4,,,0.9759791666666666
85,0.0,,108.997,,0.0,24.733,108.999,24.733,-71.001,2325.99,monload-611_runway,,,,,,,,2.4,,,0.9691624999999999
86,0.0,,108.315,,0.0,26.0612,108.314,26.0612,-71.6865,2292.26,monload-611_runway,,,,,,,,2.4,,,0.9551083333333334
87,0.0,,109.124,,0.0,26.4039,109.121,26.4039,-70.8786,2334.45,monload-611_runway,,,,,,,,2.4,,,0.9726874999999999
88,0.0,,107.861,,0.0,26.2,107.854,26.2,-72.1464,2269.19,monload-611_runway,,,,,,,,2.4,,,0.9454958333333333
89,0.0,,107.148,,0.0,26.9432,107.15,26.9432,-72.8498,2231.42,monload-611_runway,,,,,,,,2.4,,,0.9297583333333334
90,0.0,,106.788,,0.0,32.9663,106.787,32.9663,-73.2128,2225.27,monload-611_runway,,,,,,,,2.4,,,0.9271958333333333
91,0.0,,107.672,,0.0,41.223,107.664,41.223,-72.336,2267.66,monload-611_runway,,,,,,,,2.4,,,0.9448583333333332
92,0.0,,107.667,,0.0,44.2875,107.667,44.2875,-72.3332,2267.5,monload-611_runway,,,,,,,,2.4,,,0.9447916666666667
93,0.0,,108.284,,0.0,49.2734,108.282,49.2734,-71.7176,2297.21,monload-611_runway,,,,,,,,2.4,,,0.9571708333333333
94,0.0,,108.9,,0.0,46.4184,108.904,46.4184,-71.0957,2327.98,monload-611_runway,,,,,,,,2.4,,,0.9699916666666667
95,0.0,,109.901,,0.0,34.3923,109.905,34.3923,-70.0947,2360.83,monload-611_runway,,,,,,,,2.4,,,0.9836791666666667
96,0.0,,110.279,,0.0,24.0131,110.274,24.0131,-69.7262,2378.84,monload-611_runway,,,,,,,,2.4,,,0.9911833333333334
97,0.0,,110.498,,0.0,21.7964,110.496,21.7964,-69.5041,2389.39,monload-611_runway,,,,,,,,2.4,,,0.9955791666666666
98,0.0,,110.55,,0.0,20.8093,110.545,20.8093,-69.4554,2391.83,monload-611_runway,,,,,,,,2.4,,,0.9965958333333333
99,0.0,,110.593,,0.0,19.5335,110.589,19.5335,-69.4109,2393.86,monload-611_runway,,,,,,,,2.4,,,0.9974416666666667
100,0.0,,110.654,,0.0,19.3539,110.653,19.3539,-69.3468,2396.69,monload-611_runway,,,,,,,,2.4,,,0.9986208333333334
101,0.0,,109.931,,0.0,19.795,109.932,19.795,-70.0681,2362.51,monload-611_runway,,,,,,,,2.4,,,0.9843791666666668
102,0.0,,109.63,,0.0,23.6849,109.633,23.6849,-70.3667,2348.04,monload-611_runway,,,,,,,,2.4,,,0.9783499999999999
103,0.0,,107.632,,0.0,37.926,107.635,37.926,-72.3654,2252.08,monload-611_runway,,,,,,,,2.4,,,0.9383666666666667
104,0.0,,107.048,,0.0,41.6067,107.044,41.6067,-72.9561,2224.51,monload-611_runway,,,,,,,,2.4,,,0.9268791666666668
105,0.0,,107.009,,0.0,38.7259,107.008,38.7259,-72.9916,2223.56,monload-611_runway,,,,,,,,2.4,,,0.9264833333333333
106,0.0,,107.363,,0.0,41.766,107.364,41.766,-72.636,2244.75,monload-611_runway,,,,,,,,2.4,,,0.9353125
107,0.0,,107.561,,0.0,36.3546,107.561,36.3546,-72.4388,2255.31,monload-611_runway,,,,,,,,2.4,,,0.9397125
108,0.0,,108.228,,0.0,34.924,108.227,34.924,-71.7733,2290.26,monload-611_runway,,,,,,,,2.4,,,0.9542750000000001
109,0.0,,108.489,,0.0,35.3309,108.487,35.3309,-71.5134,2302.18,monload-611_runway,,,,,,,,2.4,,,0.9592416666666665
110,0.0,,107.814,,0.0,35.9497,107.813,35.9497,-72.1872,2268.0,monload-611_runway,,,,,,,,2.4,,,0.945
111,0.0,,107.798,,0.0,36.3418,107.798,36.3418,-72.202,2267.3,monload-611_runway,,,,,,,,2.4,,,0.9447083333333334
112,0.0,,107.45,,0.0,35.3194,107.45,35.3194,-72.5501,2248.41,monload-611_runway,,,,,,,,2.4,,,0.9368375
113,0.0,,106.784,,0.0,36.3976,106.783,36.3976,-73.2168,2226.42,monload-611_runway,,,,,,,,2.4,,,0.927675
114,0.0,,106.754,,0.0,41.2412,106.753,41.2412,-73.2469,2223.26,monload-611_runway,,,,,,,,2.4,,,0.9263583333333334
115,0.0,,107.759,,0.0,48.1055,107.753,48.1055,-72.2469,2271.52,monload-611_runway,,,,,,,,2.4,,,0.9464666666666667
116,0.0,,107.777,,0.0,50.7067,107.777,50.7067,-72.2235,2272.54,monload-611_runway,,,,,,,,2.4,,,0.9468916666666667
117,0.0,,108.598,,0.0,55.1034,108.596,55.1034,-71.4042,2312.72,monload-611_runway,,,,,,,,2.4,,,0.9636333333333332
118,0.0,,109.037,,0.0,52.4571,109.039,52.4571,-70.9605,2334.28,monload-611_runway,,,,,,,,2.4,,,0.9726166666666668
119,0.0,,110.088,,0.0,40.733,110.092,40.733,-69.9084,2369.42,monload-611_runway,,,,,,,,2.4,,,0.9872583333333333
120,0.0,,110.526,,0.0,29.5798,110.521,29.5798,-69.4794,2390.29,monload-611_runway,,,,,,,,2.4,,,0.9959541666666667
121,0.0,,110.801,,0.0,25.8806,110.804,25.8806,-69.1957,2388.23,monload-611_runway,,,,,,,,2.4,,,0.9950958333333333
122,0.0,,110.851,,0.0,24.5759,110.846,24.5759,-69.1538,2390.59,monload-611_runway,,,,,,,,2.4,,,0.9960791666666667
123,0.0,,110.9,,0.0,22.9971,110.895,22.9971,-69.1047,2392.85,monload-611_runway,,,,,,,,2.4,,,0.9970208333333332
124,0.0,,110.923,,0.0,22.3842,110.92,22.3842,-69.0795,2393.95,monload-611_runway,,,,,,,,2.4,,,0.9974791666666666
125,0.0,,110.102,,0.0,22.8134,110.103,22.8134,-69.8975,2355.51,monload-611_runway,,,,,,,,2.4,,,0.9814625000000001
126,0.0,,109.847,,0.0,26.7316,109.85,26.7316,-70.1502,2343.33,monload-611_runway,,,,,,,,2.4,,,0.9763875
127,0.0,,107.853,,0.0,40.9786,107.857,40.9786,-72.1425,2262.79,monload-611_runway,,,,,,,,2.4,,,0.9428291666666666
128,0.0,,107.2,,0.0,44.5315,107.2,44.5315,-72.7998,2231.66,monload-611_runway,,,,,,,,2.4,,,0.9298583333333332
129,0.0,,106.883,,0.0,43.0473,106.883,43.0473,-73.1167,2230.49,monload-611_runway,,,,,,,,2.4,,,0.9293708333333333
130,0.0,,106.707,,0.0,43.1709,106.707,43.1709,-73.2932,2222.22,monload-611_runway,,,,,,,,2.4,,,0.9259249999999999
131,0.0,,107.247,,0.0,37.8069,107.246,37.8069,-72.7542,2251.26,monload-611_runway,,,,,,,,2.4,,,0.9380250000000001
132,0.0,,106.752,,0.0,38.0487,106.752,38.0487,-73.2479,2224.67,monload-611_runway,,,,,,,,2.4,,,0.9269458333333334
133,0.0,,107.542,,0.0,39.5015,107.538,39.5015,-72.4624,2266.49,monload-611_runway,,,,,,,,2.4,,,0.9443708333333333
134,0.0,,107.367,,0.0,39.9155,107.36,39.9155,-72.64,2258.41,monload-611_runway,,,,,,,,2.4,,,0.9410041666666666
135,0.0,,107.17,,0.0,39.419,107.17,39.419,-72.8297,2247.69,monload-611_runway,,,,,,,,2.4,,,0.9365375
136,0.0,,106.734,,0.0,37.7406,106.733,37.7406,-73.2666,2223.69,monload-611_runway,,,,,,,,2.4,,,0.9265375
137,0.0,,106.534,,0.0,36.6791,106.534,36.6791,-73.4661,2212.73,monload-611_runway,,,,,,,,2.4,,,0.9219708333333333
138,0.0,,106.364,,0.0,41.3509,106.364,41.3509,-73.6355,2202.0,monload-611_runway,,,,,,,,2.4,,,0.9175
139,0.0,,107.502,,0.0,49.4752,107.502,49.4752,-72.498,2258.31,monload-611_runway,,,,,,,,2.4,,,0.9409624999999999
140,0.0,,107.546,,0.0,52.2087,107.547,52.2087,-72.4528,2260.73,monload-611_runway,,,,,,,,2.4,,,0.9419708333333333
141,0.0,,108.292,,0.0,57.1881,108.29,57.1881,-71.7096,2297.34,monload-611_runway,,,,,,,,2.4,,,0.9572250000000001
142,0.0,,109.019,,0.0,51.6617,109.022,51.6617,-70.9779,2333.37,monload-611_runway,,,,,,,,2.4,,,0.9722375
143,0.0,,110.278,,0.0,37.0848,110.282,37.0848,-69.7181,2378.74,monload-611_runway,,,,,,,,2.4,,,0.9911416666666666
144,0.0,,110.709,,0.0,25.3175,110.704,25.3175,-69.2957,2399.09,monload-611_runway,,,,,,,,2.4,,,0.9996208333333334
145,0.0,,110.882,,0.0,23.1146,110.886,23.1146,-69.1143,2392.09,monload-611_runway,,,,,,,,2.4,,,0.9967041666666667
146,0.0,,110.871,,0.0,22.7156,110.872,22.7156,-69.1278,2391.62,monload-611_runway,,,,,,,,2.4,,,0.9965083333333333
147,0.0,,110.933,,0.0,19.4987,110.928,19.4987,-69.0725,2394.41,monload-611_runway,,,,,,,,2.4,,,0.9976708333333333
148,0.0,,110.948,,0.0,19.1538,110.946,19.1538,-69.0536,2395.1,monload-611_runway,,,,,,,,2.4,,,0.9979583333333333
149,0.0,,110.722,,0.0,19.44,110.724,19.44,-69.2761,2384.46,monload-611_runway,,,,,,,,2.4,,,0.993525
150,0.0,,110.574,,0.0,20.7921,110.575,20.7921,-69.4251,2377.29,monload-611_runway,,,,,,,,2.4,,,0.9905375
151,0.0,,109.708,,0.0,30.6613,109.707,30.6613,-70.2932,2336.8,monload-611_runway,,,,,,,,2.4,,,0.9736666666666668
152,0.0,,109.063,,0.0,32.5578,109.064,32.5578,-70.9358,2305.91,monload-611_runway,,,,,,,,2.4,,,0.9607958333333333
153,0.0,,109.986,,0.0,45.5458,109.983,45.5458,-70.017,2353.69,monload-611_runway,,,,,,,,2.4,,,0.9807041666666667
154,0.0,,110.26,,0.0,40.6198,110.262,40.6198,-69.7384,2369.73,monload-611_runway,,,,,,,,2.4,,,0.9873875
155,0.0,,111.075,,0.0,31.8176,111.075,31.8176,-68.9246,2409.78,monload-611_runway,,,,,,,,2.4,,,1.004075
156,0.0,,112.643,,0.0,31.3428,112.644,31.3428,-67.3563,2470.5,monload-611_runway,,,,,,,,2.4,,,1.029375
157,0.0,,113.092,,0.0,32.0281,113.091,32.0281,-66.909,2490.22,monload-611_runway,,,,,,,,2.4,,,1.0375916666666667
158,0.0,,113.024,,0.0,31.7662,113.024,31.7662,-66.9755,2487.34,monload-611_runway,,,,,,,,2.4,,,1.0363916666666668
159,0.0,,112.492,,0.0,32.0361,112.493,32.0361,-67.5066,2461.92,monload-611_runway,,,,,,,,2.4,,,1.0258
160,0.0,,111.95,,0.0,33.0122,111.951,33.0122,-68.049,2434.31,monload-611_runway,,,,,,,,2.4,,,1.0142958333333334
161,0.0,,110.465,,0.0,33.2851,110.466,33.2851,-69.5339,2361.63,monload-611_runway,,,,,,,,2.4,,,0.9840125000000001
162,0.0,,108.965,,0.0,36.5459,108.964,36.5459,-71.0363,2301.19,monload-611_runway,,,,,,,,2.4,,,0.9588291666666667
163,0.0,,108.635,,0.0,47.5561,108.636,47.5561,-71.3639,2285.14,monload-611_runway,,,,,,,,2.4,,,0.9521416666666667
164,0.0,,108.679,,0.0,49.2997,108.676,49.2997,-71.3235,2287.39,monload-611_runway,,,,,,,,2.4,,,0.9530791666666666
165,0.0,,109.377,,0.0,51.8892,109.376,51.8892,-70.624,2320.71,monload-611_runway,,,,,,,,2.4,,,0.9669625000000001
166,0.0,,109.561,,0.0,51.0972,109.558,51.0972,-70.4422,2329.82,monload-611_runway,,,,,,,,2.4,,,0.9707583333333334
167,0.0,,110.171,,0.0,40.8171,110.17,40.8171,-69.8298,2358.83,monload-611_runway,,,,,,,,2.4,,,0.9828458333333333
168,0.0,,110.634,,0.0,27.8677,110.626,27.8677,-69.3742,2380.56,monload-611_runway,,,,,,,,2.4,,,0.9919
169,0.0,,110.999,,0.0,23.6005,110.992,23.6005,-69.0078,2397.7,monload-611_runway,,,,,,,,2.4,,,0.9990416666666666
170,0.0,,111.034,,0.0,23.0303,111.035,23.0303,-68.9645,2399.21,monload-611_runway,,,,,,,,2.4,,,0.9996708333333334
171,0.0,,111.12,,0.0,19.8099,111.12,19.8099,-68.8805,2403.01,monload-611_runway,,,,,,,,2.4,,,1.0012541666666668
172,0.0,,111.127,,0.0,19.6465,111.126,19.6465,-68.8739,2403.31,monload-611_runway,,,,,,,,2.4,,,1.0013791666666667
173,0.0,,110.876,,0.0,20.1694,110.878,20.1694,-69.1219,2391.56,monload-611_runway,,,,,,,,2.4,,,0.9964833333333333
174,0.0,,110.709,,0.0,21.5583,110.71,21.5583,-69.2896,2383.53,monload-611_runway,,,,,,,,2.4,,,0.9931375000000001
175,0.0,,109.833,,0.0,31.2002,109.834,31.2002,-70.1662,2342.41,monload-611_runway,,,,,,,,2.4,,,0.9760041666666666
176,0.0,,110.239,,0.0,33.3904,110.239,33.3904,-69.7606,2362.41,monload-611_runway,,,,,,,,2.4,,,0.9843375
177,0.0,,110.435,,0.0,49.5935,110.434,49.5935,-69.5662,2374.95,monload-611_runway,,,,,,,,2.4,,,0.9895624999999999
178,0.0,,110.721,,0.0,48.4258,110.72,48.4258,-69.2802,2389.4,monload-611_runway,,,,,,,,2.4,,,0.9955833333333334
179,0.0,,110.812,,0.0,39.6712,110.81,39.6712,-69.1896,2393.34,monload-611_runway,,,,,,,,2.4,,,0.997225
