hour,t(sec),V1,VAngle1,V2,VAngle2,V3,VAngle3,I1,IAngle1,I2,IAngle2,I3,IAngle3,Name,P1(kW),P2(kW),P3(kW)
1,0.0,277.128,1.93668e-08,,,,,0.0,0.0,,,,,monvsource-lead_gen_634,0.0,,
2,0.0,277.128,1.93668e-08,,,,,0.0,0.0,,,,,monvsource-lead_gen_634,0.0,,
3,0.0,277.128,1.93668e-08,,,,,0.0,0.0,,,,,monvsource-lead_gen_634,0.0,,
4,0.0,277.128,1.93668e-08,,,,,0.0,0.0,,,,,monvsource-lead_gen_634,0.0,,
5,0.0,277.128,1.93668e-08,,,,,0.0,0.0,,,,,monvsource-lead_gen_634,0.0,,
6,0.0,277.128,1.93668e-08,,,,,0.0,0.0,,,,,monvsource-lead_gen_634,0.0,,
7,0.0,277.128,1.93668e-08,,,,,0.0,0.0,,,,,monvsource-lead_gen_634,0.0,,
8,0.0,277.128,1.93668e-08,,,,,0.0,0.0,,,,,monvsource-lead_gen_634,0.0,,
9,0.0,277.128,1.93668e-08,,,,,0.0,0.0,,,,,monvsource-lead_gen_634,0.0,,
10,0.0,277.128,1.93668e-08,,,,,0.0,0.0,,,,,monvsource-lead_gen_634,0.0,,
11,0.0,277.128,1.93668e-08,,,,,0.0,0.0,,,,,monvsource-lead_gen_634,0.0,,
12,0.0,277.128,1.93668e-08,,,,,0.0,0.0,,,,,monvsource-lead_gen_634,0.0,,
13,0.0,277.128,1.93668e-08,,,,,0.0,0.0,,,,,monvsource-lead_gen_634,0.0,,
14,0.0,277.128,1.93668e-08,,,,,0.0,0.0,,,,,monvsource-lead_gen_634,0.0,,
15,0.0,277.128,1.93668e-08,,,,,0.0,0.0,,,,,monvsource-lead_gen_634,0.0,,
16,0.0,277.128,1.93668e-08,,,,,0.0,0.0,,,,,monvsource-lead_gen_634,0.0,,
17,0.0,277.128,1.93668e-08,,,,,0.0,0.0,,,,,monvsource-lead_gen_634,0.0,,
18,0.0,277.128,1.93668e-08,,,,,0.0,0.0,,,,,monvsource-lead_gen_634,0.0,,
19,0.0,277.128,1.93668e-08,,,,,0.0,0.0,,,,,monvsource-lead_gen_634,0.0,,
20,0.0,277.128,1.93668e-08,,,,,0.0,0.0,,,,,monvsource-lead_gen_634,0.0,,
21,0.0,277.128,1.93668e-08,,,,,0.0,0.0,,,,,monvsource-lead_gen_634,0.0,,
22,0.0,277.128,1.93668e-08,,,,,0.0,0.0,,,,,monvsource-lead_gen_634,0.0,,
23,0.0,277.128,1.93668e-08,,,,,0.0,0.0,,,,,monvsource-lead_gen_634,0.0,,
24,0.0,277.128,1.93668e-08,,,,,0.0,0.0,,,,,monvsource-lead_gen_634,0.0,,
25,0.0,277.143,0.011212,,,,,1535.45,0.32867,,,,,monvsource-lead_gen_634,425.53921935,,
26,0.0,277.145,0.0131825,,,,,1804.83,0.386419,,,,,monvsource-lead_gen_634,500.19961035,,
27,0.0,277.146,0.0136798,,,,,1872.8,0.400903,,,,,monvsource-lead_gen_634,519.0390288,,
28,0.0,277.144,0.0120311,,,,,1647.45,0.352611,,,,,monvsource-lead_gen_634,456.58088280000004,,
29,0.0,277.134,0.0046095,,,,,631.813,0.13528,,,,,monvsource-lead_gen_634,175.096863942,,
30,0.0,277.146,0.0139606,,,,,1911.18,0.409028,,,,,monvsource-lead_gen_634,529.6758922800001,,
31,0.0,277.145,0.013068,,,,,1789.18,0.382982,,,,,monvsource-lead_gen_634,495.8622911,,
32,0.0,277.137,0.00667456,,,,,914.613,0.195789,,,,,monvsource-lead_gen_634,253.473102981,,
33,0.0,277.141,0.00974082,,,,,1334.24,0.285793,,,,,monvsource-lead_gen_634,369.77260784000003,,
34,0.0,277.145,0.0128102,,,,,1753.95,0.37542,,,,,monvsource-lead_gen_634,486.09847275,,
35,0.0,277.15,0.0172148,,,,,2355.65,0.504636,,,,,monvsource-lead_gen_634,652.8683975,,
36,0.0,277.154,0.0199887,,,,,2734.24,0.585354,,,,,monvsource-lead_gen_634,757.8055529599999,,
37,0.0,277.159,0.0243314,,,,,3326.41,0.712431,,,,,monvsource-lead_gen_634,921.94446919,,
38,0.0,277.164,0.028751,,,,,3928.4,0.840757,,,,,monvsource-lead_gen_634,1088.8110576,,
39,0.0,277.154,0.0205176,,,,,2806.36,0.603851,,,,,monvsource-lead_gen_634,777.79389944,,
40,0.0,277.153,0.0196566,,,,,2688.93,0.575938,,,,,monvsource-lead_gen_634,745.2450162900001,,
41,0.0,277.149,0.0160802,,,,,2200.73,0.471065,,,,,monvsource-lead_gen_634,609.93011877,,
42,0.0,277.131,0.00229594,,,,,314.735,0.107744,,,,,monvsource-lead_gen_634,87.222825285,,
43,0.0,277.14,0.00876207,,,,,1200.33,0.25693,,,,,monvsource-lead_gen_634,332.65945619999997,,
44,0.0,277.142,0.0110157,,,,,1508.61,0.323042,,,,,monvsource-lead_gen_634,418.09919262,,
45,0.0,277.143,0.0116515,,,,,1595.55,0.341548,,,,,monvsource-lead_gen_634,442.1955136499999,,
46,0.0,277.145,0.0130136,,,,,1781.75,0.381431,,,,,monvsource-lead_gen_634,493.80310374999993,,
47,0.0,277.146,0.0141196,,,,,1932.9,0.413801,,,,,monvsource-lead_gen_634,535.6955034,,
48,0.0,277.146,0.0135326,,,,,1852.68,0.396572,,,,,monvsource-lead_gen_634,513.4628512800001,,
49,0.0,277.146,0.0137409,,,,,1881.15,0.402662,,,,,monvsource-lead_gen_634,521.3531979,,
50,0.0,277.146,0.014191,,,,,1942.66,0.415833,,,,,monvsource-lead_gen_634,538.40044836,,
51,0.0,277.146,0.0141999,,,,,1943.87,0.416087,,,,,monvsource-lead_gen_634,538.73579502,,
52,0.0,277.146,0.0142069,,,,,1944.83,0.416292,,,,,monvsource-lead_gen_634,539.00185518,,
53,0.0,277.132,0.00311841,,,,,427.518,0.0915777,,,,,monvsource-lead_gen_634,118.478918376,,
54,0.0,277.143,0.0114261,,,,,1564.72,0.334974,,,,,monvsource-lead_gen_634,433.65119495999994,,
55,0.0,277.144,0.0121177,,,,,1659.29,0.355174,,,,,monvsource-lead_gen_634,459.86226776,,
56,0.0,277.129,0.000824689,,,,,113.094,0.024505,,,,,monvsource-lead_gen_634,31.341627126,,
57,0.0,277.14,0.0087559,,,,,1199.49,0.256745,,,,,monvsource-lead_gen_634,332.42665859999994,,
58,0.0,277.153,0.0192871,,,,,2638.51,0.564766,,,,,monvsource-lead_gen_634,731.2709620300002,,
59,0.0,277.156,0.0220409,,,,,3014.16,0.645344,,,,,monvsource-lead_gen_634,835.39252896,,
60,0.0,277.156,0.0222689,,,,,3045.25,0.651826,,,,,monvsource-lead_gen_634,844.009309,,
61,0.0,277.159,0.0246992,,,,,3376.54,0.722867,,,,,monvsource-lead_gen_634,935.83844986,,
62,0.0,277.159,0.0241412,,,,,3300.49,0.706443,,,,,monvsource-lead_gen_634,914.7605079099999,,
63,0.0,277.145,0.0126611,,,,,1733.52,0.377174,,,,,monvsource-lead_gen_634,480.43640039999997,,
64,0.0,277.145,0.0133034,,,,,1821.36,0.38956,,,,,monvsource-lead_gen_634,504.78081719999994,,
65,0.0,277.137,0.00711194,,,,,974.448,0.21768,,,,,monvsource-lead_gen_634,270.055595376,,
66,0.0,277.128,0.000260537,,,,,35.663,0.402448,,,,,monvsource-lead_gen_634,9.883215863999999,,
67,0.0,277.133,0.00382466,,,,,524.321,0.100533,,,,,monvsource-lead_gen_634,145.306651693,,
68,0.0,277.131,0.00237896,,,,,326.162,0.0781612,,,,,monvsource-lead_gen_634,90.38960122199998,,
69,0.0,277.138,0.00716855,,,,,982.272,0.203331,,,,,monvsource-lead_gen_634,272.224897536,,
70,0.0,277.134,0.00473571,,,,,649.082,0.145149,,,,,monvsource-lead_gen_634,179.882690988,,
71,0.0,277.139,0.00833293,,,,,1141.63,0.240228,,,,,monvsource-lead_gen_634,316.39019657000006,,
72,0.0,277.132,0.00267651,,,,,366.908,0.106858,,,,,monvsource-lead_gen_634,101.681947856,,
73,0.0,277.128,1.93668e-08,,,,,0.0,0.0,,,,,monvsource-lead_gen_634,0.0,,
74,0.0,277.128,1.93668e-08,,,,,0.0,0.0,,,,,monvsource-lead_gen_634,0.0,,
75,0.0,277.128,1.93668e-08,,,,,0.0,0.0,,,,,monvsource-lead_gen_634,0.0,,
76,0.0,277.128,1.93668e-08,,,,,0.0,0.0,,,,,monvsource-lead_gen_634,0.0,,
77,0.0,277.128,1.93668e-08,,,,,0.0,0.0,,,,,monvsource-lead_gen_634,0.0,,
78,0.0,277.128,1.93668e-08,,,,,0.0,0.0,,,,,monvsource-lead_gen_634,0.0,,
79,0.0,277.128,1.93668e-08,,,,,0.0,0.0,,,,,monvsource-lead_gen_634,0.0,,
80,0.0,277.128,1.93668e-08,,,,,0.0,0.0,,,,,monvsource-lead_gen_634,0.0,,
81,0.0,277.128,1.93668e-08,,,,,0.0,0.0,,,,,monvsource-lead_gen_634,0.0,,
82,0.0,277.128,1.93668e-08,,,,,0.0,0.0,,,,,monvsource-lead_gen_634,0.0,,
83,0.0,277.128,1.93668e-08,,,,,0.0,0.0,,,,,monvsource-lead_gen_634,0.0,,
84,0.0,277.128,1.93668e-08,,,,,0.0,0.0,,,,,monvsource-lead_gen_634,0.0,,
85,0.0,277.128,1.93668e-08,,,,,0.0,0.0,,,,,monvsource-lead_gen_634,0.0,,
86,0.0,277.128,1.93668e-08,,,,,0.0,0.0,,,,,monvsource-lead_gen_634,0.0,,
87,0.0,277.128,1.93668e-08,,,,,0.0,0.0,,,,,monvsource-lead_gen_634,0.0,,
88,0.0,277.128,1.93668e-08,,,,,0.0,0.0,,,,,monvsource-lead_gen_634,0.0,,
89,0.0,277.128,1.93668e-08,,,,,0.0,0.0,,,,,monvsource-lead_gen_634,0.0,,
90,0.0,277.128,1.93668e-08,,,,,0.0,0.0,,,,,monvsource-lead_gen_634,0.0,,
91,0.0,277.128,1.93668e-08,,,,,0.0,0.0,,,,,monvsource-lead_gen_634,0.0,,
92,0.0,277.128,1.93668e-08,,,,,0.0,0.0,,,,,monvsource-lead_gen_634,0.0,,
93,0.0,277.128,1.93668e-08,,,,,0.0,0.0,,,,,monvsource-lead_gen_634,0.0,,
94,0.0,277.128,1.93668e-08,,,,,0.0,0.0,,,,,monvsource-lead_gen_634,0.0,,
95,0.0,277.128,1.93668e-08,,,,,0.0,0.0,,,,,monvsource-lead_gen_634,0.0,,
96,0.0,277.128,1.93668e-08,,,,,0.0,0.0,,,,,monvsource-lead_gen_634,0.0,,
1,0.0,2401.78,1.93663e-08,2401.78,-120.0,2401.78,120.0,2.38651e-09,180.0,2.38833e-09,59.2159,2.40085e-09,-59.3936,monvsource-lead_gen_675,5.7318719878e-09,5.736243227400001e-09,5.766313513e-09
2,0.0,2401.78,1.93663e-08,2401.78,-120.0,2401.78,120.0,2.38651e-09,180.0,2.38833e-09,59.2159,2.40085e-09,-59.3936,monvsource-lead_gen_675,5.7318719878e-09,5.736243227400001e-09,5.766313513e-09
3,0.0,2401.78,1.93663e-08,2401.78,-120.0,2401.78,120.0,2.38651e-09,180.0,2.38833e-09,59.2159,2.40085e-09,-59.3936,monvsource-lead_gen_675,5.7318719878e-09,5.736243227400001e-09,5.766313513e-09
4,0.0,2401.78,1.93663e-08,2401.78,-120.0,2401.78,120.0,2.38651e-09,180.0,2.38833e-09,59.2159,2.40085e-09,-59.3936,monvsource-lead_gen_675,5.7318719878e-09,5.736243227400001e-09,5.766313513e-09
5,0.0,2401.78,1.93663e-08,2401.78,-120.0,2401.78,120.0,2.38651e-09,180.0,2.38833e-09,59.2159,2.40085e-09,-59.3936,monvsource-lead_gen_675,5.7318719878e-09,5.736243227400001e-09,5.766313513e-09
6,0.0,2401.78,1.93663e-08,2401.78,-120.0,2401.78,120.0,2.38651e-09,180.0,2.38833e-09,59.2159,2.40085e-09,-59.3936,monvsource-lead_gen_675,5.7318719878e-09,5.736243227400001e-09,5.766313513e-09
7,0.0,2401.78,1.93663e-08,2401.78,-120.0,2401.78,120.0,2.38651e-09,180.0,2.38833e-09,59.2159,2.40085e-09,-59.3936,monvsource-lead_gen_675,5.7318719878e-09,5.736243227400001e-09,5.766313513e-09
8,0.0,2401.78,1.93663e-08,2401.78,-120.0,2401.78,120.0,2.38651e-09,180.0,2.38833e-09,59.2159,2.40085e-09,-59.3936,monvsource-lead_gen_675,5.7318719878e-09,5.736243227400001e-09,5.766313513e-09
9,0.0,2401.78,1.93663e-08,2401.78,-120.0,2401.78,120.0,2.38651e-09,180.0,2.38833e-09,59.2159,2.40085e-09,-59.3936,monvsource-lead_gen_675,5.7318719878e-09,5.736243227400001e-09,5.766313513e-09
10,0.0,2401.78,1.93663e-08,2401.78,-120.0,2401.78,120.0,2.38651e-09,180.0,2.38833e-09,59.2159,2.40085e-09,-59.3936,monvsource-lead_gen_675,5.7318719878e-09,5.736243227400001e-09,5.766313513e-09
11,0.0,2401.78,1.93663e-08,2401.78,-120.0,2401.78,120.0,2.38651e-09,180.0,2.38833e-09,59.2159,2.40085e-09,-59.3936,monvsource-lead_gen_675,5.7318719878e-09,5.736243227400001e-09,5.766313513e-09
12,0.0,2401.78,1.93663e-08,2401.78,-120.0,2401.78,120.0,2.38651e-09,180.0,2.38833e-09,59.2159,2.40085e-09,-59.3936,monvsource-lead_gen_675,5.7318719878e-09,5.736243227400001e-09,5.766313513e-09
13,0.0,2401.78,1.93663e-08,2401.78,-120.0,2401.78,120.0,2.38651e-09,180.0,2.38833e-09,59.2159,2.40085e-09,-59.3936,monvsource-lead_gen_675,5.7318719878e-09,5.736243227400001e-09,5.766313513e-09
14,0.0,2401.78,1.93663e-08,2401.78,-120.0,2401.78,120.0,2.38651e-09,180.0,2.38833e-09,59.2159,2.40085e-09,-59.3936,monvsource-lead_gen_675,5.7318719878e-09,5.736243227400001e-09,5.766313513e-09
15,0.0,2401.78,1.93663e-08,2401.78,-120.0,2401.78,120.0,2.38651e-09,180.0,2.38833e-09,59.2159,2.40085e-09,-59.3936,monvsource-lead_gen_675,5.7318719878e-09,5.736243227400001e-09,5.766313513e-09
16,0.0,2401.78,1.93663e-08,2401.78,-120.0,2401.78,120.0,2.38651e-09,180.0,2.38833e-09,59.2159,2.40085e-09,-59.3936,monvsource-lead_gen_675,5.7318719878e-09,5.736243227400001e-09,5.766313513e-09
17,0.0,2401.78,1.93663e-08,2401.78,-120.0,2401.78,120.0,2.38651e-09,180.0,2.38833e-09,59.2159,2.40085e-09,-59.3936,monvsource-lead_gen_675,5.7318719878e-09,5.736243227400001e-09,5.766313513e-09
18,0.0,2401.78,1.93663e-08,2401.78,-120.0,2401.78,120.0,2.38651e-09,180.0,2.38833e-09,59.2159,2.40085e-09,-59.3936,monvsource-lead_gen_675,5.7318719878e-09,5.736243227400001e-09,5.766313513e-09
19,0.0,2401.78,1.93663e-08,2401.78,-120.0,2401.78,120.0,2.38651e-09,180.0,2.38833e-09,59.2159,2.40085e-09,-59.3936,monvsource-lead_gen_675,5.7318719878e-09,5.736243227400001e-09,5.766313513e-09
20,0.0,2401.78,1.93663e-08,2401.78,-120.0,2401.78,120.0,2.38651e-09,180.0,2.38833e-09,59.2159,2.40085e-09,-59.3936,monvsource-lead_gen_675,5.7318719878e-09,5.736243227400001e-09,5.766313513e-09
21,0.0,2401.78,1.93663e-08,2401.78,-120.0,2401.78,120.0,2.38651e-09,180.0,2.38833e-09,59.2159,2.40085e-09,-59.3936,monvsource-lead_gen_675,5.7318719878e-09,5.736243227400001e-09,5.766313513e-09
22,0.0,2401.78,1.93663e-08,2401.78,-120.0,2401.78,120.0,2.38651e-09,180.0,2.38833e-09,59.2159,2.40085e-09,-59.3936,monvsource-lead_gen_675,5.7318719878e-09,5.736243227400001e-09,5.766313513e-09
23,0.0,2401.78,1.93663e-08,2401.78,-120.0,2401.78,120.0,2.38651e-09,180.0,2.38833e-09,59.2159,2.40085e-09,-59.3936,monvsource-lead_gen_675,5.7318719878e-09,5.736243227400001e-09,5.766313513e-09
24,0.0,2401.78,1.93663e-08,2401.78,-120.0,2401.78,120.0,2.38651e-09,180.0,2.38833e-09,59.2159,2.40085e-09,-59.3936,monvsource-lead_gen_675,5.7318719878e-09,5.736243227400001e-09,5.766313513e-09
25,0.0,2403.26,0.0711484,2403.26,-119.929,2403.26,120.071,385.241,-12.4204,385.241,-132.42,385.241,107.58,monvsource-lead_gen_675,925.8342856600001,925.8342856600001,925.8342856600001
26,0.0,2403.38,0.082064,2403.38,-119.918,2403.38,120.082,438.613,-10.8679,438.613,-130.868,438.613,109.132,monvsource-lead_gen_675,1054.15371194,1054.15371194,1054.15371194
27,0.0,2403.41,0.0847128,2403.41,-119.915,2403.41,120.085,451.605,-10.5461,451.605,-130.546,451.605,109.454,monvsource-lead_gen_675,1085.39197305,1085.39197305,1085.39197305
28,0.0,2403.3,0.0742807,2403.3,-119.926,2403.3,120.074,400.525,-11.9329,400.525,-131.933,400.525,108.067,monvsource-lead_gen_675,962.5817325,962.5817325,962.5817325
29,0.0,2403.06,0.0513234,2403.06,-119.949,2403.06,120.051,289.385,-16.6861,289.385,-136.686,289.385,103.314,monvsource-lead_gen_675,695.4095181,695.4095181,695.4095181
30,0.0,2403.14,0.0591619,2403.14,-119.941,2403.14,120.059,327.062,-14.7024,327.062,-134.702,327.062,105.298,monvsource-lead_gen_675,785.9757746800001,785.9757746800001,785.9757746800001
31,0.0,2403.38,0.0826908,2403.38,-119.917,2403.38,120.083,441.686,-10.79,441.686,-130.79,441.686,109.21,monvsource-lead_gen_675,1061.53929868,1061.53929868,1061.53929868
32,0.0,2402.99,0.0450956,2402.99,-119.955,2402.99,120.045,259.759,-18.6685,259.759,-138.669,259.759,101.331,monvsource-lead_gen_675,624.1982794099999,624.1982794099999,624.1982794099999
33,0.0,2403.51,0.0943039,2403.51,-119.906,2403.51,120.094,498.75,-9.52004,498.75,-129.52,498.75,110.48,monvsource-lead_gen_675,1198.7506125,1198.7506125,1198.7506125
34,0.0,2403.46,0.08993,2403.46,-119.91,2403.46,120.09,477.231,-9.96293,477.231,-129.963,477.231,110.037,monvsource-lead_gen_675,1147.00561926,1147.00561926,1147.00561926
35,0.0,2403.71,0.114477,2403.71,-119.886,2403.71,120.114,598.299,-7.88552,598.299,-127.886,598.299,112.114,monvsource-lead_gen_675,1438.13728929,1438.13728929,1438.13728929
36,0.0,2403.79,0.122112,2403.79,-119.878,2403.79,120.122,636.069,-7.39873,636.069,-127.399,636.069,112.601,monvsource-lead_gen_675,1528.97630151,1528.97630151,1528.97630151
37,0.0,2403.91,0.132947,2403.91,-119.867,2403.91,120.133,689.736,-6.79792,689.736,-126.798,689.736,113.202,monvsource-lead_gen_675,1658.06326776,1658.06326776,1658.06326776
38,0.0,2404.44,0.184752,2404.44,-119.815,2404.44,120.185,947.011,-4.84897,947.01,-124.849,947.01,115.151,monvsource-lead_gen_675,2277.03112884,2277.0287244,2277.0287244
39,0.0,2403.94,0.136328,2403.94,-119.864,2403.94,120.136,706.498,-6.62866,706.497,-126.629,706.497,113.371,monvsource-lead_gen_675,1698.37880212,1698.37639818,1698.37639818
40,0.0,2403.88,0.130133,2403.88,-119.87,2403.88,120.13,675.795,-6.9449,675.795,-126.945,675.795,113.055,monvsource-lead_gen_675,1624.5300846,1624.5300846,1624.5300846
41,0.0,2403.68,0.111362,2403.68,-119.889,2403.68,120.111,582.897,-8.102,582.897,-128.102,582.896,111.898,monvsource-lead_gen_675,1401.09786096,1401.09786096,1401.0954572799997
42,0.0,2403.1,0.055293,2403.1,-119.945,2403.1,120.055,308.42,-15.6211,308.42,-135.621,308.42,104.379,monvsource-lead_gen_675,741.164102,741.164102,741.164102
43,0.0,2403.25,0.070234,2403.25,-119.93,2403.25,120.07,380.784,-12.57,380.784,-132.57,380.784,107.43,monvsource-lead_gen_675,915.1191479999999,915.1191479999999,915.1191479999999
44,0.0,2403.38,0.082538,2403.38,-119.917,2403.38,120.083,440.937,-10.809,440.937,-130.809,440.937,109.191,monvsource-lead_gen_675,1059.7391670600002,1059.7391670600002,1059.7391670600002
45,0.0,2403.33,0.0771419,2403.33,-119.923,2403.33,120.077,414.51,-11.5189,414.51,-131.519,414.509,108.481,monvsource-lead_gen_675,996.2043183,996.2043183,996.2019149700001
46,0.0,2403.25,0.0698432,2403.25,-119.93,2403.25,120.07,378.88,-12.635,378.88,-132.635,378.88,107.365,monvsource-lead_gen_675,910.54336,910.54336,910.54336
47,0.0,2403.15,0.0598651,2403.15,-119.94,2403.15,120.06,330.459,-14.5465,330.459,-134.547,330.459,105.453,monvsource-lead_gen_675,794.14254585,794.14254585,794.14254585
48,0.0,2403.42,0.0861199,2403.42,-119.914,2403.42,120.086,458.512,-10.3826,458.512,-130.383,458.512,109.617,monvsource-lead_gen_675,1101.99691104,1101.99691104,1101.99691104
49,0.0,2403.4,0.0844077,2403.4,-119.916,2403.4,120.084,450.108,-10.5823,450.108,-130.582,450.108,109.418,monvsource-lead_gen_675,1081.7895672000002,1081.7895672000002,1081.7895672000002
50,0.0,2403.42,0.0863982,2403.42,-119.914,2403.42,120.086,459.879,-10.3508,459.879,-130.351,459.879,109.649,monvsource-lead_gen_675,1105.2823861800002,1105.2823861800002,1105.2823861800002
51,0.0,2403.42,0.0864225,2403.42,-119.914,2403.42,120.086,459.998,-10.348,459.998,-130.348,459.998,109.652,monvsource-lead_gen_675,1105.56839316,1105.56839316,1105.56839316
52,0.0,2403.42,0.0864284,2403.42,-119.914,2403.42,120.086,460.027,-10.3473,460.027,-130.347,460.027,109.653,monvsource-lead_gen_675,1105.63809234,1105.63809234,1105.63809234
53,0.0,2402.83,0.0294243,2402.83,-119.971,2402.83,120.029,187.331,-26.3874,187.331,-146.387,187.331,93.6125,monvsource-lead_gen_675,450.12454672999996,450.12454672999996,450.12454672999996
54,0.0,2403.13,0.0587225,2403.13,-119.941,2403.13,120.059,324.941,-14.8015,324.941,-134.801,324.941,105.199,monvsource-lead_gen_675,780.8754653299999,780.8754653299999,780.8754653299999
55,0.0,2403.33,0.0774585,2403.33,-119.923,2403.33,120.077,416.059,-11.4747,416.058,-131.475,416.058,108.525,monvsource-lead_gen_675,999.9270764700001,999.92467314,999.92467314
56,0.0,2402.81,0.0279106,2402.81,-119.972,2402.81,120.028,180.593,-27.4558,180.593,-147.456,180.593,92.5442,monvsource-lead_gen_675,433.93066632999995,433.93066632999995,433.93066632999995
57,0.0,2403.16,0.0610854,2403.16,-119.939,2403.16,120.061,336.358,-14.2832,336.358,-134.283,336.358,105.717,monvsource-lead_gen_675,808.3220912799999,808.3220912799999,808.3220912799999
58,0.0,2403.74,0.11663,2403.74,-119.883,2403.74,120.117,608.945,-7.74224,608.945,-127.742,608.945,112.258,monvsource-lead_gen_675,1463.7454543000001,1463.7454543000001,1463.7454543000001
59,0.0,2403.79,0.121305,2403.79,-119.879,2403.79,120.121,632.075,-7.44748,632.075,-127.448,632.075,112.553,monvsource-lead_gen_675,1519.37556425,1519.37556425,1519.37556425
60,0.0,2404.03,0.145172,2404.03,-119.855,2404.03,120.145,750.366,-6.2211,750.366,-126.221,750.366,113.779,monvsource-lead_gen_675,1803.90237498,1803.90237498,1803.90237498
61,0.0,2404.17,0.158623,2404.17,-119.841,2404.17,120.159,817.143,-5.68313,817.143,-125.683,817.143,114.317,monvsource-lead_gen_675,1964.55068631,1964.55068631,1964.55068631
62,0.0,2404.13,0.154636,2404.13,-119.845,2404.13,120.155,797.34,-5.83345,797.34,-125.833,797.34,114.167,monvsource-lead_gen_675,1916.9090142,1916.9090142,1916.9090142
63,0.0,2403.43,0.0869342,2403.43,-119.913,2403.43,120.087,462.51,-10.2898,462.509,-130.29,462.509,109.71,monvsource-lead_gen_675,1111.6104093,1111.60800587,1111.60800587
64,0.0,2403.46,0.0899357,2403.46,-119.91,2403.46,120.09,477.259,-9.96232,477.259,-129.962,477.259,110.038,monvsource-lead_gen_675,1147.0729161400002,1147.0729161400002,1147.0729161400002
65,0.0,2403.08,0.0537776,2403.08,-119.946,2403.08,120.054,301.14,-16.0114,301.14,-136.011,301.14,103.989,monvsource-lead_gen_675,723.6635111999999,723.6635111999999,723.6635111999999
