hour,t(sec),V1,VAngle1,V2,VAngle2,V3,VAngle3,I1,IAngle1,I2,IAngle2,I3,IAngle3,Name,P1(kW),P2(kW),P3(kW)
1,0.0,277.128,1.93668e-08,,,,,0.0,0.0,,,,,monvsource-lead_gen_634,0.0,,
2,0.0,277.128,1.93668e-08,,,,,0.0,0.0,,,,,monvsource-lead_gen_634,0.0,,
3,0.0,277.128,1.93668e-08,,,,,0.0,0.0,,,,,monvsource-lead_gen_634,0.0,,
4,0.0,277.128,1.93668e-08,,,,,0.0,0.0,,,,,monvsource-lead_gen_634,0.0,,
5,0.0,277.128,1.93668e-08,,,,,0.0,0.0,,,,,monvsource-lead_gen_634,0.0,,
6,0.0,277.128,1.93668e-08,,,,,0.0,0.0,,,,,monvsource-lead_gen_634,0.0,,
7,0.0,277.128,1.93668e-08,,,,,0.0,0.0,,,,,monvsource-lead_gen_634,0.0,,
8,0.0,277.128,1.93668e-08,,,,,0.0,0.0,,,,,monvsource-lead_gen_634,0.0,,
9,0.0,277.128,1.93668e-08,,,,,0.0,0.0,,,,,monvsource-lead_gen_634,0.0,,
10,0.0,277.128,1.93668e-08,,,,,0.0,0.0,,,,,monvsource-lead_gen_634,0.0,,
11,0.0,277.128,1.93668e-08,,,,,0.0,0.0,,,,,monvsource-lead_gen_634,0.0,,
12,0.0,277.128,1.93668e-08,,,,,0.0,0.0,,,,,monvsource-lead_gen_634,0.0,,
13,0.0,277.128,1.93668e-08,,,,,0.0,0.0,,,,,monvsource-lead_gen_634,0.0,,
14,0.0,277.128,1.93668e-08,,,,,0.0,0.0,,,,,monvsource-lead_gen_634,0.0,,
15,0.0,277.128,1.93668e-08,,,,,0.0,0.0,,,,,monvsource-lead_gen_634,0.0,,
16,0.0,277.128,1.93668e-08,,,,,0.0,0.0,,,,,monvsource-lead_gen_634,0.0,,
17,0.0,277.128,1.93668e-08,,,,,0.0,0.0,,,,,monvsource-lead_gen_634,0.0,,
18,0.0,277.128,1.93668e-08,,,,,0.0,0.0,,,,,monvsource-lead_gen_634,0.0,,
19,0.0,277.128,1.93668e-08,,,,,0.0,0.0,,,,,monvsource-lead_gen_634,0.0,,
20,0.0,277.128,1.93668e-08,,,,,0.0,0.0,,,,,monvsource-lead_gen_634,0.0,,
21,0.0,277.128,1.93668e-08,,,,,0.0,0.0,,,,,monvsource-lead_gen_634,0.0,,
22,0.0,277.128,1.93668e-08,,,,,0.0,0.0,,,,,monvsource-lead_gen_634,0.0,,
23,0.0,277.128,1.93668e-08,,,,,0.0,0.0,,,,,monvsource-lead_gen_634,0.0,,
24,0.0,277.128,1.93668e-08,,,,,0.0,0.0,,,,,monvsource-lead_gen_634,0.0,,
25,0.0,277.143,0.011212,,,,,1535.45,0.32867,,,,,monvsource-lead_gen_634,425.53921935,,
26,0.0,277.145,0.0131825,,,,,1804.83,0.386419,,,,,monvsource-lead_gen_634,500.19961035,,
27,0.0,277.146,0.0136798,,,,,1872.8,0.400903,,,,,monvsource-lead_gen_634,519.0390288,,
28,0.0,277.144,0.0120311,,,,,1647.45,0.352611,,,,,monvsource-lead_gen_634,456.58088280000004,,
29,0.0,277.134,0.0046095,,,,,631.813,0.13528,,,,,monvsource-lead_gen_634,175.096863942,,
30,0.0,277.146,0.0139606,,,,,1911.18,0.409028,,,,,monvsource-lead_gen_634,529.6758922800001,,
31,0.0,277.145,0.013068,,,,,1789.18,0.382982,,,,,monvsource-lead_gen_634,495.8622911,,
32,0.0,277.137,0.00667533,,,,,914.707,0.198266,,,,,monvsource-lead_gen_634,253.49915385900002,,
33,0.0,277.141,0.00974074,,,,,1334.23,0.285593,,,,,monvsource-lead_gen_634,369.76983643,,
34,0.0,277.145,0.0128103,,,,,1753.96,0.375644,,,,,monvsource-lead_gen_634,486.10124419999994,,
35,0.0,277.15,0.0172146,,,,,2355.63,0.504177,,,,,monvsource-lead_gen_634,652.8628545,,
36,0.0,277.154,0.0199869,,,,,2734.0,0.585244,,,,,monvsource-lead_gen_634,757.7390359999999,,
37,0.0,277.159,0.0243314,,,,,3326.41,0.712431,,,,,monvsource-lead_gen_634,921.94446919,,
38,0.0,277.164,0.028751,,,,,3928.4,0.840757,,,,,monvsource-lead_gen_634,1088.8110576,,
39,0.0,277.154,0.0205176,,,,,2806.36,0.603851,,,,,monvsource-lead_gen_634,777.79389944,,
40,0.0,277.153,0.0196566,,,,,2688.93,0.575938,,,,,monvsource-lead_gen_634,745.2450162900001,,
41,0.0,277.149,0.0160816,,,,,2200.89,0.473697,,,,,monvsource-lead_gen_634,609.9744626099999,,
42,0.0,277.131,0.00229515,,,,,314.688,0.0674487,,,,,monvsource-lead_gen_634,87.20980012799998,,
43,0.0,277.14,0.00876207,,,,,1200.33,0.25693,,,,,monvsource-lead_gen_634,332.65945619999997,,
44,0.0,277.142,0.0110157,,,,,1508.61,0.323042,,,,,monvsource-lead_gen_634,418.09919262,,
45,0.0,277.143,0.0116515,,,,,1595.55,0.341548,,,,,monvsource-lead_gen_634,442.1955136499999,,
46,0.0,277.145,0.0130136,,,,,1781.75,0.381431,,,,,monvsource-lead_gen_634,493.80310374999993,,
47,0.0,277.146,0.0141196,,,,,1932.9,0.41373,,,,,monvsource-lead_gen_634,535.6955034,,
48,0.0,277.146,0.0135326,,,,,1852.68,0.396583,,,,,monvsource-lead_gen_634,513.4628512800001,,
49,0.0,277.146,0.0137409,,,,,1881.15,0.402658,,,,,monvsource-lead_gen_634,521.3531979,,
50,0.0,277.146,0.014191,,,,,1942.66,0.415825,,,,,monvsource-lead_gen_634,538.40044836,,
51,0.0,277.146,0.0141999,,,,,1943.87,0.416087,,,,,monvsource-lead_gen_634,538.73579502,,
52,0.0,277.146,0.0142069,,,,,1944.83,0.416292,,,,,monvsource-lead_gen_634,539.00185518,,
53,0.0,277.132,0.00311841,,,,,427.517,0.091577,,,,,monvsource-lead_gen_634,118.478641244,,
54,0.0,277.143,0.0114261,,,,,1564.72,0.334974,,,,,monvsource-lead_gen_634,433.65119495999994,,
55,0.0,277.144,0.0121177,,,,,1659.29,0.355174,,,,,monvsource-lead_gen_634,459.86226776,,
56,0.0,277.129,0.000824689,,,,,113.094,0.024505,,,,,monvsource-lead_gen_634,31.341627126,,
57,0.0,277.14,0.0087559,,,,,1199.49,0.256745,,,,,monvsource-lead_gen_634,332.42665859999994,,
58,0.0,277.153,0.0192871,,,,,2638.51,0.564766,,,,,monvsource-lead_gen_634,731.2709620300002,,
59,0.0,277.156,0.0220409,,,,,3014.16,0.645344,,,,,monvsource-lead_gen_634,835.39252896,,
60,0.0,277.156,0.0222689,,,,,3045.25,0.651845,,,,,monvsource-lead_gen_634,844.009309,,
61,0.0,277.159,0.0246991,,,,,3376.53,0.722692,,,,,monvsource-lead_gen_634,935.83567827,,
62,0.0,277.159,0.0241412,,,,,3300.49,0.706485,,,,,monvsource-lead_gen_634,914.7605079099999,,
63,0.0,277.145,0.0126614,,,,,1733.54,0.379562,,,,,monvsource-lead_gen_634,480.4419433,,
64,0.0,277.145,0.0133034,,,,,1821.36,0.389434,,,,,monvsource-lead_gen_634,504.78081719999994,,
65,0.0,277.137,0.00711206,,,,,974.453,0.220325,,,,,monvsource-lead_gen_634,270.056981061,,
66,0.0,277.128,0.000260627,,,,,35.6599,0.495666,,,,,monvsource-lead_gen_634,9.8823567672,,
67,0.0,277.133,0.0038246,,,,,524.32,0.0974728,,,,,monvsource-lead_gen_634,145.30637456,,
68,0.0,277.131,0.00237898,,,,,326.162,0.0802191,,,,,monvsource-lead_gen_634,90.38960122199998,,
69,0.0,277.138,0.00716845,,,,,982.268,0.201299,,,,,monvsource-lead_gen_634,272.223788984,,
70,0.0,277.134,0.00473575,,,,,649.083,0.1468,,,,,monvsource-lead_gen_634,179.882968122,,
71,0.0,277.139,0.00833285,,,,,1141.63,0.238952,,,,,monvsource-lead_gen_634,316.39019657000006,,
72,0.0,277.132,0.0026766,,,,,366.907,0.113963,,,,,monvsource-lead_gen_634,101.681670724,,
73,0.0,277.128,1.93668e-08,,,,,0.0,0.0,,,,,monvsource-lead_gen_634,0.0,,
74,0.0,277.128,1.93668e-08,,,,,0.0,0.0,,,,,monvsource-lead_gen_634,0.0,,
75,0.0,277.128,1.93668e-08,,,,,0.0,0.0,,,,,monvsource-lead_gen_634,0.0,,
76,0.0,277.128,1.93668e-08,,,,,0.0,0.0,,,,,monvsource-lead_gen_634,0.0,,
77,0.0,277.128,1.93668e-08,,,,,0.0,0.0,,,,,monvsource-lead_gen_634,0.0,,
78,0.0,277.128,1.93668e-08,,,,,0.0,0.0,,,,,monvsource-lead_gen_634,0.0,,
79,0.0,277.128,1.93668e-08,,,,,0.0,0.0,,,,,monvsource-lead_gen_634,0.0,,
80,0.0,277.128,1.93668e-08,,,,,0.0,0.0,,,,,monvsource-lead_gen_634,0.0,,
81,0.0,277.128,1.93668e-08,,,,,0.0,0.0,,,,,monvsource-lead_gen_634,0.0,,
82,0.0,277.128,1.93668e-08,,,,,0.0,0.0,,,,,monvsource-lead_gen_634,0.0,,
83,0.0,277.128,1.93668e-08,,,,,0.0,0.0,,,,,monvsource-lead_gen_634,0.0,,
84,0.0,277.128,1.93668e-08,,,,,0.0,0.0,,,,,monvsource-lead_gen_634,0.0,,
85,0.0,277.128,1.93668e-08,,,,,0.0,0.0,,,,,monvsource-lead_gen_634,0.0,,
86,0.0,277.128,1.93668e-08,,,,,0.0,0.0,,,,,monvsource-lead_gen_634,0.0,,
87,0.0,277.128,1.93668e-08,,,,,0.0,0.0,,,,,monvsource-lead_gen_634,0.0,,
88,0.0,277.128,1.93668e-08,,,,,0.0,0.0,,,,,monvsource-lead_gen_634,0.0,,
89,0.0,277.128,1.93668e-08,,,,,0.0,0.0,,,,,monvsource-lead_gen_634,0.0,,
90,0.0,277.128,1.93668e-08,,,,,0.0,0.0,,,,,monvsource-lead_gen_634,0.0,,
91,0.0,277.128,1.93668e-08,,,,,0.0,0.0,,,,,monvsource-lead_gen_634,0.0,,
92,0.0,277.128,1.93668e-08,,,,,0.0,0.0,,,,,monvsource-lead_gen_634,0.0,,
93,0.0,277.128,1.93668e-08,,,,,0.0,0.0,,,,,monvsource-lead_gen_634,0.0,,
94,0.0,277.128,1.93668e-08,,,,,0.0,0.0,,,,,monvsource-lead_gen_634,0.0,,
95,0.0,277.128,1.93668e-08,,,,,0.0,0.0,,,,,monvsource-lead_gen_634,0.0,,
96,0.0,277.128,1.93668e-08,,,,,0.0,0.0,,,,,monvsource-lead_gen_634,0.0,,
1,0.0,2401.78,1.93663e-08,2401.78,-120.0,2401.78,120.0,2.38651e-09,180.0,2.38833e-09,59.2159,2.40085e-09,-59.3936,monvsource-lead_gen_675,5.7318719878e-09,5.736243227400001e-09,5.766313513e-09
2,0.0,2401.78,1.93663e-08,2401.78,-120.0,2401.78,120.0,2.38651e-09,180.0,2.38833e-09,59.2159,2.40085e-09,-59.3936,monvsource-lead_gen_675,5.7318719878e-09,5.736243227400001e-09,5.766313513e-09
3,0.0,2401.78,1.93663e-08,2401.78,-120.0,2401.78,120.0,2.38651e-09,180.0,2.38833e-09,59.2159,2.40085e-09,-59.3936,monvsource-lead_gen_675,5.7318719878e-09,5.736243227400001e-09,5.766313513e-09
4,0.0,2401.78,1.93663e-08,2401.78,-120.0,2401.78,120.0,2.38651e-09,180.0,2.38833e-09,59.2159,2.40085e-09,-59.3936,monvsource-lead_gen_675,5.7318719878e-09,5.736243227400001e-09,5.766313513e-09
5,0.0,2401.78,1.93663e-08,2401.78,-120.0,2401.78,120.0,2.38651e-09,180.0,2.38833e-09,59.2159,2.40085e-09,-59.3936,monvsource-lead_gen_675,5.7318719878e-09,5.736243227400001e-09,5.766313513e-09
6,0.0,2401.78,1.93663e-08,2401.78,-120.0,2401.78,120.0,2.38651e-09,180.0,2.38833e-09,59.2159,2.40085e-09,-59.3936,monvsource-lead_gen_675,5.7318719878e-09,5.736243227400001e-09,5.766313513e-09
7,0.0,2401.78,1.93663e-08,2401.78,-120.0,2401.78,120.0,2.38651e-09,180.0,2.38833e-09,59.2159,2.40085e-09,-59.3936,monvsource-lead_gen_675,5.7318719878e-09,5.736243227400001e-09,5.766313513e-09
8,0.0,2401.78,1.93663e-08,2401.78,-120.0,2401.78,120.0,2.38651e-09,180.0,2.38833e-09,59.2159,2.40085e-09,-59.3936,monvsource-lead_gen_675,5.7318719878e-09,5.736243227400001e-09,5.766313513e-09
9,0.0,2401.78,1.93663e-08,2401.78,-120.0,2401.78,120.0,2.38651e-09,180.0,2.38833e-09,59.2159,2.40085e-09,-59.3936,monvsource-lead_gen_675,5.7318719878e-09,5.736243227400001e-09,5.766313513e-09
10,0.0,2401.78,1.93663e-08,2401.78,-120.0,2401.78,120.0,2.38651e-09,180.0,2.38833e-09,59.2159,2.40085e-09,-59.3936,monvsource-lead_gen_675,5.7318719878e-09,5.736243227400001e-09,5.766313513e-09
11,0.0,2401.78,1.93663e-08,2401.78,-120.0,2401.78,120.0,2.38651e-09,180.0,2.38833e-09,59.2159,2.40085e-09,-59.3936,monvsource-lead_gen_675,5.7318719878e-09,5.736243227400001e-09,5.766313513e-09
12,0.0,2401.78,1.93663e-08,2401.78,-120.0,2401.78,120.0,2.38651e-09,180.0,2.38833e-09,59.2159,2.40085e-09,-59.3936,monvsource-lead_gen_675,5.7318719878e-09,5.736243227400001e-09,5.766313513e-09
13,0.0,2401.78,1.93663e-08,2401.78,-120.0,2401.78,120.0,2.38651e-09,180.0,2.38833e-09,59.2159,2.40085e-09,-59.3936,monvsource-lead_gen_675,5.7318719878e-09,5.736243227400001e-09,5.766313513e-09
14,0.0,2401.78,1.93663e-08,2401.78,-120.0,2401.78,120.0,2.38651e-09,180.0,2.38833e-09,59.2159,2.40085e-09,-59.3936,monvsource-lead_gen_675,5.7318719878e-09,5.736243227400001e-09,5.766313513e-09
15,0.0,2401.78,1.93663e-08,2401.78,-120.0,2401.78,120.0,2.38651e-09,180.0,2.38833e-09,59.2159,2.40085e-09,-59.3936,monvsource-lead_gen_675,5.7318719878e-09,5.736243227400001e-09,5.766313513e-09
16,0.0,2401.78,1.93663e-08,2401.78,-120.0,2401.78,120.0,2.38651e-09,180.0,2.38833e-09,59.2159,2.40085e-09,-59.3936,monvsource-lead_gen_675,5.7318719878e-09,5.736243227400001e-09,5.766313513e-09
17,0.0,2401.78,1.93663e-08,2401.78,-120.0,2401.78,120.0,2.38651e-09,180.0,2.38833e-09,59.2159,2.40085e-09,-59.3936,monvsource-lead_gen_675,5.7318719878e-09,5.736243227400001e-09,5.766313513e-09
18,0.0,2401.78,1.93663e-08,2401.78,-120.0,2401.78,120.0,2.38651e-09,180.0,2.38833e-09,59.2159,2.40085e-09,-59.3936,monvsource-lead_gen_675,5.7318719878e-09,5.736243227400001e-09,5.766313513e-09
19,0.0,2401.78,1.93663e-08,2401.78,-120.0,2401.78,120.0,2.38651e-09,180.0,2.38833e-09,59.2159,2.40085e-09,-59.3936,monvsource-lead_gen_675,5.7318719878e-09,5.736243227400001e-09,5.766313513e-09
20,0.0,2401.78,1.93663e-08,2401.78,-120.0,2401.78,120.0,2.38651e-09,180.0,2.38833e-09,59.2159,2.40085e-09,-59.3936,monvsource-lead_gen_675,5.7318719878e-09,5.736243227400001e-09,5.766313513e-09
21,0.0,2401.78,1.93663e-08,2401.78,-120.0,2401.78,120.0,2.38651e-09,180.0,2.38833e-09,59.2159,2.40085e-09,-59.3936,monvsource-lead_gen_675,5.7318719878e-09,5.736243227400001e-09,5.766313513e-09
22,0.0,2401.78,1.93663e-08,2401.78,-120.0,2401.78,120.0,2.38651e-09,180.0,2.38833e-09,59.2159,2.40085e-09,-59.3936,monvsource-lead_gen_675,5.7318719878e-09,5.736243227400001e-09,5.766313513e-09
23,0.0,2401.78,1.93663e-08,2401.78,-120.0,2401.78,120.0,2.38651e-09,180.0,2.38833e-09,59.2159,2.40085e-09,-59.3936,monvsource-lead_gen_675,5.7318719878e-09,5.736243227400001e-09,5.766313513e-09
24,0.0,2401.78,1.93663e-08,2401.78,-120.0,2401.78,120.0,2.38651e-09,180.0,2.38833e-09,59.2159,2.40085e-09,-59.3936,monvsource-lead_gen_675,5.7318719878e-09,5.736243227400001e-09,5.766313513e-09
25,0.0,2403.26,0.0711484,2403.26,-119.929,2403.26,120.071,385.241,-12.4204,385.241,-132.42,385.241,107.58,monvsource-lead_gen_675,925.8342856600001,925.8342856600001,925.8342856600001
26,0.0,2403.38,0.082064,2403.38,-119.918,2403.38,120.082,438.613,-10.8679,438.613,-130.868,438.613,109.132,monvsource-lead_gen_675,1054.15371194,1054.15371194,1054.15371194
27,0.0,2403.41,0.0847128,2403.41,-119.915,2403.41,120.085,451.605,-10.5461,451.605,-130.546,451.605,109.454,monvsource-lead_gen_675,1085.39197305,1085.39197305,1085.39197305
28,0.0,2403.3,0.0742807,2403.3,-119.926,2403.3,120.074,400.525,-11.9329,400.525,-131.933,400.525,108.067,monvsource-lead_gen_675,962.5817325,962.5817325,962.5817325
29,0.0,2403.02,0.0477145,2403.02,-119.952,2403.02,120.048,272.177,-17.7825,272.177,-137.783,272.177,102.217,monvsource-lead_gen_675,654.04677454,654.04677454,654.04677454
30,0.0,2403.18,0.0631791,2403.18,-119.937,2403.18,120.063,346.497,-13.8528,346.497,-133.853,346.497,106.147,monvsource-lead_gen_675,832.6946604599999,832.6946604599999,832.6946604599999
31,0.0,2403.38,0.0826908,2403.38,-119.917,2403.38,120.083,441.686,-10.79,441.686,-130.79,441.686,109.21,monvsource-lead_gen_675,1061.53929868,1061.53929868,1061.53929868
32,0.0,2402.95,0.0414847,2402.95,-119.959,2402.95,120.041,242.75,-20.0379,242.75,-140.038,242.75,99.9621,monvsource-lead_gen_675,583.3161124999999,583.3161124999999,583.3161124999999
33,0.0,2403.33,0.0774681,2403.33,-119.923,2403.33,120.077,416.105,-11.4732,416.105,-131.473,416.105,108.527,monvsource-lead_gen_675,1000.03762965,1000.03762965,1000.03762965
34,0.0,2403.64,0.107524,2403.64,-119.892,2403.64,120.108,563.939,-8.38459,563.939,-128.385,563.939,111.615,monvsource-lead_gen_675,1355.5063379599999,1355.5063379599999,1355.5063379599999
35,0.0,2403.64,0.107164,2403.64,-119.893,2403.64,120.107,562.164,-8.41203,562.163,-128.412,562.163,111.588,monvsource-lead_gen_675,1351.2398769599997,1351.23747332,1351.23747332
36,0.0,2403.79,0.122112,2403.79,-119.878,2403.79,120.122,636.069,-7.39874,636.068,-127.399,636.068,112.601,monvsource-lead_gen_675,1528.97630151,1528.97389772,1528.97389772
37,0.0,2403.84,0.126498,2403.84,-119.874,2403.84,120.126,657.788,-7.14394,657.788,-127.144,657.788,112.856,monvsource-lead_gen_675,1581.2171059200002,1581.2171059200002,1581.2171059200002
38,0.0,2404.31,0.172429,2404.31,-119.828,2404.31,120.172,885.741,-5.21295,885.741,-125.213,885.741,114.787,monvsource-lead_gen_675,2129.5959437099996,2129.5959437099996,2129.5959437099996
39,0.0,2403.86,0.12884,2403.86,-119.871,2403.86,120.129,669.387,-7.01448,669.387,-127.014,669.387,112.986,monvsource-lead_gen_675,1609.11263382,1609.11263382,1609.11263382
40,0.0,2403.79,0.122001,2403.79,-119.878,2403.79,120.122,635.521,-7.40538,635.521,-127.405,635.52,112.595,monvsource-lead_gen_675,1527.6590245899997,1527.6590245899997,1527.6566208
41,0.0,2403.63,0.105942,2403.63,-119.894,2403.63,120.106,556.13,-8.50656,556.13,-128.507,556.13,111.493,monvsource-lead_gen_675,1336.7307519,1336.7307519,1336.7307519
42,0.0,2403.03,0.0487087,2403.03,-119.951,2403.03,120.049,276.907,-17.4669,276.907,-137.467,276.907,102.533,monvsource-lead_gen_675,665.4158282100001,665.4158282100001,665.4158282100001
43,0.0,2403.25,0.070234,2403.25,-119.93,2403.25,120.07,380.784,-12.57,380.784,-132.57,380.784,107.43,monvsource-lead_gen_675,915.1191479999999,915.1191479999999,915.1191479999999
44,0.0,2403.38,0.082538,2403.38,-119.917,2403.38,120.083,440.937,-10.809,440.937,-130.809,440.937,109.191,monvsource-lead_gen_675,1059.7391670600002,1059.7391670600002,1059.7391670600002
45,0.0,2403.33,0.0771419,2403.33,-119.923,2403.33,120.077,414.51,-11.5189,414.51,-131.519,414.509,108.481,monvsource-lead_gen_675,996.2043183,996.2043183,996.2019149700001
46,0.0,2403.25,0.0698432,2403.25,-119.93,2403.25,120.07,378.88,-12.635,378.88,-132.635,378.88,107.365,monvsource-lead_gen_675,910.54336,910.54336,910.54336
47,0.0,2403.42,0.0857322,2403.42,-119.914,2403.42,120.086,456.609,-10.4271,456.609,-130.427,456.609,109.573,monvsource-lead_gen_675,1097.4232027799999,1097.4232027799999,1097.4232027799999
48,0.0,2403.42,0.0861199,2403.42,-119.914,2403.42,120.086,458.512,-10.3826,458.512,-130.383,458.512,109.617,monvsource-lead_gen_675,1101.99691104,1101.99691104,1101.99691104
49,0.0,2403.4,0.0844077,2403.4,-119.916,2403.4,120.084,450.108,-10.5823,450.108,-130.582,450.108,109.418,monvsource-lead_gen_675,1081.7895672000002,1081.7895672000002,1081.7895672000002
50,0.0,2403.42,0.0863982,2403.42,-119.914,2403.42,120.086,459.879,-10.3508,459.879,-130.351,459.879,109.649,monvsource-lead_gen_675,1105.2823861800002,1105.2823861800002,1105.2823861800002
51,0.0,2403.42,0.0864225,2403.42,-119.914,2403.42,120.086,459.998,-10.348,459.998,-130.348,459.998,109.652,monvsource-lead_gen_675,1105.56839316,1105.56839316,1105.56839316
52,0.0,2403.42,0.0864284,2403.42,-119.914,2403.42,120.086,460.027,-10.3473,460.027,-130.347,460.027,109.653,monvsource-lead_gen_675,1105.63809234,1105.63809234,1105.63809234
53,0.0,2402.83,0.0294243,2402.83,-119.971,2402.83,120.029,187.331,-26.3874,187.331,-146.387,187.331,93.6125,monvsource-lead_gen_675,450.12454672999996,450.12454672999996,450.12454672999996
54,0.0,2403.13,0.0587225,2403.13,-119.941,2403.13,120.059,324.941,-14.8015,324.941,-134.801,324.941,105.199,monvsource-lead_gen_675,780.8754653299999,780.8754653299999,780.8754653299999
55,0.0,2403.33,0.0774585,2403.33,-119.923,2403.33,120.077,416.059,-11.4747,416.058,-131.475,416.058,108.525,monvsource-lead_gen_675,999.9270764700001,999.92467314,999.92467314
56,0.0,2402.76,0.0230248,2402.76,-119.977,2402.76,120.023,159.346,-31.5126,159.346,-151.513,159.346,88.4874,monvsource-lead_gen_675,382.87019496000005,382.87019496000005,382.87019496000005
57,0.0,2403.14,0.05947,2403.14,-119.941,2403.14,120.059,328.549,-14.6335,328.549,-134.634,328.549,105.367,monvsource-lead_gen_675,789.5492438599999,789.5492438599999,789.5492438599999
58,0.0,2403.74,0.11663,2403.74,-119.883,2403.74,120.117,608.945,-7.74224,608.945,-127.742,608.945,112.258,monvsource-lead_gen_675,1463.7454543000001,1463.7454543000001,1463.7454543000001
59,0.0,2403.79,0.121305,2403.79,-119.879,2403.79,120.121,632.075,-7.44748,632.075,-127.447,632.075,112.553,monvsource-lead_gen_675,1519.37556425,1519.37556425,1519.37556425
60,0.0,2403.85,0.127411,2403.85,-119.873,2403.85,120.127,662.306,-7.09297,662.306,-127.093,662.306,112.907,monvsource-lead_gen_675,1592.0842781,1592.0842781,1592.0842781
61,0.0,2404.04,0.146044,2404.04,-119.854,2404.04,120.146,754.694,-6.18344,754.694,-126.183,754.694,113.817,monvsource-lead_gen_675,1814.3145637599998,1814.3145637599998,1814.3145637599998
62,0.0,2404.01,0.142511,2404.01,-119.857,2404.01,120.143,737.16,-6.33878,737.16,-126.339,737.16,113.661,monvsource-lead_gen_675,1772.1400116,1772.1400116,1772.1400116
63,0.0,2403.37,0.0808549,2403.37,-119.919,2403.37,120.081,432.686,-11.0208,432.686,-131.021,432.686,108.979,monvsource-lead_gen_675,1039.9045518199998,1039.9045518199998,1039.9045518199998
64,0.0,2403.39,0.0830966,2403.39,-119.917,2403.39,120.083,443.675,-10.74,443.675,-130.74,443.675,109.26,monvsource-lead_gen_675,1066.32405825,1066.32405825,1066.32405825
65,0.0,2403.05,0.0504516,2403.05,-119.95,2403.05,120.05,285.218,-16.9383,285.218,-136.938,285.217,103.062,monvsource-lead_gen_675,685.3931149,685.3931149,685.39071185
