hour,t(sec),V1,VAngle1,V2,VAngle2,V3,VAngle3,I1,IAngle1,I2,IAngle2,I3,IAngle3,Name,P1(kW),P2(kW),P3(kW)
1,0.0,39812.2,-0.129968,39821.1,-120.125,39819.5,119.861,8.17494,-172.183,7.723260000000001,72.7997,8.54861,-47.1375,monvsource-source,325.462346268,307.548708786,340.401375895
2,0.0,39814.3,-0.126969,39821.6,-120.125,39819.3,119.865,7.952380000000001,-171.266,7.68515,73.0805,8.32978,-47.5367,monvsource-source,316.61844303400005,306.03496924,331.686008754
3,0.0,39816.4,-0.12213399999999999,39822.9,-120.12,39820.7,119.87100000000001,7.6231100000000005,-170.47099999999998,7.405010000000001,73.5921,7.97282,-47.1104,monvsource-source,303.52479700400005,294.88897272900005,317.48327337399996
4,0.0,39816.4,-0.121866,39822.9,-120.119,39821.5,119.87200000000001,7.60712,-170.493,7.30731,73.4614,7.9025300000000005,-46.6716,monvsource-source,302.888132768,290.998275399,314.69059839500005
5,0.0,39815.3,-0.122904,39822.9,-120.119,39821.3,119.869,7.69065,-171.055,7.34157,73.5488,8.03835,-46.6496,monvsource-source,306.205536945,292.362607953,320.097546855
6,0.0,39815.0,-0.125245,39821.9,-120.12100000000001,39821.2,119.868,7.835439999999999,-171.00799999999998,7.435789999999999,72.9526,8.095130000000001,-46.6275,monvsource-source,311.9680436,296.107285801,322.35779075600004
7,0.0,39812.1,-0.13053499999999998,39820.8,-120.126,39819.4,119.861,8.20926,-172.149,7.746689999999999,72.6389,8.55717,-47.1392,monvsource-source,326.827880046,308.479393152,340.741375098
8,0.0,39814.2,-0.11936600000000001,39824.7,-120.113,39823.2,119.87100000000001,7.509930000000001,-172.22400000000002,6.94636,74.2834,7.941039999999999,-45.5677,monvsource-source,299.001855006,276.636703092,316.23762412799994
9,0.0,39825.0,-0.0972528,39829.5,-120.09700000000001,39827.4,119.897,5.9915199999999995,-166.90900000000002,5.9249,76.8144,6.29059,-44.532,monvsource-source,238.612284,235.98580455,250.53784416599999
10,0.0,39829.9,-0.07909429999999999,39835.3,-120.07799999999999,39833.2,119.915,4.83833,-164.27599999999998,4.735040000000001,81.3672,5.1897199999999994,-40.496,monvsource-source,192.710200067,188.62173891200004,206.72315470399997
11,0.0,39836.9,-0.0443557,39848.0,-120.046,39841.4,119.941,2.68993,-157.10399999999998,2.95186,102.06200000000001,3.60055,-30.7351,monvsource-source,107.158472417,117.62571728,143.45095277000001
12,0.0,39866.2,0.0684577,39883.9,-119.927,39877.9,120.04899999999999,4.862080000000001,-7.957839999999999,6.02679,-139.157,4.62167,93.175,monvsource-source,193.83265369600002,240.371889681,184.302494093
13,0.0,39877.9,0.100109,39891.9,-119.896,39887.5,120.085,7.03498,-6.90773,7.932119999999999,-133.594,6.762630000000001,102.94,monvsource-source,280.540228942,316.42733782799996,269.744404125
14,0.0,39927.7,0.271623,39939.1,-119.72,39938.6,120.262,18.285,-2.1179,19.1991,-124.109,18.1927,114.368,monvsource-source,730.0779944999999,766.7947748099999,726.5909682199999
15,0.0,39905.8,0.193493,39918.3,-119.806,39912.4,120.178,13.1824,-3.57669,13.7443,-127.529,12.6608,112.20200000000001,monvsource-source,526.0542179199999,548.6490906900001,505.32291392
16,0.0,39863.8,0.043711099999999996,39874.4,-119.96,39866.9,120.029,3.5258800000000003,-17.8682,4.05765,-149.86,3.123,87.1871,monvsource-source,140.55497514400003,161.79635915999998,124.50432870000002
17,0.0,39833.0,-0.0598616,39842.8,-120.06299999999999,39836.1,119.926,3.64822,-162.418,3.84731,90.704,4.46776,-37.908,monvsource-source,145.31954725999998,153.28760286800002,177.978134136
18,0.0,39842.4,-0.031928700000000004,39850.7,-120.04,39841.9,119.954,1.9899200000000001,-143.35399999999998,2.6772299999999998,109.508,2.82625,-28.2066,monvsource-source,79.28318860800002,106.68948956099997,112.603169875
19,0.0,39837.1,-0.0408686,39849.1,-120.041,39842.8,119.944,2.47841,-156.9,2.71264,105.90799999999999,3.4376900000000004,-28.4253,monvsource-source,98.73266701099999,108.09626262399999,136.96719513200003
20,0.0,39832.6,-0.0582081,39842.9,-120.05,39842.5,119.93299999999999,3.5518300000000003,-163.085,3.09836,92.6391,4.09731,-30.2104,monvsource-source,141.478623658,123.44764764400001,163.24707367500002
21,0.0,39831.4,-0.0666765,39839.9,-120.06299999999999,39837.9,119.925,4.0739,-163.734,3.83164,86.9236,4.57576,-35.9293,monvsource-source,162.26914046,152.65215443600002,182.28866930400002
22,0.0,39826.0,-0.079084,39837.2,-120.075,39834.1,119.90899999999999,4.8932400000000005,-168.18599999999998,4.54298,83.3733,5.52439,-39.4579,monvsource-source,194.87817624000002,180.97960285599999,220.059103699
23,0.0,39819.5,-0.09848489999999999,39831.9,-120.094,39828.1,119.88799999999999,6.16711,-171.19299999999998,5.74454,78.6653,6.828930000000001,-43.3556,monvsource-source,245.571236645,228.81594282600003,271.983306933
24,0.0,39809.9,-0.144726,39815.4,-120.14299999999999,39813.4,119.84899999999999,9.0901,-171.895,8.89997,70.9401,9.3791,-49.4862,monvsource-source,361.87597199,354.355865538,373.41385994
25,0.0,39813.9,-0.13334000000000001,39818.9,-120.133,39816.8,119.861,8.334019999999999,-170.801,8.19793,72.0733,8.62323,-48.5923,monvsource-source,331.809838878,326.432554877,343.34942426400005
26,0.0,39819.6,-0.114468,39825.0,-120.115,39822.1,119.87899999999999,7.10654,-169.139,7.0420300000000005,74.6397,7.47462,-46.8299,monvsource-source,282.979580184,280.44884475,297.655065102
27,0.0,39820.1,-0.1132,39825.2,-120.11,39824.3,119.882,7.023510000000001,-168.975,6.7742,74.4321,7.25418,-45.5962,monvsource-source,279.676870551,269.78386984,288.89264057400004
28,0.0,39818.7,-0.114927,39825.2,-120.11200000000001,39823.5,119.87799999999999,7.152260000000001,-169.75400000000002,6.88508,74.5293,7.47145,-45.876999999999995,monvsource-source,284.793695262,274.199688016,297.539289075
29,0.0,39817.7,-0.11743599999999998,39824.3,-120.11200000000001,39824.1,119.87700000000001,7.3188699999999995,-170.107,6.901739999999999,73.9168,7.54661,-45.4089,monvsource-source,291.42056999899995,274.856964282,300.53695130100004
30,0.0,39814.8,-0.12465699999999999,39822.2,-120.118,39822.3,119.869,7.80422,-171.168,7.29517,72.9785,8.02943,-46.0153,monvsource-source,310.723458456,290.50971877399996,319.750370289
31,0.0,39815.6,-0.124403,39822.0,-120.12,39821.3,119.87,7.7736600000000005,-170.74,7.4092199999999995,72.9634,8.01827,-46.6755,monvsource-source,309.51293709600003,295.04995884,319.297935151
32,0.0,39811.9,-0.123642,39824.1,-120.118,39821.4,119.86399999999999,7.81192,-173.08,7.2486,74.2027,8.356639999999999,-46.2217,monvsource-source,311.007377848,288.66897126,332.77310409599994
33,0.0,39820.0,-0.09581619999999999,39832.2,-120.084,39833.0,119.895,5.99945,-171.17,5.12835,78.4456,6.39215,-39.9376,monvsource-source,238.89809900000003,204.27346286999997,254.61851095
34,0.0,39833.7,-0.0503657,39846.0,-120.04299999999999,39844.1,119.93799999999999,3.06926,-162.363,2.73597,99.6544,3.81756,-27.5771,monvsource-source,122.25998206199998,109.01746062,152.10724239599998
35,0.0,39843.1,-0.00628653,39861.6,-120.00399999999999,39853.7,119.97200000000001,0.640285,-103.20700000000001,2.14683,166.767,2.24,3.3761900000000002,monvsource-source,25.5109392835,85.576078728,89.272288
36,0.0,39841.6,-0.0122583,39859.2,-120.007,39853.6,119.96799999999999,0.838166,-129.159,1.9726599999999999,160.811,2.3923400000000004,0.0361563,monvsource-source,33.393874505599996,78.62864947199999,95.34336142400002
37,0.0,39835.7,-0.025357400000000002,39855.7,-120.008,39856.0,119.958,1.54287,-161.352,1.69238,155.928,3.0135099999999997,-3.74725,monvsource-source,61.46130645899999,67.45098956599999,120.10645455999999
38,0.0,39867.7,0.0651323,39880.4,-119.925,39879.8,120.054,4.76369,-10.5821,5.89222,-136.431,4.95322,94.7889,monvsource-source,189.917363813,234.98409048800002,197.53342295600004
39,0.0,39877.9,0.0971071,39889.6,-119.895,39888.8,120.087,6.87993,-7.69717,7.8628100000000005,-132.141,6.92563,102.867,monvsource-source,274.35716054700003,313.644345776,276.25506994400007
40,0.0,39851.1,0.00959892,39864.1,-119.98,39863.6,119.99799999999999,1.34345,-40.9727,2.63465,-159.857,2.30797,50.7851,monvsource-source,53.537960295,105.027951065,92.003992892
41,0.0,39839.4,-0.027979300000000002,39852.8,-120.01799999999999,39851.9,119.96,1.70822,-150.042,1.7637900000000002,134.02100000000002,2.73738,-8.7263,monvsource-source,68.05445986800001,70.29197011200002,109.089794022
42,0.0,39842.1,-0.00422286,39862.4,-119.995,39857.5,119.975,0.50034,-97.4488,2.2181599999999997,-179.52700000000002,2.34019,12.6987,monvsource-source,19.934596314,88.42118118399999,93.274122925
43,0.0,39842.0,-0.0124708,39859.5,-120.014,39850.0,119.965,0.866624,-127.44,2.11872,150.173,2.39302,-8.79148,monvsource-source,34.528033408,84.45111984,95.361847
44,0.0,39837.0,-0.0328382,39852.4,-120.02799999999999,39847.7,119.95,1.9914599999999998,-157.123,2.1473299999999997,121.51700000000001,3.14035,-19.6575,monvsource-source,79.33379201999999,85.57625409199999,125.135724695
45,0.0,39832.9,-0.0515856,39846.0,-120.046,39842.8,119.935,3.15041,-163.501,2.89135,98.7813,3.97977,-29.5502,monvsource-source,125.489966489,115.2087321,158.56518015600003
46,0.0,39824.7,-0.0849672,39835.0,-120.07799999999999,39834.1,119.906,5.2654,-168.622,4.73137,80.9791,5.72216,-39.426,monvsource-source,209.69297537999995,188.47412395,227.93709365599997
47,0.0,39817.2,-0.118523,39822.8,-120.105,39828.0,119.881,7.39395,-170.347,6.49825,72.187,7.25093,-43.0188,monvsource-source,294.40638594,258.7785101,288.79004004
48,0.0,39804.8,-0.15224300000000002,39814.1,-120.14299999999999,39814.8,119.84100000000001,9.65047,-173.737,8.92709,70.2679,9.86435,-48.1691,monvsource-source,384.135028256,355.424053969,392.74712238
49,0.0,39813.4,-0.12599100000000002,39822.4,-120.119,39822.3,119.866,7.914219999999999,-171.898,7.3129100000000005,73.1443,8.202,-45.833,monvsource-source,315.092006548,291.21762718400004,326.62250460000007
50,0.0,39818.5,-0.11255,39826.2,-120.10700000000001,39825.8,119.881,7.014419999999999,-170.10299999999998,6.55031,74.9171,7.30083,-44.52,monvsource-source,279.30368276999997,260.873956122,290.76139541400005
51,0.0,39818.4,-0.112823,39826.2,-120.10700000000001,39826.0,119.881,7.03445,-170.207,6.5313099999999995,74.839,7.30585,-44.3553,monvsource-source,280.10054388000003,260.11725832199994,290.9627821
52,0.0,39815.7,-0.11951600000000001,39824.2,-120.11200000000001,39824.6,119.874,7.484319999999999,-171.22,6.87332,73.79,7.73263,-44.8943,monvsource-source,297.99343982399995,273.724470344,307.948896698
53,0.0,39814.0,-0.12370199999999999,39822.9,-120.115,39823.7,119.87,7.765910000000001,-171.77200000000002,7.08575,73.1788,7.99507,-45.1812,monvsource-source,309.19194074000006,282.17511367500003,318.39326915899994
54,0.0,39811.4,-0.130965,39820.6,-120.12299999999999,39820.8,119.86200000000001,8.25153,-172.53099999999998,7.59155,72.3206,8.51338,-46.3531,monvsource-source,328.5049614420001,302.30007593,339.009602304
55,0.0,39831.3,-0.065692,39839.9,-120.06,39838.7,119.926,4.015680000000001,-163.954,3.67507,86.9619,4.47003,-34.9373,monvsource-source,159.94975478400005,146.414421293,178.080184161
56,0.0,39851.6,0.0101656,39863.4,-119.986,39859.8,119.99700000000001,1.39886,-40.5005,2.4413099999999996,-166.399,1.97787,48.5551,monvsource-source,55.74680917599999,97.318917054,78.837502626
57,0.0,39856.3,0.021895599999999998,39865.9,-119.973,39864.3,120.01299999999999,2.13354,-28.1489,3.00201,-153.17,2.49254,71.3363,monvsource-source,85.035010302,119.677830459,99.363362322
58,0.0,39854.0,0.0231938,39867.1,-119.965,39867.9,120.01299999999999,2.03599,-22.9392,3.37856,-147.322,2.7911900000000003,69.6899,monvsource-source,81.14234546,134.69338937599997,111.27888380100002
59,0.0,39858.9,0.0469793,39875.8,-119.949,39869.6,120.02799999999999,3.4247900000000002,-10.321,4.56302,-144.236,3.29733,84.2004,monvsource-source,136.508362131,181.954072916,131.463228168
60,0.0,39865.4,0.0609766,39878.1,-119.931,39876.5,120.04899999999999,4.44589,-10.3206,5.4924,-137.185,4.54243,94.3558,monvsource-source,177.23718320600003,219.02647644,181.136209895
61,0.0,39857.3,0.0446019,39875.7,-119.95,39869.9,120.024,3.2235099999999997,-9.57083,4.53571,-144.411,3.2162599999999997,80.8786,monvsource-source,128.480405123,180.864611247,128.231964574
62,0.0,39862.5,0.0543385,39876.1,-119.934,39876.5,120.04299999999999,3.9662300000000004,-10.4208,5.26684,-136.732,4.32788,90.8706,monvsource-source,158.10384337500003,210.021038524,172.58070682000002
63,0.0,39858.5,0.0388655,39871.4,-119.947,39873.7,120.03,3.0041700000000002,-14.940999999999999,4.4009,-139.276,3.67135,83.2319,monvsource-source,119.74170994500001,175.47004426,146.39030849499997
64,0.0,39855.2,0.0313193,39870.1,-119.95299999999999,39872.1,120.021,2.4675700000000003,-16.3003,4.04475,-141.965,3.2879400000000003,75.605,monvsource-source,98.345495864,161.264586975,131.09707247400002
65,0.0,39855.6,0.0243035,39867.3,-119.965,39867.9,120.015,2.18218,-24.1497,3.37705,-147.628,2.83482,72.3181,monvsource-source,86.97209320799999,134.633865465,113.01832027800002
66,0.0,39855.7,0.040397699999999995,39874.5,-119.95,39870.7,120.022,2.9365200000000002,-10.0792,4.43912,-143.819,3.2099599999999997,77.5531,monvsource-source,117.037060164,177.00769044,127.98335217199998
67,0.0,39855.5,0.038447,39874.0,-119.956,39868.2,120.01799999999999,2.82987,-11.142999999999999,4.18379,-146.779,2.92983,75.704,monvsource-source,112.785883785,166.82444246,116.80704840599999
68,0.0,39856.0,0.028312200000000003,39868.9,-119.965,39866.6,120.016,2.37696,-20.3839,3.4945,-149.13299999999998,2.7319299999999997,73.5982,monvsource-source,94.73611776,139.32187105000003,108.91276053799999
69,0.0,39850.2,0.013479099999999999,39865.4,-119.978,39863.2,119.999,1.40221,-30.9874,2.81123,-157.708,2.27054,51.9631,monvsource-source,55.878348941999995,112.07080844200001,90.51099012799999
70,0.0,39845.3,-0.0097124,39857.9,-120.00299999999999,39855.4,119.978,0.923953,-106.272,1.8167400000000002,166.954,2.0840099999999997,13.2267,monvsource-source,36.81518447090001,72.41144124600001,83.05905215399999
71,0.0,39833.6,-0.045881599999999995,39848.3,-120.042,39843.2,119.93799999999999,2.79963,-163.066,2.7379,104.074,3.8169199999999996,-28.8246,monvsource-source,111.519341568,109.10066056999999,152.078306944
72,0.0,39820.8,-0.0902505,39834.8,-120.086,39830.4,119.89399999999999,5.6555599999999995,-171.34400000000002,5.211469999999999,81.0739,6.429530000000001,-41.9405,monvsource-source,225.208923648,207.59786515599998,256.09075171200004
73,0.0,39817.1,-0.10926099999999998,39827.6,-120.101,39827.2,119.882,6.851430000000001,-171.51,6.19623,75.5562,7.2284,-43.6436,monvsource-source,272.804073453,246.78096994799998,287.88693248
74,0.0,39816.1,-0.11281400000000001,39826.6,-120.10600000000001,39825.7,119.87799999999999,7.081919999999999,-171.747,6.471,75.0828,7.4809600000000005,-44.4235,monvsource-source,281.974434912,257.7179286,297.934468672
75,0.0,39815.3,-0.112239,39827.0,-120.102,39827.4,119.87799999999999,7.06658,-172.363,6.243519999999999,75.163,7.42882,-43.3154,monvsource-source,281.35800267400003,248.66067103999995,295.870585668
76,0.0,39816.3,-0.109642,39827.6,-120.09899999999999,39828.6,119.882,6.89307,-172.06099999999998,6.03147,75.3657,7.20938,-42.6426,monvsource-source,274.45654304100003,240.21897457199998,287.139512268
77,0.0,39819.1,-0.0957874,39832.5,-120.084,39832.8,119.89299999999999,6.01739,-171.88400000000001,5.12124,78.7715,6.48228,-40.0799,monvsource-source,239.60705414899996,203.99179230000001,258.20736278400005
78,0.0,39826.2,-0.0708092,39839.9,-120.056,39842.1,119.92,4.399030000000001,-169.27,3.3928800000000003,87.3563,4.894769999999999,-31.6755,monvsource-source,175.19664858600004,135.17199991200002,195.01791581699996
79,0.0,39843.5,-0.00893777,39858.4,-119.995,39859.1,119.979,0.771744,-111.28200000000001,1.87602,-178.08599999999998,2.2925,19.939,monvsource-source,30.748982064,74.775155568,91.37698675
80,0.0,39864.7,0.08419910000000001,39888.1,-119.90100000000001,39885.1,120.06200000000001,5.64329,-1.77757,7.45748,-133.13,5.64363,95.5131,monvsource-source,224.968062863,297.464707988,225.09674691299998
81,0.0,39867.9,0.07745310000000001,39883.2,-119.91,39883.0,120.065,5.40992,-6.32924,6.767010000000001,-132.983,5.59909,97.8352,monvsource-source,215.682149568,269.890013232,223.30850647000003
82,0.0,39865.3,0.067742,39880.2,-119.91799999999999,39881.2,120.056,4.78686,-7.47616,6.2205699999999995,-133.76,5.13485,94.9584,monvsource-source,190.82960995800002,248.07757571399995,204.78397981999998
83,0.0,39864.1,0.06652310000000002,39880.3,-119.92299999999999,39878.8,120.052,4.6681,-6.80127,6.01889,-135.334,4.79707,94.2383,monvsource-source,186.08960520999997,240.035138867,191.301395116
84,0.0,39867.4,0.0689681,39880.4,-119.93,39874.7,120.054,4.94785,-8.885539999999999,5.68812,-138.11,4.60888,98.1588,monvsource-source,197.25791508999998,226.844500848,183.777707336
85,0.0,39861.8,0.0472125,39873.6,-119.946,39871.9,120.036,3.5787400000000003,-13.4785,4.576280000000001,-140.622,3.7379,89.12299999999999,monvsource-source,142.65501813200004,182.47275820800002,149.03717501
86,0.0,39865.7,0.0558941,39875.7,-119.944,39871.0,120.044,4.20614,-12.9092,4.79716,-141.09,3.96975,95.3044,monvsource-source,167.680715398,191.29011301199998,158.27790224999998
87,0.0,39862.9,0.0523052,39875.4,-119.944,39871.5,120.039,3.8883099999999997,-11.9436,4.76577,-141.026,3.8035,91.4929,monvsource-source,154.999312699,190.036985058,151.65125025
88,0.0,39866.7,0.0660758,39879.9,-119.934,39873.4,120.05,4.76674,-9.38678,5.48375,-139.468,4.37403,97.0259,monvsource-source,190.034193558,218.691401625,174.407447802
89,0.0,39864.4,0.0579273,39877.8,-119.93799999999999,39873.3,120.04299999999999,4.24383,-10.7315,5.14466,-140.10299999999998,4.0961099999999995,93.1156,monvsource-source,169.177736652,205.157722548,163.32542286299997
90,0.0,39863.3,0.0688243,39883.1,-119.925,39877.0,120.04700000000001,4.75542,-5.22695,6.07199,-137.955,4.5054300000000005,92.8814,monvsource-source,189.56673408600003,242.169784369,179.66303211000002
91,0.0,39860.8,0.0496025,39876.6,-119.95200000000001,39867.9,120.029,3.6492,-11.0916,4.51864,-146.27100000000002,3.21597,86.8454,monvsource-source,145.46003136000002,180.187999824,128.213970363
92,0.0,39851.8,0.0189028,39867.2,-119.973,39864.4,120.00399999999999,1.7173599999999998,-24.7661,3.08967,-154.616,2.3864799999999997,58.9199,monvsource-source,68.439887248,123.17649182399998,95.135593312
93,0.0,39846.9,0.00303393,39862.7,-119.988,39860.2,119.988,0.8689459999999999,-54.4319,2.34235,-168.56099999999998,2.13952,33.1945,monvsource-source,34.6248043674,93.372395345,85.281695104
94,0.0,39840.3,-0.024092500000000003,39854.5,-120.02,39849.9,119.96,1.4864600000000001,-146.072,1.9345599999999998,134.613,2.6492299999999998,-11.9263,monvsource-source,59.22101233800001,77.10092151999999,105.57155057699998
95,0.0,39827.8,-0.0662683,39842.2,-120.06299999999999,39836.9,119.917,4.09971,-168.13400000000001,3.85811,89.8016,5.0080599999999995,-37.0165,monvsource-source,163.282429938,153.715590242,199.505585414
96,0.0,39815.9,-0.10970999999999999,39828.1,-120.102,39826.7,119.87899999999999,6.905889999999999,-172.31900000000002,6.22464,75.9795,7.39232,-43.7956,monvsource-source,274.964225651,247.915584384,294.411710944
97,0.0,39815.2,-0.12304100000000001,39822.3,-120.117,39822.1,119.87100000000001,7.7016,-171.12400000000002,7.239510000000001,72.9424,7.93463,-46.2611,monvsource-source,306.64074432,288.29393907300005,315.97362932299995
98,0.0,39812.2,-0.126165,39822.3,-120.118,39822.3,119.865,7.95339,-172.635,7.2572600000000005,72.9873,8.26299,-45.7638,monvsource-source,316.64195335799997,289.000784898,329.05126667700006
99,0.0,39812.5,-0.128956,39820.8,-120.12100000000001,39821.2,119.86399999999999,8.10776,-172.092,7.498810000000001,72.3214,8.33383,-46.3405,monvsource-source,322.790195,298.60861324800004,331.86311119600003
100,0.0,39812.5,-0.12019200000000001,39825.0,-120.11200000000001,39823.5,119.868,7.59828,-173.188,6.88749,74.4152,8.08033,-45.1946,monvsource-source,302.5065225,274.29428924999996,321.787021755
