hour,t(sec),V1,VAngle1,V2,VAngle2,V3,VAngle3,I1,IAngle1,I2,IAngle2,I3,IAngle3,Name,P1(kW),P2(kW),P3(kW)
1,0.0,39703.2,-0.416744,39727.3,-120.405,39722.3,119.559,27.8055,178.278,26.3335,61.8027,28.5261,-57.4449,monvsource-source,1103.9673275999999,1046.1588545500001,1133.1223020300001
2,0.0,39711.1,-0.403137,39730.9,-120.398,39724.4,119.575,26.7718,178.885,25.7971,62.0831,27.557,-57.7895,monvsource-source,1063.13762698,1024.94200039,1094.6852908
3,0.0,39718.3,-0.387711,39736.0,-120.383,39729.9,119.592,25.6647,179.318,24.8279,62.3342,26.3982,-57.6253,monvsource-source,1019.35825401,986.5614344,1048.79784618
4,0.0,39717.3,-0.389564,39735.2,-120.381,39731.2,119.592,25.8018,179.243,24.7517,62.0849,26.3701,-57.3889,monvsource-source,1024.77783114,983.51374984,1047.71571712
5,0.0,39715.2,-0.389765,39736.1,-120.381,39731.1,119.589,25.8882,178.877,24.6807,62.2141,26.5688,-57.2378,monvsource-source,1028.15504064,980.71476327,1055.6076496800001
6,0.0,39714.5,-0.39438,39733.7,-120.382,39731.4,119.588,26.1654,179.016,24.8494,61.8473,26.6147,-57.1496,monvsource-source,1039.1457783,987.35860478,1057.43929158
7,0.0,39704.3,-0.413661,39728.1,-120.401,39723.8,119.563,27.5937,178.309,26.0873,61.7481,28.2527,-57.3721,monvsource-source,1095.5885429100001,1036.3988631299999,1122.3046042600001
8,0.0,39686.9,-0.451193,39715.5,-120.437,39710.0,119.52,30.2924,177.478,28.4865,61.2484,31.0861,-57.8096,monvsource-source,1202.2114495600001,1131.35559075,1234.429031
9,0.0,39708.5,-0.419097,39720.5,-120.419,39714.8,119.566,27.7466,179.266,27.3159,61.2686,28.3628,-58.9869,monvsource-source,1101.7758661,1085.0012059499998,1126.4229294400002
10,0.0,39699.3,-0.439266,39713.8,-120.437,39708.2,119.544,29.1842,178.792,28.5388,60.9742,29.8135,-59.055,monvsource-source,1158.5923110600002,1133.38419544,1183.8404206999999
11,0.0,39715.7,-0.362565,39744.4,-120.369,39726.4,119.599,24.3763,177.398,23.7497,63.238,26.1602,-58.5299,monvsource-source,968.12181791,943.91757668,1039.25056928
12,0.0,39764.8,-0.17359,39812.1,-120.163,39794.6,119.773,12.2651,172.292,10.1488,70.8168,14.2794,-51.8562,monvsource-source,487.7192484800001,404.04504047999995,568.24301124
13,0.0,39783.0,-0.138275,39820.6,-120.128,39807.8,119.82,9.61953,173.86,7.91158,72.7686,11.2181,-49.9344,monvsource-source,382.69376199,315.043862548,446.56788118000003
14,0.0,39912.3,0.289324,39943.5,-119.687,39942.2,120.262,18.7448,3.02273,21.1507,-122.505,18.3834,113.577,monvsource-source,748.1480810400001,844.83298545,734.2734394800001
15,0.0,39870.6,0.140899,39904.0,-119.857,39888.5,120.1,9.0314,4.58321,10.4506,-130.483,7.55968,107.059,monvsource-source,360.0873368399999,417.02074239999996,301.54429568
16,0.0,39788.9,-0.141747,39816.6,-120.151,39797.0,119.819,9.56567,177.177,9.35198,72.2146,11.5225,-54.4612,monvsource-source,380.60748706300006,372.36404686799995,458.56093250000004
17,0.0,39675.1,-0.481575,39702.7,-120.492,39682.6,119.479,32.3934,177.22,32.0161,61.6068,34.3174,-60.0534,monvsource-source,1285.2113843399998,1271.12561347,1361.80365724
18,0.0,39645.2,-0.573815,39665.7,-120.595,39643.0,119.39,38.5416,177.303,38.9608,60.4724,40.5942,-61.6165,monvsource-source,1527.98944032,1545.40740456,1609.2758706
19,0.0,39640.7,-0.566946,39672.0,-120.571,39654.1,119.392,38.3377,176.513,37.4222,60.4209,40.1025,-60.4232,monvsource-source,1519.73326439,1484.6135184,1590.22854525
20,0.0,39645.9,-0.559813,39674.1,-120.541,39671.0,119.414,37.7527,176.838,35.7198,59.6017,38.2995,-59.1831,monvsource-source,1496.73976893,1417.1509171799999,1519.3794645
21,0.0,39656.7,-0.541079,39679.7,-120.533,39673.2,119.434,36.3263,177.39,35.0419,59.9942,37.0956,-59.6124,monvsource-source,1440.58118121,1390.45207943,1471.7011579199998
22,0.0,39661.4,-0.516698,39691.6,-120.508,39681.7,119.45,34.8228,176.957,33.268,60.6498,35.952,-59.0914,monvsource-source,1381.12099992,1320.4601488,1426.6364784
23,0.0,39672.4,-0.482957,39705.8,-120.475,39694.1,119.479,32.5711,176.91,30.937,61.3717,33.899,-58.5222,monvsource-source,1292.1737076400002,1228.3783346000002,1345.5902959
24,0.0,39710.2,-0.414912,39725.5,-120.411,39720.1,119.568,27.4529,179.35,26.7352,61.7747,28.0877,-58.1857,monvsource-source,1090.16014958,1062.0691876,1115.64625277
25,0.0,39722.9,-0.383129,39736.7,-120.381,39731.2,119.601,25.2524,179.894,24.6716,62.3458,25.8862,-57.7807,monvsource-source,1003.0985599600001,980.3679677199999,1028.4897894399999
26,0.0,39727.2,-0.369326,39742.2,-120.37,39734.3,119.612,24.3367,179.941,23.8864,62.8555,25.1689,-57.7275,monvsource-source,966.8289482399999,949.29808608,1000.0686232700001
27,0.0,39728.1,-0.366792,39742.8,-120.359,39740.3,119.619,24.164,179.975,23.2395,62.4158,24.5833,-56.9614,monvsource-source,959.9898084,923.6028006,976.9477169900001
28,0.0,39726.1,-0.365492,39744.3,-120.358,39739.7,119.615,24.1613,179.517,23.1524,62.6881,24.7965,-56.9111,monvsource-source,959.83421993,920.1759313200001,985.4054710500001
29,0.0,39724.3,-0.369469,39742.9,-120.355,39742.0,119.614,24.4452,179.4,23.043,62.2628,24.7928,-56.4024,monvsource-source,971.06845836,915.7956446999999,985.3154576
30,0.0,39715.8,-0.388543,39736.5,-120.372,39736.3,119.594,25.7994,178.916,24.1585,61.8542,26.1175,-56.5432,monvsource-source,1024.64381052,959.97423525,1037.81281525
31,0.0,39711.8,-0.404681,39729.8,-120.393,39727.7,119.579,26.8314,179.09,25.5916,61.6835,27.2527,-57.3854,monvsource-source,1065.5231905199998,1016.7491496800001,1082.6870897899998
32,0.0,39686.2,-0.446033,39719.7,-120.433,39711.0,119.519,30.0378,177.117,28.127,61.7629,31.1422,-57.588,monvsource-source,1192.08613836,1117.1960018999998,1236.6879042
33,0.0,39675.0,-0.470636,39709.2,-120.442,39709.2,119.501,31.8018,176.695,29.0062,60.4909,32.219,-57.1824,monvsource-source,1261.736415,1151.8129970399998,1279.3907148
34,0.0,39645.7,-0.548739,39679.2,-120.533,39672.1,119.418,37.1598,176.365,35.0562,59.9253,38.0752,-59.1627,monvsource-source,1473.2262828599996,1391.0019710399997,1510.5231419200002
35,0.0,39706.3,-0.340627,39755.4,-120.338,39732.7,119.6,23.5716,174.203,21.655,63.9522,25.9074,-57.4427,monvsource-source,935.94102108,860.903187,1029.37095198
36,0.0,39640.0,-0.535538,39686.1,-120.527,39668.3,119.411,36.6757,175.118,34.5058,60.6304,38.557,-59.413,monvsource-source,1453.824748,1369.40062938,1529.4906431000002
37,0.0,39674.9,-0.42123,39729.1,-120.382,39725.3,119.531,29.156,174.099,25.0074,61.007,30.0586,-55.8347,monvsource-source,1156.7613844,993.52149534,1194.08690258
38,0.0,39790.8,-0.108423,39825.7,-120.084,39822.7,119.86,7.71458,171.695,5.21749,72.2201,8.57237,-45.1994,monvsource-source,306.969309864,207.79019149299995,341.374918799
39,0.0,39823.2,-0.0115656,39855.6,-119.99,39852.7,119.959,1.40244,143.337,1.72777,-165.156,2.82283,-8.03919,monvsource-source,55.849648607999995,68.861310012,112.497397141
40,0.0,39738.1,-0.271848,39774.1,-120.248,39770.6,119.695,18.5949,175.514,15.988,63.0851,19.3527,-54.2723,monvsource-source,738.9259956899999,635.9083108,769.66849062
41,0.0,39630.6,-0.581031,39666.7,-120.56,39661.3,119.384,39.4911,175.914,37.0017,59.3691,40.2817,-59.3453,monvsource-source,1565.05598766,1467.7353333899998,1597.6245882100002
42,0.0,39601.8,-0.626554,39654.8,-120.611,39637.7,119.315,43.0896,174.572,40.2377,59.7481,44.944,-59.7753,monvsource-source,1706.4257212799998,1595.6179459599998,1781.4767888
43,0.0,39618.7,-0.598704,39663.4,-120.608,39635.6,119.341,40.9136,175.29,39.7862,60.6428,43.5795,-60.7858,monvsource-source,1620.94364432,1578.05596508,1727.2996302
44,0.0,39627.9,-0.582813,39668.3,-120.575,39652.7,119.37,39.6949,175.677,37.7924,60.123,41.3485,-59.869,monvsource-source,1573.02552771,1499.16026092,1639.5796659499997
45,0.0,39641.0,-0.559145,39676.4,-120.548,39665.3,119.402,37.9076,176.224,36.0113,60.149,39.163,-59.4591,monvsource-source,1502.6951716,1428.7987433199999,1553.4121439
46,0.0,39663.6,-0.51496,39691.5,-120.499,39687.3,119.458,34.6434,177.172,32.7496,60.2597,35.2939,-58.6633,monvsource-source,1374.08196024,1299.8807484,1400.71959747
47,0.0,39683.3,-0.482834,39700.0,-120.448,39712.6,119.514,32.1568,178.439,29.6354,59.3004,31.373,-57.1568,monvsource-source,1276.08794144,1176.52538,1245.9033998
48,0.0,39704.3,-0.410754,39730.4,-120.388,39731.1,119.568,27.434,178.156,25.2709,61.5258,27.7442,-56.3549,monvsource-source,1089.2477662000001,1004.0229653600001,1102.30758462
49,0.0,39717.2,-0.376862,39742.5,-120.358,39741.2,119.601,25.105,178.515,23.2014,62.3215,25.5802,-55.9595,monvsource-source,997.1003059999999,922.0816394999999,1016.58784424
50,0.0,39725.3,-0.361167,39747.0,-120.346,39745.3,119.619,23.9477,179.126,22.3886,62.6136,24.4144,-56.0169,monvsource-source,951.3295668100001,889.8796842,970.35765232
51,0.0,39725.1,-0.360835,39747.2,-120.344,39746.2,119.62,23.9381,179.06,22.2711,62.5349,24.3487,-55.8648,monvsource-source,950.9434163099999,885.21386592,967.7682999399999
52,0.0,39715.5,-0.382994,39739.5,-120.363,39739.8,119.597,25.5024,178.564,23.5569,61.9628,25.8318,-56.0625,monvsource-source,1012.8405672,936.1394275499999,1026.55056564
53,0.0,39711.2,-0.392441,39736.3,-120.37,39737.4,119.588,26.1779,178.331,24.0606,61.7009,26.4489,-56.0778,monvsource-source,1039.55582248,956.0792197800001,1051.01051886
54,0.0,39694.5,-0.435952,39720.4,-120.415,39719.9,119.542,29.1753,177.884,27.1286,61.0919,29.5572,-57.1311,monvsource-source,1158.09894585,1077.55884344,1174.0090282800002
55,0.0,39652.3,-0.544736,39675.9,-120.532,39671.6,119.432,36.689,177.004,35.1536,59.4958,37.2887,-59.7326,monvsource-source,1454.8032347,1394.7507182399997,1479.3023909199999
56,0.0,39601.8,-0.65565,39633.7,-120.649,39621.5,119.308,44.6417,175.639,43.1084,58.7074,45.9123,-61.1955,monvsource-source,1767.8916750600001,1708.5453930800002,1819.11419445
57,0.0,39612.0,-0.636277,39637.9,-120.625,39631.9,119.337,43.1988,175.982,41.5963,58.3367,43.9187,-61.0515,monvsource-source,1711.1908655999998,1648.7899797700002,1740.5815265300002
58,0.0,39693.4,-0.382353,39729.8,-120.353,39729.3,119.587,26.3251,174.696,23.3342,59.5049,26.7315,-57.4788,monvsource-source,1044.93272434,927.06309916,1062.0237829500002
59,0.0,39654.0,-0.478139,39698.7,-120.474,39679.1,119.468,33.0471,174.193,31.1062,60.2611,35.0101,-60.109,monvsource-source,1310.4497034,1234.87570194,1389.16925891
60,0.0,39697.2,-0.369908,39731.6,-120.352,39725.0,119.596,25.504,174.56,23.2319,59.8067,26.3439,-58.6511,monvsource-source,1012.4373888,923.04055804,1046.5114275
61,0.0,39661.7,-0.449676,39710.9,-120.44,39692.2,119.494,31.2192,173.757,28.8172,60.6607,33.1548,-59.3255,monvsource-source,1238.20654464,1144.3569474800001,1315.98695256
62,0.0,39593.7,-0.65319,39631.3,-120.627,39628.4,119.313,44.8367,174.748,41.9406,57.6741,45.3604,-60.667,monvsource-source,1775.25084879,1662.1605007800003,1797.56007536
63,0.0,39610.2,-0.615309,39646.3,-120.582,39648.3,119.356,42.1468,175.017,38.9345,57.7373,42.2851,-59.9036,monvsource-source,1669.44317736,1543.60886735,1676.53233033
64,0.0,39603.1,-0.63086,39645.0,-120.596,39645.1,119.334,43.2648,174.868,39.7502,58.1044,43.6236,-59.5796,monvsource-source,1713.4202008799998,1575.896679,1729.46198436
65,0.0,39589.0,-0.690164,39621.4,-120.666,39619.7,119.281,47.0039,175.575,44.4593,57.9655,47.4237,-60.5988,monvsource-source,1860.8373971,1761.53970902,1878.9127668899996
66,0.0,39606.3,-0.60885,39656.0,-120.591,39641.7,119.338,41.9626,174.359,39.1075,59.2097,43.5364,-60.0422,monvsource-source,1661.98332438,1550.84702,1725.8569078799999
67,0.0,39575.8,-0.688574,39626.8,-120.678,39607.5,119.253,47.4522,174.29,44.9435,58.9019,49.4252,-60.9451,monvsource-source,1877.95877676,1780.9670858000002,1957.608609
68,0.0,39583.4,-0.693148,39621.0,-120.678,39611.4,119.267,47.3865,175.151,45.1215,58.3057,48.4801,-60.9905,monvsource-source,1875.7187841,1787.7589515,1920.36463314
69,0.0,39590.5,-0.666007,39634.0,-120.646,39624.2,119.29,45.6503,174.892,42.9093,58.6208,46.8093,-60.3929,monvsource-source,1807.31820215,1700.6671962,1854.78106506
70,0.0,39610.2,-0.630519,39646.6,-120.615,39637.5,119.331,42.959,175.591,40.7707,58.9796,44.0301,-60.2912,monvsource-source,1701.6145818,1616.41963462,1745.24308875
71,0.0,39634.1,-0.564207,39675.6,-120.556,39659.7,119.388,38.4483,175.636,36.4955,60.3551,40.1462,-59.6496,monvsource-source,1523.86376703,1447.9808598,1592.1862481399999
72,0.0,39662.4,-0.495898,39702.3,-120.485,39688.9,119.46,33.6572,176.16,31.6317,61.2753,35.1764,-58.5005,monvsource-source,1334.9253292800001,1255.85124291,1396.11262196
73,0.0,39674.6,-0.4792,39705.6,-120.458,39703.0,119.493,32.2815,177.046,29.9953,60.6263,32.8654,-57.7741,monvsource-source,1280.7555999,1190.98138368,1304.8549762000002
74,0.0,39677.5,-0.472066,39708.5,-120.452,39704.8,119.499,31.7834,177.119,29.6054,60.8336,32.4542,-57.7562,monvsource-source,1261.0858535,1175.5860259,1288.5875201600002
75,0.0,39673.1,-0.476722,39707.7,-120.45,39706.7,119.494,32.205,176.718,29.466,60.5839,32.7022,-57.273,monvsource-source,1277.6721854999998,1170.0270882,1298.4964447399998
76,0.0,39670.8,-0.483209,39704.7,-120.454,39705.5,119.489,32.6458,176.702,29.798,60.3065,32.9958,-57.2891,monvsource-source,1295.08500264,1183.1206505999999,1310.1147369
77,0.0,39659.6,-0.502717,39698.9,-120.473,39697.0,119.463,34.1348,176.104,31.0753,60.2727,34.7341,-57.5315,monvsource-source,1353.7725140799998,1233.65522717,1378.8395677
78,0.0,39640.2,-0.549574,39680.8,-120.511,39683.4,119.419,37.4228,175.736,33.8257,59.3061,37.6536,-57.8213,monvsource-source,1483.4472765599999,1342.23083656,1494.2228702399998
79,0.0,39599.3,-0.640915,39643.5,-120.609,39640.8,119.32,43.9539,174.859,40.5063,58.3916,44.5608,-59.6029,monvsource-source,1740.54367227,1605.8115040500002,1766.4257606400001
80,0.0,39566.5,-0.672039,39632.2,-120.643,39617.1,119.26,46.9798,172.835,42.7771,58.3183,48.6737,-60.2586,monvsource-source,1858.8262566999997,1695.3505826199998,1928.3108402699997
81,0.0,39547.4,-0.764447,39589.0,-120.74,39583.0,119.196,52.6521,174.272,49.6816,57.1421,53.4304,-61.574,monvsource-source,2082.2536595399997,1966.8448624000002,2114.9355232000003
82,0.0,39563.3,-0.724132,39604.8,-120.694,39601.9,119.239,49.8548,174.357,46.6184,57.229,50.3912,-61.0659,monvsource-source,1972.42040884,1846.3124083200003,1995.5872632800001
83,0.0,39603.2,-0.606932,39647.8,-120.584,39639.1,119.349,41.9905,173.96,39.0155,58.0074,43.0293,-60.6561,monvsource-source,1662.9581695999996,1546.8787409000004,1705.64272563
84,0.0,39632.6,-0.546464,39666.8,-120.546,39649.7,119.411,37.5627,174.706,36.2527,58.8656,39.2188,-61.5921,monvsource-source,1488.7074640199999,1438.02860036,1555.0136543600001
85,0.0,39620.1,-0.59082,39652.8,-120.576,39645.3,119.376,40.4382,175.126,38.3822,58.2815,41.312,-60.8664,monvsource-source,1602.1655278199999,1521.96170016,1637.8266336000002
86,0.0,39675.8,-0.443417,39702.5,-120.444,39688.7,119.523,30.3018,175.446,29.3443,59.518,31.6496,-61.0483,monvsource-source,1202.24815644,1165.04207075,1256.1314795199999
87,0.0,39685.0,-0.402156,39718.8,-120.395,39706.4,119.559,27.7263,174.532,26.0298,59.7721,29.0135,-60.0252,monvsource-source,1100.3182155,1033.87242024,1152.0216364
88,0.0,39636.9,-0.539931,39671.8,-120.543,39652.6,119.415,37.04,174.927,35.8757,59.3662,38.8884,-61.4018,monvsource-source,1468.1507760000002,1423.25359526,1542.02616984
89,0.0,39585.2,-0.688289,39620.4,-120.683,39605.7,119.27,47.0564,175.151,45.4546,58.4167,48.5386,-61.6059,monvsource-source,1862.7370052799997,1800.92943384,1922.4052300199999
90,0.0,39587.6,-0.649881,39639.7,-120.641,39618.8,119.289,44.9157,174.024,42.4486,59.0836,47.0252,-60.9112,monvsource-source,1778.10476532,1682.6497694199998,1863.08199376
91,0.0,39584.1,-0.686149,39624.3,-120.694,39599.3,119.259,46.9869,174.974,45.9102,59.1353,49.3473,-61.8861,monvsource-source,1859.93414829,1819.1595378600002,1954.11853689
92,0.0,39578.1,-0.704919,39619.4,-120.69,39607.8,119.251,48.2297,175.051,45.8381,58.5167,49.5174,-60.8617,monvsource-source,1908.83988957,1816.07801914,1961.2752757200003
93,0.0,39576.8,-0.708844,39619.0,-120.693,39607.6,119.246,48.4923,175.061,46.0074,58.5625,49.773,-60.755,monvsource-source,1919.1700586400002,1822.7671805999998,1971.3890748000001
94,0.0,39615.7,-0.618135,39653.6,-120.611,39638.8,119.338,42.0757,175.708,40.3004,59.6229,43.6266,-60.3558,monvsource-source,1666.8583084899997,1598.05594144,1729.3060720800004
95,0.0,39646.3,-0.540941,39684.6,-120.537,39668.1,119.413,36.7165,176.108,35.0948,60.7928,38.4417,-59.507,monvsource-source,1455.67337395,1392.72310008,1524.9091997699998
96,0.0,39671.5,-0.483808,39704.9,-120.465,39699.2,119.484,32.6496,176.833,30.4485,60.8517,33.4976,-57.9635,monvsource-source,1295.2586064,1208.95464765,1329.8279219199999
97,0.0,39686.9,-0.467319,39706.9,-120.453,39705.6,119.515,31.1737,178.252,29.6752,60.6035,31.5254,-58.2415,monvsource-source,1237.18751453,1178.3101988800001,1251.73492224
98,0.0,39683.4,-0.461628,39711.6,-120.441,39709.9,119.513,30.9928,177.468,28.8542,60.8135,31.4765,-57.5444,monvsource-source,1229.89967952,1145.84644872,1249.92866735
99,0.0,39687.6,-0.459297,39711.0,-120.44,39710.8,119.521,30.7103,177.97,28.8273,60.6793,31.0212,-57.7042,monvsource-source,1218.81810228,1144.7609103000002,1231.8766689600002
100,0.0,39677.3,-0.465931,39711.9,-120.447,39705.9,119.5,31.4593,176.791,29.1951,61.1416,32.3559,-57.6381,monvsource-source,1248.22008389,1159.39289169,1284.7201298100001
101,0.0,39664.4,-0.490712,39703.7,-120.467,39698.5,119.472,33.2996,176.185,30.5543,60.717,34.1676,-57.6534,monvsource-source,1320.8086542400001,1213.11876091,1356.4024686
102,0.0,39649.4,-0.541078,39681.7,-120.52,39678.1,119.429,36.6021,176.496,34.2839,59.7848,37.2425,-58.8221,monvsource-source,1451.2513037400001,1360.44343463,1477.71163925
103,0.0,39594.1,-0.649481,39640.7,-120.627,39630.8,119.303,44.623,174.653,41.6324,58.7202,45.8215,-60.1417,monvsource-source,1766.8075242999998,1650.3374786799998,1815.9427022000002
104,0.0,39575.4,-0.691614,39617.7,-120.672,39608.0,119.265,47.6323,174.353,44.9455,57.8028,48.7348,-61.2343,monvsource-source,1885.06732542,1780.63733535,1930.2879584
105,0.0,39615.6,-0.587269,39651.0,-120.572,39642.4,119.376,40.4335,174.491,38.2308,57.9249,41.3982,-61.198,monvsource-source,1601.7973626,1515.8894508,1641.12400368
106,0.0,39714.0,-0.306424,39750.3,-120.293,39740.0,119.655,21.4414,173.107,19.3202,60.1011,22.5655,-58.8999,monvsource-source,851.5237596000001,767.98374606,896.75297
107,0.0,39838.7,0.117641,39890.5,-119.862,39877.0,120.063,7.13553,22.3068,9.58597,-125.61,5.18625,101.342,monvsource-source,284.27023901099994,382.389136285,206.81209125
108,0.0,39829.1,0.12779,39878.0,-119.861,39860.3,120.072,7.78092,28.614,9.14928,-119.503,4.83248,118.756,monvsource-source,309.90704077199996,364.85498784,192.624102544
109,0.0,39833.6,0.11554,39873.7,-119.875,39859.2,120.07,7.01339,25.9656,8.21618,-119.439,4.6717,119.033,monvsource-source,279.368571904,327.609496466,186.21022464
110,0.0,39825.4,0.0960719,39871.2,-119.876,39865.0,120.053,5.91476,33.3711,8.07152,-118.184,4.02228,106.277,monvsource-source,235.55768290400002,321.82118822399997,160.34819220000003
111,0.0,39783.1,-0.0634966,39828.6,-120.045,39817.0,119.889,6.0884,152.509,2.82439,67.9976,6.95236,-51.3437,monvsource-source,242.21542603999998,112.49149955400001,276.82211812
112,0.0,39708.9,-0.297926,39755.7,-120.277,39744.7,119.654,21.2271,171.378,18.2391,60.2754,22.4602,-57.8749,monvsource-source,842.90479119,725.10818787,892.6739109399999
113,0.0,39620.9,-0.547893,39671.4,-120.523,39660.9,119.401,38.1293,173.413,34.8089,58.5327,39.3534,-59.949,monvsource-source,1510.71718237,1380.9177954600002,1560.79126206
114,0.0,39656.6,-0.419635,39716.7,-120.402,39697.0,119.514,29.8801,171.314,26.5368,59.8201,31.8742,-59.4592,monvsource-source,1184.94317366,1053.9541245599999,1265.3101173999999
115,0.0,39642.5,-0.450098,39708.1,-120.419,39694.2,119.484,32.0904,171.164,27.7333,59.1805,33.6543,-58.6666,monvsource-source,1272.1436820000001,1101.23664973,1335.8805150599999
116,0.0,39622.9,-0.512832,39686.9,-120.489,39669.1,119.419,36.2091,172.019,32.3866,59.2305,38.0991,-59.5818,monvsource-source,1434.7095483900002,1285.32375554,1511.35700781
