hour,t(sec),V1,VAngle1,V2,VAngle2,I1,IAngle1,I2,IAngle2,Name,V3,VAngle3,I3,IAngle3,V4,VAngle4,I4,IAngle4,kv,V1(PU),V2(PU),V3(PU)
1,0.0,121.071,-32.572,121.154,-152.346,116.604,-32.5732,116.683,-152.347,monload-load_1003,121.202,87.5738,116.73,87.5728,0.0,0.0,0.340492,64.0676,0.12,1.008925,1.0096166666666666,1.0100166666666666
2,0.0,121.149,-32.4718,121.226,-152.288,113.709,-32.4718,113.781,-152.288,monload-load_1003,121.247,87.6267,113.801,87.6267,0.0,0.0,0.270886,71.4423,0.12,1.0095750000000001,1.0102166666666668,1.0103916666666666
3,0.0,121.141,-32.4448,121.207,-152.278,120.349,-32.4459,120.414,-152.279,monload-load_1003,121.224,87.6401,120.431,87.6394,0.0,0.0,0.261327,74.5392,0.12,1.0095083333333335,1.0100583333333333,1.0102
4,0.0,121.14,-32.4542,121.202,-152.281,120.232,-32.4544,120.294,-152.281,monload-load_1003,121.222,87.6517,120.314,87.651,0.0,0.0,0.279815,68.2809,0.12,1.0095,1.0100166666666666,1.0101833333333332
5,0.0,121.161,-32.4468,121.236,-152.248,116.704,-32.4468,116.777,-152.248,monload-load_1003,121.263,87.6746,116.803,87.6744,0.0,0.0,0.307512,67.1139,0.12,1.009675,1.0103,1.0105250000000001
6,0.0,121.118,-32.4828,121.184,-152.298,120.645,-32.483,120.711,-152.298,monload-load_1003,121.227,87.6507,120.754,87.6503,0.0,0.0,0.298039,58.8128,0.12,1.0093166666666666,1.0098666666666667,1.010225
7,0.0,121.026,-32.5967,121.118,-152.373,122.306,-32.5967,122.4,-152.373,monload-load_1003,121.167,87.5566,122.449,87.5562,0.0,0.0,0.359339,59.4883,0.12,1.00855,1.0093166666666666,1.009725
8,0.0,120.939,-32.737,121.07,-152.471,116.833,-32.737,116.96,-152.471,monload-load_1003,121.123,87.4492,117.011,87.4492,0.0,0.0,0.416816,55.8113,0.12,1.007825,1.0089166666666667,1.0093583333333334
9,0.0,121.208,-32.4246,121.256,-152.31,103.972,-32.4271,104.012,-152.313,monload-load_1003,121.255,87.6205,104.012,87.6184,0.0,0.0,0.160748,82.8286,0.12,1.0100666666666667,1.0104666666666666,1.0104583333333332
10,0.0,121.104,-32.5503,121.142,-152.412,108.288,-32.5503,108.323,-152.412,monload-load_1003,121.155,87.5113,108.335,87.5113,0.0,0.0,0.198075,83.1585,0.12,1.0092,1.0095166666666666,1.009625
11,0.0,121.1,-32.4081,121.226,-152.152,119.323,-32.408,119.447,-152.152,monload-load_1003,121.199,87.6525,119.42,87.6526,0.0,0.0,0.428176,92.1906,0.12,1.0091666666666665,1.0102166666666668,1.0099916666666666
12,0.0,121.456,-31.6932,121.63,-151.263,132.816,-31.6934,133.006,-151.263,monload-load_1003,121.662,88.5102,133.042,88.5101,0.0,0.0,0.745777,77.9259,0.12,1.0121333333333333,1.0135833333333333,1.0138500000000001
13,0.0,121.598,-31.516,121.693,-151.166,131.913,-31.5157,132.017,-151.166,monload-load_1003,121.741,88.647,132.068,88.6473,0.0,0.0,0.598117,82.6565,0.12,1.0133166666666666,1.0141083333333334,1.0145083333333333
14,0.0,122.57,-29.9003,122.584,-149.59,122.223,-29.9002,122.236,-149.59,monload-load_1003,122.702,90.307,122.354,90.3071,0.0,0.0,0.464959,74.9148,0.12,1.0214166666666666,1.0215333333333334,1.0225166666666667
15,0.0,122.281,-30.4476,122.389,-150.147,115.649,-30.4478,115.751,-150.147,monload-load_1003,122.398,89.6558,115.76,89.6555,0.0,0.0,0.466171,90.5274,0.12,1.0190083333333333,1.0199083333333332,1.0199833333333332
16,0.0,121.819,-31.4024,121.933,-151.157,99.9125,-31.4024,100.006,-151.157,monload-load_1003,121.887,88.6276,99.9679,88.6276,0.0,0.0,0.370369,101.333,0.12,1.0151583333333334,1.0161083333333334,1.015725
17,0.0,121.385,-33.2344,121.489,-153.01,107.177,-33.237,107.268,-153.012,monload-load_1003,121.448,86.7958,107.233,86.7931,0.0,0.0,0.362077,98.7839,0.12,1.0115416666666668,1.0124083333333334,1.0120666666666667
18,0.0,121.378,-33.1564,121.494,-152.97,112.327,-33.1561,112.434,-152.969,monload-load_1003,121.383,86.8014,112.331,86.8026,0.0,0.0,0.404944,111.997,0.12,1.0114833333333333,1.01245,1.011525
19,0.0,121.346,-33.1973,121.487,-152.919,114.635,-33.1974,114.768,-152.919,monload-load_1003,121.469,86.8889,114.751,86.8889,0.0,0.0,0.432773,85.7288,0.12,1.0112166666666667,1.0123916666666666,1.0122416666666667
20,0.0,121.381,-33.1728,121.468,-152.912,117.138,-33.1728,117.221,-152.912,monload-load_1003,121.559,87.0251,117.31,87.025,0.0,0.0,0.393012,54.6967,0.12,1.0115083333333332,1.0122333333333333,1.0129916666666667
21,0.0,121.473,-33.0498,121.549,-152.839,115.048,-33.0523,115.12,-152.841,monload-load_1003,121.602,87.0751,115.17,87.0738,0.0,0.0,0.299694,66.8202,0.12,1.012275,1.0129083333333333,1.01335
22,0.0,121.541,-32.9728,121.653,-152.699,112.224,-32.9728,112.327,-152.699,monload-load_1003,121.705,87.1774,112.376,87.1773,0.0,0.0,0.381449,69.5432,0.12,1.0128416666666666,1.013775,1.0142083333333334
23,0.0,121.577,-32.8877,121.717,-152.582,117.328,-32.8884,117.463,-152.583,monload-load_1003,121.754,87.2738,117.499,87.273,0.0,0.0,0.458259,70.0796,0.12,1.0131416666666666,1.0143083333333334,1.0146166666666667
24,0.0,121.842,-32.5287,121.874,-152.38,119.725,-32.5287,119.755,-152.38,monload-load_1003,121.901,87.5395,119.782,87.5395,0.0,0.0,0.227628,84.1775,0.12,1.01535,1.0156166666666666,1.0158416666666665
25,0.0,107.484,-0.847092,107.476,-120.841,104.702,-0.847091,104.694,-120.841,monload-load_1003,107.485,119.158,104.703,119.158,0.0,0.0,0.00600766,144.519,0.12,0.8956999999999999,0.8956333333333333,0.8957083333333333
26,0.0,107.428,-0.892342,107.422,-120.888,110.628,-0.892342,110.622,-120.888,monload-load_1003,107.43,119.112,110.631,119.112,0.0,0.0,0.00218098,124.807,0.12,0.8952333333333333,0.8951833333333333,0.8952500000000001
27,0.0,107.501,-0.831629,107.499,-120.826,102.822,-0.831766,102.82,-120.826,monload-load_1003,107.504,119.174,102.825,119.174,0.0,0.0,0.0057169,82.3651,0.12,0.8958416666666668,0.895825,0.8958666666666667
28,0.0,107.481,-0.848847,107.479,-120.844,105.233,-0.848827,105.231,-120.844,monload-load_1003,107.485,119.157,105.237,119.157,0.0,0.0,0.00527079,61.1398,0.12,0.895675,0.8956583333333333,0.8957083333333333
29,0.0,107.492,-0.841223,107.489,-120.836,104.364,-0.841258,104.361,-120.836,monload-load_1003,107.495,119.164,104.366,119.164,0.0,0.0,0.00458031,92.3827,0.12,0.8957666666666667,0.8957416666666667,0.8957916666666667
30,0.0,107.507,-0.829576,107.501,-120.825,102.963,-0.82961,102.958,-120.825,monload-load_1003,107.507,119.174,102.963,119.174,0.0,0.0,0.00546464,144.261,0.12,0.8958916666666668,0.8958416666666668,0.8958916666666668
31,0.0,107.495,-0.839198,107.488,-120.832,103.75,-0.839198,103.743,-120.832,monload-load_1003,107.499,119.168,103.754,119.168,0.0,0.0,0.00327809,103.301,0.12,0.8957916666666667,0.8957333333333334,0.895825
32,0.0,107.463,-0.86741,107.45,-120.856,106.603,-0.867409,106.59,-120.856,monload-load_1003,107.465,119.143,106.606,119.143,0.0,0.0,0.0101622,130.614,0.12,0.8955249999999999,0.8954166666666666,0.8955416666666667
33,0.0,107.391,-0.92282,107.381,-120.908,113.276,-0.92282,113.265,-120.908,monload-load_1003,107.402,119.093,113.288,119.093,0.0,0.0,0.0103606,75.5415,0.12,0.8949250000000001,0.8948416666666666,0.8950166666666667
34,0.0,107.125,-1.14263,107.098,-121.129,140.714,-1.14263,140.679,-121.129,monload-load_1003,107.128,118.87,140.719,118.87,0.0,0.0,0.0177008,-173.15,0.12,0.8927083333333333,0.8924833333333333,0.8927333333333334
35,0.0,107.138,-1.1312,107.097,-121.116,139.699,-1.1312,139.645,-121.116,monload-load_1003,107.128,118.878,139.686,118.878,0.0,0.0,0.0480345,-174.442,0.12,0.8928166666666667,0.8924749999999999,0.8927333333333334
36,0.0,106.832,-1.38376,106.771,-121.376,171.613,-1.38376,171.515,-121.376,monload-load_1003,106.809,118.614,171.577,118.614,0.0,0.0,0.100951,-155.046,0.12,0.8902666666666667,0.8897583333333333,0.890075
37,0.0,106.42,-1.70677,106.375,-121.702,213.01,-1.7082,212.92,-121.703,monload-load_1003,106.413,118.295,212.996,118.294,0.0,0.0,0.0823462,-142.018,0.12,0.8868333333333334,0.8864583333333333,0.886775
38,0.0,106.805,-1.39505,106.758,-121.387,175.262,-1.39392,175.185,-121.386,monload-load_1003,106.785,118.604,175.229,118.606,0.0,0.0,0.0813902,-162.314,0.12,0.8900416666666667,0.8896499999999999,0.889875
39,0.0,107.203,-1.0723,107.162,-121.065,134.065,-1.07309,134.014,-121.066,monload-load_1003,107.196,118.932,134.056,118.931,0.0,0.0,0.0439511,-148.675,0.12,0.8933583333333334,0.8930166666666667,0.8933
40,0.0,107.128,-1.13488,107.092,-121.128,141.602,-1.13473,141.555,-121.128,monload-load_1003,107.118,118.867,141.589,118.867,0.0,0.0,0.0448065,-155.446,0.12,0.8927333333333334,0.8924333333333333,0.8926499999999999
41,0.0,107.264,-1.02854,107.248,-121.026,127.181,-1.02825,127.163,-121.026,monload-load_1003,107.265,118.974,127.183,118.975,0.0,0.0,0.0144196,-128.122,0.12,0.8938666666666666,0.8937333333333334,0.893875
42,0.0,107.23,-1.05201,107.205,-121.051,130.512,-1.05195,130.482,-121.051,monload-load_1003,107.228,118.948,130.509,118.948,0.0,0.0,0.0295873,-129.922,0.12,0.8935833333333334,0.893375,0.8935666666666666
43,0.0,107.213,-1.07271,107.173,-121.07,133.104,-1.07271,133.055,-121.07,monload-load_1003,107.189,118.921,133.075,118.921,0.0,0.0,0.0596394,-160.014,0.12,0.8934416666666666,0.8931083333333334,0.8932416666666666
44,0.0,107.203,-1.07706,107.182,-121.071,133.389,-1.07706,133.364,-121.071,monload-load_1003,107.201,118.928,133.387,118.928,0.0,0.0,0.0190621,-158.302,0.12,0.8933583333333334,0.8931833333333333,0.8933416666666666
45,0.0,107.263,-1.02725,107.253,-121.019,127.106,-1.02725,127.095,-121.019,monload-load_1003,107.263,118.979,127.106,118.979,0.0,0.0,0.0110924,144.858,0.12,0.8938583333333334,0.893775,0.8938583333333334
46,0.0,107.253,-1.0368,107.238,-121.032,128.709,-1.0368,128.691,-121.032,monload-load_1003,107.25,118.967,128.706,118.967,0.0,0.0,0.0142727,-168.682,0.12,0.893775,0.8936499999999999,0.89375
47,0.0,107.246,-1.04209,107.235,-121.037,129.572,-1.04209,129.559,-121.037,monload-load_1003,107.245,118.962,129.571,118.962,0.0,0.0,0.00984675,-174.544,0.12,0.8937166666666666,0.893625,0.8937083333333333
48,0.0,107.214,-1.06476,107.216,-121.058,132.248,-1.0647,132.251,-121.058,monload-load_1003,107.226,118.945,132.263,118.945,0.0,0.0,0.0173638,28.0283,0.12,0.89345,0.8934666666666666,0.89355
49,0.0,107.27,-1.02253,107.267,-121.016,127.182,-1.02271,127.178,-121.016,monload-load_1003,107.272,118.983,127.184,118.983,0.0,0.0,0.00821509,102.93,0.12,0.8939166666666666,0.8938916666666666,0.8939333333333334
50,0.0,107.306,-0.992403,107.302,-120.987,123.352,-0.99253,123.347,-120.987,monload-load_1003,107.311,119.014,123.358,119.014,0.0,0.0,0.00427341,51.0811,0.12,0.8942166666666667,0.8941833333333334,0.8942583333333334
51,0.0,107.324,-0.978964,107.319,-120.973,121.703,-0.979026,121.697,-120.973,monload-load_1003,107.326,119.027,121.705,119.026,0.0,0.0,0.00594858,117.946,0.12,0.8943666666666666,0.894325,0.8943833333333333
52,0.0,107.306,-0.991531,107.303,-120.985,123.068,-0.991481,123.065,-120.985,monload-load_1003,107.312,119.016,123.075,119.016,0.0,0.0,0.00707421,48.2281,0.12,0.8942166666666667,0.8941916666666666,0.8942666666666667
53,0.0,107.323,-0.979027,107.317,-120.973,121.601,-0.979105,121.594,-120.973,monload-load_1003,107.326,119.027,121.603,119.027,0.0,0.0,0.00528501,118.546,0.12,0.8943583333333333,0.8943083333333333,0.8943833333333333
54,0.0,107.283,-1.00921,107.282,-121.002,125.123,-1.00908,125.122,-121.002,monload-load_1003,107.289,118.998,125.129,118.998,0.0,0.0,0.0096782,70.1463,0.12,0.894025,0.8940166666666667,0.8940750000000001
55,0.0,107.303,-0.993777,107.298,-120.984,122.733,-0.993777,122.728,-120.984,monload-load_1003,107.308,119.016,122.739,119.016,0.0,0.0,0.0105918,83.0221,0.12,0.8941916666666666,0.89415,0.8942333333333334
56,0.0,106.637,-1.52457,106.633,-121.517,189.235,-1.52456,189.228,-121.517,monload-load_1003,106.65,118.486,189.257,118.486,0.0,0.0,0.016391,11.0975,0.12,0.8886416666666667,0.8886083333333333,0.88875
57,0.0,105.992,-2.03618,105.986,-122.026,253.19,-2.03615,253.174,-122.026,monload-load_1003,106.005,117.976,253.22,117.976,0.0,0.0,0.0198457,25.0821,0.12,0.8832666666666668,0.8832166666666666,0.8833749999999999
58,0.0,104.989,-2.81653,104.988,-122.804,352.343,-2.81632,352.34,-122.803,monload-load_1003,105.009,117.201,352.412,117.201,0.0,0.0,0.066789,26.0707,0.12,0.8749083333333334,0.8749,0.875075
59,0.0,105.056,-2.77517,105.031,-122.762,347.012,-2.77519,346.929,-122.762,monload-load_1003,105.045,117.231,346.974,117.232,0.0,0.0,0.0967098,164.204,0.12,0.8754666666666666,0.8752583333333334,0.875375
60,0.0,104.932,-2.86875,104.904,-122.858,360.063,-2.86872,359.966,-122.858,monload-load_1003,104.917,117.135,360.013,117.135,0.0,0.0,0.112913,173.975,0.12,0.8744333333333334,0.8742,0.8743083333333334
61,0.0,105.043,-2.78375,105.012,-122.776,348.596,-2.78377,348.493,-122.776,monload-load_1003,105.035,117.22,348.57,117.22,0.0,0.0,0.0929639,-161.752,0.12,0.8753583333333333,0.8751,0.8752916666666667
62,0.0,104.716,-3.03537,104.693,-123.027,379.197,-3.0354,379.113,-123.027,monload-load_1003,104.722,116.973,379.217,116.973,0.0,0.0,0.0461707,-132.785,0.12,0.8726333333333333,0.8724416666666667,0.8726833333333333
63,0.0,104.741,-3.01918,104.723,-123.004,377.084,-3.01918,377.02,-123.004,monload-load_1003,104.746,116.994,377.101,116.994,0.0,0.0,0.0392846,139.628,0.12,0.8728416666666666,0.8726916666666666,0.8728833333333333
64,0.0,104.922,-2.88441,104.897,-122.867,359.8,-2.88536,359.713,-122.868,monload-load_1003,104.912,117.126,359.765,117.125,0.0,0.0,0.107301,153.985,0.12,0.87435,0.8741416666666667,0.8742666666666667
65,0.0,105.295,-2.59016,105.284,-122.574,322.365,-2.59017,322.33,-122.574,monload-load_1003,105.303,117.426,322.388,117.426,0.0,0.0,0.0415349,98.4996,0.12,0.8774583333333333,0.8773666666666667,0.877525
66,0.0,105.813,-2.19104,105.797,-122.177,273.238,-2.19111,273.197,-122.177,monload-load_1003,105.8,117.816,273.205,117.816,0.0,0.0,0.0772947,144.795,0.12,0.881775,0.8816416666666667,0.8816666666666666
67,0.0,106.949,-1.2862,106.922,-121.278,159.515,-1.2809,159.475,-121.272,monload-load_1003,106.922,118.712,159.475,118.717,0.0,0.0,0.0670912,170.969,0.12,0.8912416666666666,0.8910166666666667,0.8910166666666667
68,0.0,107.017,-1.22591,107.003,-121.218,151.877,-1.22574,151.857,-121.218,monload-load_1003,107.011,118.778,151.868,118.779,0.0,0.0,0.0240604,162.977,0.12,0.8918083333333333,0.8916916666666667,0.8917583333333333
69,0.0,107.036,-1.20941,107.015,-121.207,150.326,-1.20946,150.296,-121.207,monload-load_1003,107.036,118.793,150.327,118.792,0.0,0.0,0.0256783,-127.714,0.12,0.8919666666666667,0.8917916666666666,0.8919666666666667
70,0.0,107.054,-1.19456,107.031,-121.193,148.41,-1.19456,148.378,-121.193,monload-load_1003,107.052,118.806,148.406,118.806,0.0,0.0,0.029143,-135.657,0.12,0.8921166666666667,0.8919250000000001,0.8921
71,0.0,107.026,-1.21743,107.015,-121.211,151.128,-1.21743,151.113,-121.211,monload-load_1003,107.025,118.787,151.127,118.787,0.0,0.0,0.012194,169.578,0.12,0.8918833333333333,0.8917916666666666,0.8918750000000001
72,0.0,106.993,-1.24199,106.993,-121.235,154.256,-1.24199,154.256,-121.235,monload-load_1003,107.002,118.767,154.268,118.767,0.0,0.0,0.0152301,42.8856,0.12,0.8916083333333333,0.8916083333333333,0.8916833333333333
73,0.0,121.085,-33.2163,121.199,-152.947,171.345,-33.2164,171.507,-152.947,monload-load_1003,121.277,86.9932,171.618,86.9932,0.0,0.0,0.623772,51.2078,0.12,1.0090416666666666,1.0099916666666666,1.0106416666666667
74,0.0,121.091,-33.2002,121.202,-152.93,173.163,-33.2002,173.321,-152.93,monload-load_1003,121.272,86.9976,173.422,86.9976,0.0,0.0,0.620476,55.0963,0.12,1.0090916666666667,1.0100166666666666,1.0106
75,0.0,121.091,-33.2216,121.209,-152.917,170.524,-33.2216,170.69,-152.917,monload-load_1003,121.311,87.0304,170.834,87.03,0.0,0.0,0.709719,48.643,0.12,1.0090916666666667,1.010075,1.010925
76,0.0,121.136,-33.2029,121.244,-152.902,164.736,-33.2041,164.882,-152.903,monload-load_1003,121.355,87.0589,165.033,87.0582,0.0,0.0,0.691422,46.5629,0.12,1.0094666666666667,1.0103666666666666,1.0112916666666667
77,0.0,121.084,-33.286,121.23,-152.939,160.927,-33.2864,161.121,-152.939,monload-load_1003,121.331,86.9968,161.255,86.9967,0.0,0.0,0.776375,49.1071,0.12,1.0090333333333334,1.01025,1.0110916666666667
78,0.0,120.974,-33.4591,121.105,-153.102,158.281,-33.4591,158.452,-153.102,monload-load_1003,121.256,86.8731,158.65,86.8731,0.0,0.0,0.809433,41.5494,0.12,1.0081166666666668,1.0092083333333333,1.0104666666666666
79,0.0,120.639,-33.8566,120.787,-153.477,159.803,-33.8565,160.0,-153.477,monload-load_1003,120.911,86.451,160.163,86.451,0.0,0.0,0.824048,49.0687,0.12,1.005325,1.0065583333333334,1.0075916666666667
80,0.0,120.465,-34.5774,120.016,-153.978,221.701,-34.5761,220.877,-153.978,monload-load_1003,120.15,85.8249,221.123,85.8251,0.0,0.0,2.18615,94.0434,0.12,1.003875,1.0001333333333333,1.00125
81,0.0,119.726,-35.2295,119.87,-154.839,281.622,-35.2298,281.951,-154.844,monload-load_1003,119.999,85.0588,282.252,85.0546,0.0,0.0,1.38697,53.0129,0.12,0.9977166666666667,0.9989166666666667,0.9999916666666666
82,0.0,118.897,-35.7272,119.029,-155.336,376.304,-35.7246,376.721,-155.333,monload-load_1003,119.178,84.5862,377.195,84.5887,0.0,0.0,1.91588,48.1804,0.12,0.9908083333333334,0.9919083333333333,0.99315
83,0.0,119.23,-35.2384,119.381,-154.82,370.721,-35.2384,371.192,-154.82,monload-load_1003,119.49,85.0418,371.528,85.0419,0.0,0.0,1.97342,58.9102,0.12,0.9935833333333334,0.9948416666666666,0.9957499999999999
84,0.0,119.43,-34.9278,119.561,-154.608,369.372,-34.9277,369.777,-154.608,monload-load_1003,119.571,85.1906,369.809,85.1906,0.0,0.0,1.55516,82.2546,0.12,0.9952500000000001,0.9963416666666667,0.996425
85,0.0,119.371,-35.0927,119.453,-154.782,369.769,-35.0921,370.025,-154.781,monload-load_1003,119.54,85.0962,370.297,85.096,0.0,0.0,1.40583,67.1897,0.12,0.9947583333333333,0.9954416666666667,0.9961666666666668
86,0.0,119.306,-34.9812,119.399,-154.736,389.833,-34.9812,390.137,-154.736,monload-load_1003,119.402,85.0996,390.148,85.0996,0.0,0.0,1.2792,86.0937,0.12,0.9942166666666666,0.9949916666666667,0.9950166666666667
87,0.0,119.493,-34.5746,119.627,-154.256,402.36,-34.5745,402.813,-154.256,monload-load_1003,119.649,85.5832,402.885,85.5833,0.0,0.0,1.67983,72.4203,0.12,0.995775,0.9968916666666666,0.997075
88,0.0,118.991,-35.439,119.122,-155.117,393.255,-35.439,393.69,-155.117,monload-load_1003,119.105,84.6592,393.633,84.6592,0.0,0.0,1.75621,86.5735,0.12,0.9915916666666666,0.9926833333333334,0.9925416666666667
89,0.0,119.439,-35.2652,119.601,-154.938,336.137,-35.2652,336.596,-154.938,monload-load_1003,119.609,84.8925,336.616,84.8925,0.0,0.0,1.45584,70.4659,0.12,0.9953249999999999,0.996675,0.9967416666666666
90,0.0,119.637,-35.3411,119.894,-154.873,284.184,-35.341,284.793,-154.873,monload-load_1003,119.918,84.8952,284.85,84.8954,0.0,0.0,1.73415,66.8301,0.12,0.9969750000000001,0.9991166666666668,0.9993166666666667
91,0.0,120.882,-34.2684,121.057,-153.905,191.359,-34.2684,191.634,-153.905,monload-load_1003,121.04,85.8301,191.609,85.8301,0.0,0.0,0.938068,88.3157,0.12,1.00735,1.0088083333333333,1.0086666666666668
92,0.0,121.197,-34.1171,121.337,-153.733,158.513,-34.1169,158.697,-153.733,monload-load_1003,121.414,86.1088,158.797,86.1089,0.0,0.0,0.769706,66.8871,0.12,1.009975,1.0111416666666666,1.0117833333333333
93,0.0,121.196,-34.1359,121.346,-153.746,158.984,-34.1359,159.18,-153.746,monload-load_1003,121.429,86.1001,159.289,86.1001,0.0,0.0,0.782074,64.7429,0.12,1.0099666666666667,1.0112166666666667,1.0119083333333334
94,0.0,121.511,-33.7189,121.673,-153.373,155.412,-33.7189,155.617,-153.373,monload-load_1003,121.708,86.4539,155.662,86.454,0.0,0.0,0.688559,71.5268,0.12,1.0125916666666666,1.0139416666666667,1.0142333333333333
95,0.0,121.711,-33.429,121.901,-153.086,158.461,-33.4312,158.707,-153.088,monload-load_1003,121.91,86.7329,158.72,86.7307,0.0,0.0,0.711414,71.6451,0.12,1.0142583333333333,1.0158416666666665,1.0159166666666666
96,0.0,121.918,-33.174,122.05,-152.867,158.918,-33.174,159.089,-152.867,monload-load_1003,122.13,87.0442,159.194,87.0441,0.0,0.0,0.638007,56.0587,0.12,1.0159833333333335,1.0170833333333333,1.01775
1,0.0,121.477,-32.0361,121.557,-151.81,52.7358,-32.0371,52.7701,-151.81,monload-load_1004,121.609,88.1102,52.7926,88.1094,0.0,0.0,0.153282,64.92,0.12,1.0123083333333334,1.012975,1.0134083333333332
