hour,t(sec),V1,VAngle1,V2,VAngle2,V3,VAngle3,I1,IAngle1,I2,IAngle2,I3,IAngle3,Name,P1(kW),P2(kW),P3(kW)
1,0.0,39703.2,-0.416744,39727.3,-120.405,39722.3,119.559,27.8055,178.278,26.3335,61.8027,28.5261,-57.4449,monvsource-source,1103.9673275999999,1046.1588545500001,1133.1223020300001
2,0.0,39711.1,-0.403137,39730.9,-120.398,39724.4,119.575,26.7718,178.885,25.7971,62.0831,27.557,-57.7895,monvsource-source,1063.13762698,1024.94200039,1094.6852908
3,0.0,39718.3,-0.387711,39736.0,-120.383,39729.9,119.592,25.6647,179.318,24.8279,62.3342,26.3982,-57.6253,monvsource-source,1019.35825401,986.5614344,1048.79784618
4,0.0,39717.3,-0.389564,39735.2,-120.381,39731.2,119.592,25.8018,179.243,24.7517,62.0849,26.3701,-57.3889,monvsource-source,1024.77783114,983.51374984,1047.71571712
5,0.0,39715.2,-0.389765,39736.1,-120.381,39731.1,119.589,25.8882,178.877,24.6807,62.2141,26.5688,-57.2378,monvsource-source,1028.15504064,980.71476327,1055.6076496800001
6,0.0,39714.5,-0.39438,39733.7,-120.382,39731.4,119.588,26.1654,179.016,24.8494,61.8473,26.6147,-57.1496,monvsource-source,1039.1457783,987.35860478,1057.43929158
7,0.0,39704.3,-0.413661,39728.1,-120.401,39723.8,119.563,27.5937,178.309,26.0873,61.7481,28.2527,-57.3721,monvsource-source,1095.5885429100001,1036.3988631299999,1122.3046042600001
8,0.0,39686.9,-0.451193,39715.5,-120.437,39710.0,119.52,30.2924,177.478,28.4865,61.2484,31.0861,-57.8096,monvsource-source,1202.2114495600001,1131.35559075,1234.429031
9,0.0,39717.4,-0.393207,39729.5,-120.393,39723.7,119.592,26.0012,179.45,25.5694,61.5958,26.6197,-58.6811,monvsource-source,1032.7000608800001,1015.8594773,1057.43297689
10,0.0,39708.0,-0.41431,39722.5,-120.412,39716.9,119.569,27.4996,178.941,26.8524,61.2656,28.1309,-58.7689,monvsource-source,1091.9541168,1066.644459,1117.2721422099999
11,0.0,39735.5,-0.303497,39764.4,-120.309,39746.5,119.658,20.4072,177.444,19.7815,64.4819,22.1987,-57.6904,monvsource-source,810.8902956,786.5994786,882.3206295499999
12,0.0,39801.5,-0.0566279,39849.1,-120.045,39832.1,119.89,4.63426,161.103,2.94099,103.953,6.70166,-40.5306,monvsource-source,184.45049939,117.19580460899999,266.941191286
13,0.0,39821.7,-0.0130621,39859.6,-120.002,39847.3,119.945,1.56159,143.809,1.96115,169.621,3.43491,-21.7962,monvsource-source,62.18516850299999,78.17065453999999,136.871889243
14,0.0,39996.8,0.619472,40027.7,-119.355,40027.9,120.594,40.1344,3.35129,42.6019,-119.297,39.7601,118.906,monvsource-source,1605.2475699200002,1705.2560726299998,1591.5133067900001
15,0.0,39942.2,0.402362,39975.8,-119.594,39961.3,120.363,26.0939,2.98668,27.4786,-122.57,24.5368,117.332,monvsource-source,1042.24777258,1098.4790178800001,980.5224258400001
16,0.0,39834.9,0.00732946,39862.7,-120.001,39843.5,119.968,0.486904,47.4436,2.23098,171.035,2.00309,-20.6478,monvsource-source,19.395772149600003,88.932886446,79.810116415
17,0.0,39681.3,-0.464073,39708.7,-120.471,39691.0,119.498,31.2063,177.275,30.6232,61.6374,32.9337,-59.685,monvsource-source,1238.30655219,1216.00746184,1307.1714867
18,0.0,39645.2,-0.573815,39665.7,-120.595,39643.0,119.39,38.5415,177.303,38.9608,60.4725,40.5943,-61.6165,monvsource-source,1527.9854758,1545.40740456,1609.2798349
19,0.0,39640.7,-0.566946,39672.0,-120.571,39654.1,119.392,38.3377,176.513,37.4222,60.4209,40.1025,-60.4232,monvsource-source,1519.73326439,1484.6135184,1590.22854525
20,0.0,39645.9,-0.559813,39674.1,-120.541,39671.0,119.414,37.7527,176.838,35.7198,59.6017,38.2995,-59.1831,monvsource-source,1496.73976893,1417.1509171799999,1519.3794645
21,0.0,39656.7,-0.541079,39679.7,-120.533,39673.2,119.434,36.3263,177.39,35.0419,59.9942,37.0956,-59.6125,monvsource-source,1440.58118121,1390.45207943,1471.7011579199998
22,0.0,39661.4,-0.516698,39691.6,-120.508,39681.7,119.45,34.8228,176.957,33.268,60.6498,35.952,-59.0914,monvsource-source,1381.12099992,1320.4601488,1426.6364784
23,0.0,39672.4,-0.482957,39705.8,-120.475,39694.1,119.479,32.5711,176.91,30.937,61.3717,33.8991,-58.5222,monvsource-source,1292.1737076400002,1228.3783346000002,1345.5942653099999
24,0.0,39710.2,-0.414912,39725.5,-120.411,39720.1,119.568,27.4529,179.35,26.7352,61.7747,28.0877,-58.1857,monvsource-source,1090.16014958,1062.0691876,1115.64625277
25,0.0,39722.9,-0.383129,39736.7,-120.381,39731.2,119.601,25.2524,179.894,24.6716,62.3458,25.8862,-57.7807,monvsource-source,1003.0985599600001,980.3679677199999,1028.4897894399999
26,0.0,39727.2,-0.369326,39742.2,-120.37,39734.3,119.612,24.3367,179.941,23.8864,62.8555,25.1689,-57.7275,monvsource-source,966.8289482399999,949.29808608,1000.0686232700001
27,0.0,39728.1,-0.366792,39742.8,-120.359,39740.3,119.619,24.164,179.975,23.2394,62.4158,24.5833,-56.9614,monvsource-source,959.9898084,923.5988263200001,976.9477169900001
28,0.0,39726.1,-0.365491,39744.3,-120.358,39739.7,119.615,24.1613,179.517,23.1524,62.6881,24.7965,-56.9111,monvsource-source,959.83421993,920.1759313200001,985.4054710500001
29,0.0,39724.3,-0.369469,39742.9,-120.355,39742.0,119.614,24.4452,179.4,23.043,62.2628,24.7928,-56.4024,monvsource-source,971.06845836,915.7956446999999,985.3154576
30,0.0,39715.8,-0.388543,39736.5,-120.372,39736.3,119.594,25.7994,178.916,24.1585,61.8542,26.1175,-56.5432,monvsource-source,1024.64381052,959.97423525,1037.81281525
31,0.0,39711.8,-0.404681,39729.8,-120.393,39727.7,119.579,26.8314,179.09,25.5916,61.6835,27.2527,-57.3854,monvsource-source,1065.5231905199998,1016.7491496800001,1082.6870897899998
32,0.0,39686.2,-0.446033,39719.7,-120.433,39711.0,119.519,30.0378,177.117,28.1269,61.7629,31.1422,-57.588,monvsource-source,1192.08613836,1117.19202993,1236.6879042
33,0.0,39677.1,-0.464599,39711.3,-120.436,39711.3,119.507,31.3939,176.701,28.5966,60.5486,31.8111,-57.095,monvsource-source,1245.6189096899998,1135.6081615800001,1263.26013543
34,0.0,39649.8,-0.537526,39683.2,-120.521,39676.2,119.429,36.3972,176.387,34.29,60.0262,37.3126,-59.0429,monvsource-source,1443.1417005600001,1360.7369279999998,1480.42218012
35,0.0,39740.7,-0.236544,39790.3,-120.232,39768.0,119.704,16.614,172.806,14.6677,67.0431,18.9411,-55.3756,monvsource-source,660.2519897999999,583.63218331,753.2496647999999
36,0.0,39654.0,-0.496245,39700.3,-120.487,39682.6,119.451,34.0086,175.081,31.8201,61.0549,35.8872,-58.9998,monvsource-source,1348.5770244,1263.26751603,1424.09740272
37,0.0,39705.6,-0.331243,39759.8,-120.291,39756.8,119.621,23.1063,173.393,18.8904,62.2762,24.005,-53.8373,monvsource-source,917.44950528,751.0785259200001,954.361984
38,0.0,39854.7,0.102344,39889.0,-119.872,39887.1,120.072,6.39262,9.58158,8.96968,-126.86,6.1819,98.5856,monvsource-source,254.775952314,357.79156552,246.57806348999998
39,0.0,39896.2,0.2406,39928.4,-119.736,39926.5,120.212,15.4828,4.03635,17.9057,-122.899,15.0714,112.299,monvsource-source,617.7048853599999,714.9459518799999,601.7482521000001
40,0.0,39776.5,-0.153589,39812.1,-120.129,39809.3,119.814,10.706,173.644,8.10529,67.6577,11.5116,-48.9549,monvsource-source,425.84720899999996,322.688616009,458.26873788
41,0.0,39633.6,-0.57278,39669.7,-120.552,39664.4,119.393,38.929,175.926,36.4363,59.4333,39.7188,-59.2613,monvsource-source,1542.8964144000001,1445.41709011,1575.4223707200003
42,0.0,39601.8,-0.626554,39654.8,-120.611,39637.7,119.315,43.0896,174.572,40.2377,59.7481,44.944,-59.7753,monvsource-source,1706.4257212799998,1595.6179459599998,1781.4767888
43,0.0,39618.7,-0.598704,39663.4,-120.608,39635.6,119.341,40.9136,175.29,39.7862,60.6428,43.5795,-60.7857,monvsource-source,1620.94364432,1578.05596508,1727.2996302
44,0.0,39627.9,-0.582813,39668.3,-120.575,39652.7,119.37,39.6949,175.677,37.7924,60.123,41.3485,-59.869,monvsource-source,1573.02552771,1499.16026092,1639.5796659499997
45,0.0,39641.0,-0.559145,39676.4,-120.548,39665.3,119.402,37.9076,176.224,36.0113,60.149,39.1629,-59.4591,monvsource-source,1502.6951716,1428.7987433199999,1553.4081773700002
46,0.0,39663.6,-0.51496,39691.5,-120.499,39687.3,119.458,34.6434,177.172,32.7497,60.2598,35.2939,-58.6634,monvsource-source,1374.08196024,1299.88471755,1400.71959747
47,0.0,39683.3,-0.482834,39700.0,-120.448,39712.6,119.514,32.1568,178.439,29.6355,59.3004,31.373,-57.1569,monvsource-source,1276.08794144,1176.52935,1245.9033998
48,0.0,39704.3,-0.410754,39730.4,-120.388,39731.1,119.568,27.4339,178.156,25.271,61.5259,27.7441,-56.355,monvsource-source,1089.2437957700001,1004.0269384000001,1102.3036115099999
49,0.0,39717.2,-0.376861,39742.5,-120.358,39741.2,119.601,25.1049,178.516,23.2015,62.3216,25.5802,-55.9595,monvsource-source,997.09633428,922.08561375,1016.58784424
50,0.0,39725.3,-0.361153,39747.0,-120.346,39745.2,119.619,23.9477,179.122,22.3886,62.6099,24.4148,-56.0214,monvsource-source,951.3295668100001,889.8796842,970.3711089599999
51,0.0,39725.1,-0.360837,39747.2,-120.344,39746.2,119.62,23.9381,179.06,22.2711,62.5346,24.3486,-55.8648,monvsource-source,950.9434163099999,885.21386592,967.7643253199999
52,0.0,39715.5,-0.382989,39739.5,-120.363,39739.8,119.597,25.5023,178.563,23.5565,61.9629,25.8321,-56.0627,monvsource-source,1012.83659565,936.12353175,1026.5624875800002
53,0.0,39711.2,-0.392436,39736.3,-120.37,39737.4,119.588,26.1776,178.331,24.0606,61.7014,26.4492,-56.0784,monvsource-source,1039.54390912,956.0792197800001,1051.02244008
54,0.0,39694.5,-0.435952,39720.4,-120.415,39719.9,119.542,29.1753,177.884,27.1285,61.0918,29.5572,-57.1311,monvsource-source,1158.09894585,1077.5548714000001,1174.0090282800002
55,0.0,39652.3,-0.544736,39675.9,-120.532,39671.6,119.432,36.689,177.004,35.1536,59.4958,37.2887,-59.7326,monvsource-source,1454.8032347,1394.7507182399997,1479.3023909199999
56,0.0,39605.1,-0.646938,39637.0,-120.641,39624.8,119.316,44.0451,175.657,42.509,58.7686,45.3153,-61.132,monvsource-source,1744.4105900099999,1684.929233,1795.6096994400002
57,0.0,39618.2,-0.619412,39644.2,-120.608,39638.1,119.354,42.0471,176.017,40.44,58.4387,42.7658,-60.9301,monvsource-source,1665.8304172199998,1603.2114479999998,1695.15505698
58,0.0,39727.0,-0.282152,39763.4,-120.252,39763.4,119.688,19.6049,173.841,16.5598,60.3596,19.9966,-55.5842,monvsource-source,778.8438623000001,658.47395132,795.1328044400001
59,0.0,39682.1,-0.396997,39727.1,-120.392,39707.8,119.549,27.5717,173.774,25.5875,61.1117,29.5173,-59.3501,monvsource-source,1094.1029565699998,1016.5171712499999,1172.06704494
60,0.0,39730.8,-0.269464,39765.3,-120.251,39759.2,119.697,18.7713,173.592,16.4484,60.8041,19.589,-57.1339,monvsource-source,745.79876604,654.0755605200001,778.8429687999999
61,0.0,39696.0,-0.349555,39745.5,-120.339,39727.3,119.594,24.4834,172.966,22.0175,61.8903,26.3914,-58.1533,monvsource-source,971.8930464,875.0965462499998,1048.4590652200002
62,0.0,39615.9,-0.59282,39653.5,-120.566,39651.0,119.374,40.7145,174.751,37.7893,57.9779,41.2258,-60.1711,monvsource-source,1612.94156055,1498.47800755,1634.6441957999998
63,0.0,39627.7,-0.567085,39663.8,-120.533,39666.1,119.405,38.861,175.017,35.6267,57.9669,38.9898,-59.4513,monvsource-source,1539.9720496999998,1413.09030346,1546.57330578
64,0.0,39615.3,-0.597419,39657.3,-120.562,39657.5,119.368,40.9832,174.871,37.451,58.2889,41.3349,-59.2513,monvsource-source,1623.56176296,1485.2055423000002,1639.23879675
65,0.0,39604.2,-0.649396,39636.7,-120.625,39635.1,119.322,44.2111,175.658,41.6507,58.2044,44.6264,-60.2582,monvsource-source,1750.9452466199998,1650.8963006899999,1768.77182664
66,0.0,39596.6,-0.635126,39646.2,-120.618,39631.8,119.311,43.7572,174.373,40.9183,59.0133,45.3355,-60.2735,monvsource-source,1732.6363455199998,1622.25510546,1796.7274689000003
67,0.0,39599.6,-0.63116,39647.3,-120.623,39628.1,119.313,43.423,174.526,41.1905,59.3211,45.3741,-60.6954,monvsource-source,1719.5334308,1633.0921106500002,1798.08937221
68,0.0,39585.0,-0.689043,39622.6,-120.674,39613.0,119.272,47.1041,175.159,44.8388,58.3324,48.1969,-60.9595,monvsource-source,1864.6157985,1776.6298368799999,1909.2237997000002
69,0.0,39590.5,-0.666007,39634.0,-120.646,39624.2,119.29,45.6503,174.892,42.9093,58.6207,46.8093,-60.3929,monvsource-source,1807.31820215,1700.6671962,1854.78106506
70,0.0,39600.7,-0.655991,39637.1,-120.641,39627.9,119.306,44.7058,175.537,42.5174,58.7956,45.78,-60.5013,monvsource-source,1770.38097406,1685.26643554,1814.1652620000002
71,0.0,39598.1,-0.661258,39639.7,-120.654,39623.4,119.29,45.0921,175.464,43.1376,59.4836,46.7971,-60.4968,monvsource-source,1785.5614850099998,1709.9615227199997,1854.2602121400002
72,0.0,39629.6,-0.586282,39669.7,-120.576,39655.9,119.369,39.8167,175.998,37.7855,60.3121,41.3391,-59.461,monvsource-source,1577.9198943199997,1498.93944935,1639.3392156900002
73,0.0,39674.6,-0.479201,39705.6,-120.458,39703.0,119.493,32.2815,177.046,29.9953,60.6265,32.8655,-57.7738,monvsource-source,1280.7555999,1190.98138368,1304.8589464999998
74,0.0,39677.5,-0.472066,39708.5,-120.452,39704.8,119.499,31.7834,177.119,29.6054,60.8336,32.4543,-57.7562,monvsource-source,1261.0858535,1175.5860259,1288.5914906400003
75,0.0,39673.1,-0.476725,39707.7,-120.45,39706.7,119.494,32.205,176.719,29.4662,60.5836,32.7017,-57.273,monvsource-source,1277.6721854999998,1170.0350297399998,1298.47659139
76,0.0,39670.8,-0.483211,39704.7,-120.454,39705.5,119.489,32.6459,176.703,29.798,60.3066,32.9959,-57.2888,monvsource-source,1295.08896972,1183.1206505999999,1310.1187074499999
77,0.0,39659.6,-0.502714,39698.9,-120.473,39697.0,119.463,34.1346,176.104,31.0753,60.2726,34.7341,-57.5319,monvsource-source,1353.76458216,1233.65522717,1378.8395677
78,0.0,39640.2,-0.549573,39680.8,-120.511,39683.4,119.419,37.4227,175.736,33.8256,59.3062,37.6535,-57.8213,monvsource-source,1483.4433125399999,1342.2268684800001,1494.2189019000002
79,0.0,39599.3,-0.640915,39643.5,-120.609,39640.8,119.32,43.9539,174.859,40.5063,58.3916,44.5608,-59.6029,monvsource-source,1740.54367227,1605.8115040500002,1766.4257606400001
80,0.0,39586.8,-0.617644,39652.4,-120.587,39637.7,119.315,43.2556,172.709,39.0256,58.664,44.9267,-59.7833,monvsource-source,1712.3507860800003,1547.45870144,1780.7910565899997
81,0.0,39550.3,-0.756794,39591.8,-120.726,39589.3,119.206,52.1254,174.279,48.8461,56.9976,52.6205,-61.3112,monvsource-source,2061.57520762,1933.9050219800001,2083.20876065
82,0.0,39567.2,-0.713823,39608.6,-120.679,39609.0,119.252,49.1477,174.361,45.6234,57.0926,49.4198,-60.782,monvsource-source,1944.6368754399998,1807.0790012399998,1957.4688582
83,0.0,39627.4,-0.53998,39672.0,-120.513,39666.1,119.418,37.4358,173.812,34.2024,58.1772,38.2538,-59.9031,monvsource-source,1483.48342092,1356.8776128,1517.37905618
84,0.0,39659.0,-0.471911,39693.3,-120.468,39678.7,119.487,32.5084,174.55,30.9644,59.1984,33.9646,-60.9242,monvsource-source,1289.2506356000001,1229.07921852,1347.6711740199999
85,0.0,39641.6,-0.531089,39674.2,-120.512,39669.5,119.438,36.3755,175.109,34.0798,58.441,37.0382,-60.2009,monvsource-source,1441.9830208,1352.0888011599998,1469.2868749000002
86,0.0,39666.5,-0.469737,39692.9,-120.467,39681.4,119.499,32.0863,175.468,30.9378,59.1124,33.2459,-61.0276,monvsource-source,1272.75121895,1228.01100162,1319.24385626
87,0.0,39729.6,-0.269047,39763.6,-120.258,39753.0,119.694,18.8009,173.278,16.9238,60.9322,19.9486,-58.4114,monvsource-source,746.9522366399999,672.9512136799999,793.0166958
88,0.0,39651.0,-0.500034,39686.0,-120.499,39669.3,119.457,34.3349,174.867,32.9387,59.4884,35.9778,-60.9428,monvsource-source,1361.4131198999999,1307.2052481999997,1427.2141415400001
89,0.0,39606.0,-0.632373,39641.2,-120.622,39629.6,119.329,43.2292,175.219,41.3419,58.6091,44.4627,-61.0163,monvsource-source,1712.1356951999999,1638.84252628,1762.0390159199999
90,0.0,39608.0,-0.594446,39660.2,-120.581,39642.4,119.347,41.129,173.966,38.377,59.3385,42.9986,-60.2598,monvsource-source,1629.0374319999999,1522.0394953999999,1704.56770064
91,0.0,39572.4,-0.716911,39612.3,-120.72,39590.8,119.232,49.0997,174.929,47.7242,58.722,51.1737,-61.8668,monvsource-source,1942.99296828,1890.4653276600002,2026.00772196
92,0.0,39584.5,-0.688008,39625.7,-120.668,39617.4,119.271,47.0682,175.079,44.3872,58.4534,48.094,-60.515,monvsource-source,1863.1711629,1758.8738710399998,1905.3592356
93,0.0,39594.6,-0.661505,39636.8,-120.64,39628.7,119.297,45.2425,175.136,42.4652,58.7198,46.2676,-60.1473,monvsource-source,1791.3586905,1683.1846393600001,1833.52484012
94,0.0,39600.3,-0.659733,39637.8,-120.648,39626.0,119.299,44.9228,175.627,42.8885,59.0996,46.2219,-60.4913,monvsource-source,1778.9563568400004,1700.0057853,1831.5890094
95,0.0,39598.5,-0.670719,39636.2,-120.662,39622.5,119.286,45.5816,175.837,43.7219,59.3807,47.0482,-60.4654,monvsource-source,1804.9629876000001,1732.9699727799998,1864.1673045
96,0.0,39671.5,-0.48381,39704.7,-120.462,39701.2,119.486,32.6497,176.833,30.2588,60.6648,33.3199,-57.7592,monvsource-source,1295.26257355,1201.41657636,1322.8400138799998
97,0.0,39686.9,-0.46732,39706.7,-120.449,39707.6,119.517,31.1737,178.252,29.493,60.4154,31.3528,-58.0348,monvsource-source,1237.18751453,1171.0697030999997,1244.9444412799999
98,0.0,39683.4,-0.46163,39711.4,-120.438,39711.8,119.515,30.9929,177.468,28.677,60.6243,31.3092,-57.341,monvsource-source,1229.9036478599999,1138.8038178000002,1243.3446885600001
99,0.0,39687.6,-0.45929,39710.8,-120.437,39712.7,119.523,30.71,177.969,28.651,60.4902,30.8546,-57.5003,monvsource-source,1218.806196,1137.7541308000002,1225.31947342
100,0.0,39677.3,-0.465933,39711.7,-120.444,39707.8,119.502,31.4594,176.791,29.0125,60.9545,32.185,-57.4339,monvsource-source,1248.22405162,1152.13569625,1277.9955430000002
101,0.0,39664.4,-0.490713,39703.5,-120.463,39700.5,119.474,33.2997,176.185,30.364,60.53,33.9901,-57.4502,monvsource-source,1320.8126206800002,1205.557074,1349.42396505
102,0.0,39649.4,-0.541079,39681.5,-120.516,39680.3,119.431,36.6021,176.496,34.0723,59.5991,37.0443,-58.6162,monvsource-source,1451.2513037400001,1352.03997245,1469.92893729
103,0.0,39594.1,-0.649483,39640.5,-120.622,39633.6,119.306,44.6231,174.653,41.3723,58.5382,45.5811,-59.9347,monvsource-source,1766.81148371,1640.01865815,1806.54308496
104,0.0,39595.9,-0.636469,39638.3,-120.612,39631.8,119.323,43.8564,174.355,40.8812,57.9295,44.7084,-60.615,monvsource-source,1736.53362876,1620.4612699600002,1771.87436712
105,0.0,39644.4,-0.506831,39679.9,-120.487,39674.0,119.459,34.9673,174.353,32.52,58.1491,35.7214,-60.4144,monvsource-source,1386.25762812,1290.3903480000001,1417.2108236
106,0.0,39773.4,-0.123661,39809.6,-120.109,39800.1,119.838,9.33118,166.7,7.05497,63.3675,10.3191,-55.0026,monvsource-source,371.13275461200004,280.855533712,410.70121191000004
107,0.0,39936.7,0.479948,39989.8,-119.499,39976.0,120.425,30.4084,6.98573,33.226,-120.02,28.5022,118.407,monvsource-source,1214.41114828,1328.7010948000002,1139.4039472
108,0.0,39943.8,0.558547,39994.6,-119.43,39976.3,120.501,35.1681,8.29234,37.2742,-117.983,32.7866,121.869,monvsource-source,1404.7475527800002,1490.76671932,1310.6869575800001
109,0.0,39952.6,0.562269,39994.5,-119.429,39979.1,120.515,35.6001,7.19532,37.3366,-117.936,33.6397,122.004,monvsource-source,1422.3165552599999,1493.2586486999999,1344.8849302699998
110,0.0,39936.9,0.508586,39983.6,-119.463,39977.3,120.465,32.0822,7.8651,35.0197,-117.78,30.7601,120.17,monvsource-source,1281.26361318,1400.21367692,1229.70574573
111,0.0,39877.1,0.258945,39922.9,-119.722,39911.6,120.212,16.0928,10.9664,18.4638,-120.4,14.3929,116.649,monvsource-source,641.73419488,737.1284410200001,574.44366764
112,0.0,39738.6,-0.210386,39783.9,-120.191,39773.2,119.743,15.3728,169.223,12.4468,61.3224,16.5415,-56.5052,monvsource-source,610.89355008,495.18224652,657.9083877999999
113,0.0,39640.5,-0.49283,39691.1,-120.467,39681.0,119.457,34.3963,173.177,31.0328,58.8746,35.6024,-59.4217,monvsource-source,1363.4865301499997,1231.72596808,1412.7388344
114,0.0,39671.5,-0.376204,39731.8,-120.358,39712.4,119.557,26.9661,170.747,23.5718,60.2249,28.9333,-58.982,monvsource-source,1069.7856361499998,936.55004324,1149.0107829199999
115,0.0,39659.8,-0.40015,39725.6,-120.368,39712.1,119.534,28.7332,170.563,24.3106,59.5571,30.2624,-58.0224,monvsource-source,1139.5529653600001,965.75317136,1201.7834550399998
