Element, I1_1, Ang1_1, I1_2, Ang1_2, I1_3, Ang1_3, I1_4, Ang1_4, Iresid1, AngResid1, I2_1, Ang2_1, I2_2, Ang2_2, I2_3, Ang2_3, I2_4, Ang2_4, Iresid2, AngResid2
Vsource.SOURCE,    389.745,   144.81,    185.253,    11.77,    262.464,   -96.64,          0,     0.00,    167.521,   179.42,    389.745,   -35.19,    185.253,  -168.23,    262.464,    83.36,          0,     0.00,    167.521,    -0.58
Line.L115,    380.239,   -35.19,    180.734,  -168.23,    256.063,    83.36,          0,     0.00,    163.435,    -0.58,     380.24,   144.81,    180.735,    11.77,    256.063,   -96.64,          0,     0.00,    163.435,   179.42
Line.L1,    9.09014,  -146.61,          0,     0.00,          0,     0.00,          0,     0.00,    9.09014,  -146.61,     9.0903,    33.39,          0,     0.00,          0,     0.00,          0,     0.00,     9.0903,    33.39
Line.L2,    46.5623,    93.31,          0,     0.00,          0,     0.00,          0,     0.00,    46.5623,    93.31,    46.5625,   -86.69,          0,     0.00,          0,     0.00,          0,     0.00,    46.5625,   -86.69
Line.L3,    362.119,   -35.61,    172.318,  -169.35,    210.355,    81.17,          0,     0.00,    161.174,   -12.48,     362.12,   144.39,    172.318,    10.65,    210.356,   -98.83,          0,     0.00,    161.174,   167.52
Line.L4,    18.3186,    93.32,          0,     0.00,          0,     0.00,          0,     0.00,    18.3186,    93.32,    18.3188,   -86.68,          0,     0.00,          0,     0.00,          0,     0.00,    18.3188,   -86.68
Line.L5,    28.2439,    93.30,          0,     0.00,          0,     0.00,          0,     0.00,    28.2439,    93.30,    28.2442,   -86.70,          0,     0.00,          0,     0.00,          0,     0.00,    28.2442,   -86.70
Line.L6,    18.9272,    93.29,          0,     0.00,          0,     0.00,          0,     0.00,    18.9272,    93.29,    18.9275,   -86.71,          0,     0.00,          0,     0.00,          0,     0.00,    18.9275,   -86.71
Line.L7,    353.003,   -35.83,    172.318,  -169.35,    210.356,    81.17,          0,     0.00,    152.272,   -11.61,    353.004,   144.17,    172.319,    10.65,    210.356,   -98.83,          0,     0.00,    152.273,   168.39
Line.L8,    9.09669,  -146.69,          0,     0.00,          0,     0.00,          0,     0.00,    9.09669,  -146.69,     9.0969,    33.31,          0,     0.00,          0,     0.00,          0,     0.00,     9.0969,    33.31
Line.L9,    46.5403,   -27.35,          0,     0.00,          0,     0.00,          0,     0.00,    46.5403,   -27.35,    46.5405,   152.65,          0,     0.00,          0,     0.00,          0,     0.00,    46.5405,   152.65
Line.L10,    307.049,   -37.11,    163.962,  -170.57,    210.356,    81.17,          0,     0.00,    115.502,    -2.11,     307.05,   142.89,    163.963,     9.43,    210.356,   -98.83,          0,     0.00,    115.502,   177.89
Line.L11,    27.9968,   -27.37,          0,     0.00,          0,     0.00,          0,     0.00,    27.9968,   -27.37,    27.9972,   152.63,          0,     0.00,          0,     0.00,          0,     0.00,    27.9972,   152.63
Line.L12,    46.5435,    93.25,          0,     0.00,          0,     0.00,          0,     0.00,    46.5435,    93.25,    46.5436,   -86.75,          0,     0.00,          0,     0.00,          0,     0.00,    46.5436,   -86.75
Line.L13,     229.24,   -29.47,    155.335,  -154.31,     154.09,    89.59,          0,     0.00,    66.0479,   -23.22,    229.242,   150.53,    155.336,    25.69,    154.091,   -90.41,          0,     0.00,    66.0477,   156.78
Line.L14,    18.6805,   -27.37,          0,     0.00,          0,     0.00,          0,     0.00,    18.6805,   -27.37,    18.6807,   152.63,          0,     0.00,          0,     0.00,          0,     0.00,    18.6807,   152.63
Line.L15,    9.31668,   -27.36,          0,     0.00,          0,     0.00,          0,     0.00,    9.31668,   -27.36,    9.31691,   152.64,          0,     0.00,          0,     0.00,          0,     0.00,    9.31691,   152.64
Line.L16,    18.5092,    93.23,          0,     0.00,          0,     0.00,          0,     0.00,    18.5092,    93.23,    18.5096,   -86.77,          0,     0.00,          0,     0.00,          0,     0.00,    18.5096,   -86.77
Line.L17,    9.24965,    93.25,          0,     0.00,          0,     0.00,          0,     0.00,    9.24965,    93.25,    9.24997,   -86.76,          0,     0.00,          0,     0.00,          0,     0.00,    9.24997,   -86.76
Line.L18,    37.4415,   -27.95,          0,     0.00,          0,     0.00,          0,     0.00,    37.4415,   -27.95,    37.4417,   152.05,          0,     0.00,          0,     0.00,          0,     0.00,    37.4417,   152.05
Line.L19,    55.9429,   -28.12,    18.9697,  -146.97,    56.0435,    93.15,          0,     0.00,    35.9479,    32.39,    55.9433,   151.88,      18.97,    33.03,    56.0441,   -86.85,          0,     0.00,    35.9479,  -147.61
Line.L20,    18.6335,   -27.96,          0,     0.00,          0,     0.00,          0,     0.00,    18.6335,   -27.96,    18.6338,   152.04,          0,     0.00,          0,     0.00,          0,     0.00,    18.6338,   152.04
Line.L21,    18.9718,  -146.99,          0,     0.00,          0,     0.00,          0,     0.00,    18.9718,  -146.99,    18.9723,    33.01,          0,     0.00,          0,     0.00,          0,     0.00,    18.9723,    33.01
Line.L22,    55.9433,   -28.12, 0.00459907,   -33.99,    56.0441,    93.15,          0,     0.00,     54.919,    32.60,    55.9436,   151.88, 0.00386919,   146.01,    56.0445,   -86.85,          0,     0.00,     54.919,  -147.40
Line.L23,    18.6736,    93.14,          0,     0.00,          0,     0.00,          0,     0.00,    18.6736,    93.14,    18.6741,   -86.86,          0,     0.00,          0,     0.00,          0,     0.00,    18.6741,   -86.86
Line.L24,    55.9436,   -28.12, 0.00386919,   -33.99,    37.3709,    93.15,          0,     0.00,    48.5392,    13.03,     55.944,   151.88, 0.00306623,   146.01,    37.3714,   -86.85,          0,     0.00,    48.5391,  -166.97
Line.L25,    18.6329,   -28.14,    18.6863,    93.15,          0,     0.00,          0,     0.00,    18.2948,    32.65,    18.6332,   151.86,    18.6868,   -86.85,          0,     0.00,          0,     0.00,    18.2951,  -147.35
Line.L26,    37.0782,   -28.11, 0.00306623,   -33.99,    18.6851,    93.15,          0,     0.00,    31.7019,     2.14,    37.0785,   151.89, 0.00248221,   146.01,    18.6855,   -86.85,          0,     0.00,    31.7018,  -177.86
Line.L27,    18.6332,   -28.14, 0.000722437,  -141.28,          0,     0.00,          0,     0.00,    18.6329,   -28.14,    18.6334,   151.86, 8.13477E-12,  -116.57,          0,     0.00,          0,     0.00,    18.6334,   151.86
Line.L28,    18.6872,    93.15,          0,     0.00,          0,     0.00,          0,     0.00,    18.6872,    93.15,    18.6874,   -86.86,          0,     0.00,          0,     0.00,          0,     0.00,    18.6874,   -86.86
Line.L29,    18.6334,   -28.14,          0,     0.00,          0,     0.00,          0,     0.00,    18.6334,   -28.14,    18.6338,   151.85,          0,     0.00,          0,     0.00,          0,     0.00,    18.6338,   151.85
Line.L30,    18.4446,   -28.12, 0.00248221,   -33.99,    18.6855,    93.15,          0,     0.00,    18.2103,    33.17,     18.445,   151.88, 0.00160614,   146.01,     18.686,   -86.85,          0,     0.00,    18.2103,  -146.83
Line.L31, 0.00186516,    84.44, 0.00160614,   -33.99,     18.686,    93.15,          0,     0.00,    18.6869,    93.14, 0.000678248,   -95.56, 0.000584049,   146.01,    18.6867,   -86.85,          0,     0.00,     18.687,   -86.86
Line.L32, 0.000678248,    84.44, 0.000584049,   -33.99, 0.000638161,  -142.66,          0,     0.00, 0.0000574552,   -42.12, 7.27596E-12,   -90.00, 4.00178E-11,   180.00, 7.27596E-12,   -90.00,          0,     0.00, 4.25815E-11,  -160.02
Line.L33,    9.34543,    93.14,          0,     0.00,          0,     0.00,          0,     0.00,    9.34543,    93.14,     9.3457,   -86.86,          0,     0.00,          0,     0.00,          0,     0.00,     9.3457,   -86.86
Line.L34,    27.7588,    93.24,          0,     0.00,          0,     0.00,          0,     0.00,    27.7588,    93.24,    27.7589,   -86.76,          0,     0.00,          0,     0.00,          0,     0.00,    27.7589,   -86.76
Line.L35,     18.401,   -28.03,    18.4915,  -147.11,          0,     0.00,          0,     0.00,    18.7032,   -87.81,     18.402,   151.97,     18.492,    32.89,          0,     0.00,          0,     0.00,    18.7037,    92.19
Line.L36,    108.732,   -33.99,    108.241,  -154.62,    98.2184,    87.55,          0,     0.00,    9.69543,  -110.85,    108.732,   146.01,    108.241,    25.38,    98.2187,   -92.45,          0,     0.00,     9.6954,    69.15
Line.L37,     18.402,   -28.03,          0,     0.00,          0,     0.00,          0,     0.00,     18.402,   -28.03,    18.4023,   151.96,          0,     0.00,          0,     0.00,          0,     0.00,    18.4023,   151.96
Line.L38,     18.492,  -147.11,          0,     0.00,          0,     0.00,          0,     0.00,     18.492,  -147.11,    18.4923,    32.89,          0,     0.00,          0,     0.00,          0,     0.00,    18.4923,    32.89
Line.L39,    9.17528,  -147.11,          0,     0.00,          0,     0.00,          0,     0.00,    9.17528,  -147.11,    9.17558,    32.88,          0,     0.00,          0,     0.00,          0,     0.00,    9.17558,    32.88
Line.L40,    9.32526,    93.09,          0,     0.00,          0,     0.00,          0,     0.00,    9.32526,    93.09,    9.32556,   -86.91,          0,     0.00,          0,     0.00,          0,     0.00,    9.32556,   -86.91
Line.L41,    108.732,   -33.99,    108.241,  -154.62,    88.9416,    86.97,          0,     0.00,    18.6072,   -99.11,    108.733,   146.01,    108.241,    25.38,    88.9419,   -93.03,          0,     0.00,    18.6071,    80.89
Line.L42,    18.8825,  -147.17,          0,     0.00,          0,     0.00,          0,     0.00,    18.8825,  -147.17,    18.8829,    32.83,          0,     0.00,          0,     0.00,          0,     0.00,    18.8829,    32.83
Line.L43,    99.3403,   -34.56,    89.5517,  -156.18,    88.9419,    86.97,          0,     0.00,    5.88427,   -38.83,    99.3408,   145.44,     89.552,    23.82,    88.9422,   -93.03,          0,     0.00,    5.88429,   141.17
Line.L44,    18.7835,   -28.11,          0,     0.00,          0,     0.00,          0,     0.00,    18.7835,   -28.11,    18.7837,   151.89,          0,     0.00,          0,     0.00,          0,     0.00,    18.7837,   151.89
Line.L45,    80.7034,   -36.05,     89.552,  -156.18,    88.9422,    86.97,          0,     0.00,    13.0478,   156.70,     80.704,   143.95,    89.5525,    23.82,    88.9425,   -93.03,          0,     0.00,    13.0478,   -23.30
Line.L46,    9.46673,   -28.12,          0,     0.00,          0,     0.00,          0,     0.00,    9.46673,   -28.12,      9.467,   151.88,          0,     0.00,          0,     0.00,          0,     0.00,      9.467,   151.88
Line.L47,     35.209,   -37.10,    36.2416,  -156.19,    35.6674,    84.00,          0,     0.00,    1.40579,  -163.44,    35.2091,   142.90,     36.242,    23.81,    35.6676,   -96.00,          0,     0.00,    1.40595,    16.56
Line.L48,    27.6128,   -34.04,    35.4025,  -156.19,    35.5472,    91.45,          0,     0.00,    11.9061,   150.93,    27.6129,   145.96,    35.4032,    23.81,    35.5475,   -88.55,          0,     0.00,    11.9063,   -29.07
Line.L49,    9.47206,   -28.14, 0.00314006,    -8.68,    18.7053,    92.96,          0,     0.00,    16.0204,    62.52,    9.47215,   151.86, 0.00235509,   171.32,    18.7055,   -87.05,          0,     0.00,    16.0202,  -117.48
Line.L50,    9.47215,   -28.14, 0.00235509,    -8.68, 0.00238866,  -158.86,          0,     0.00,    9.47282,   -28.15,    9.47225,   151.86, 0.00157007,   171.32, 0.00159244,    21.14,          0,     0.00,    9.47269,   151.85
Line.L51, 0.00121549,    70.71, 0.00157007,    -8.68, 0.00159244,  -158.86,          0,     0.00, 0.000576345,    35.67, 3.89414E-9,   178.41, 7.86787E-8,    59.33, 5.30154E-8,   -60.54,          0,     0.00, 6.59617E-8,    19.14
Line.L52,    70.0163,   -65.76,    45.9614,   118.27,    34.6183,    12.18,          0,     0.00,    43.8616,   -21.47,    70.0169,   114.24,     45.962,   -61.73,    34.6189,  -167.82,          0,     0.00,    43.8616,   158.53
Line.L53,    56.5353,   -77.55,     45.962,   118.27,    34.6189,    12.18,          0,     0.00,    25.3665,   -17.01,    56.5357,   102.45,    45.9624,   -61.73,    34.6193,  -167.82,          0,     0.00,    25.3665,   162.99
Line.L54,    9.28826,   -27.54,    9.09801,  -146.66, 0.00160167,  -153.94,          0,     0.00,    9.31722,   -86.10,    9.28877,   152.46,    9.09837,    33.33, 0.000800843,    26.06,          0,     0.00,     9.3172,    93.90
Line.L55,    51.0651,   -85.56,    47.6366,   107.30,    34.6208,    12.19,          0,     0.00,     23.698,     4.54,    51.0661,    94.44,    47.6373,   -72.70,     34.622,  -167.81,          0,     0.00,    23.6979,  -175.46
Line.L56, 0.000876376,    97.51,    9.09837,  -146.67, 0.000800843,  -153.94,          0,     0.00,    9.09878,  -146.67, 5.14488E-12,  -135.00,    9.09873,    33.33, 1.45519E-11,   -90.00,          0,     0.00,    9.09873,    33.33
Line.L57,    18.4222,  -146.61,          0,     0.00,          0,     0.00,          0,     0.00,    18.4222,  -146.61,    18.4225,    33.39,          0,     0.00,          0,     0.00,          0,     0.00,    18.4225,    33.39
Line.L58,    51.0661,   -85.56,    55.6339,    88.75,     34.622,    12.19,          0,     0.00,    40.8134,    17.12,    51.0683,    94.44,    55.6347,   -91.25,    34.6245,  -167.81,          0,     0.00,    40.8132,  -162.88
Line.L59,    9.10544,  -146.61,          0,     0.00,          0,     0.00,          0,     0.00,    9.10544,  -146.61,    9.10567,    33.39,          0,     0.00,          0,     0.00,          0,     0.00,    9.10567,    33.39
Line.L60, 0.00185682,    93.94, 0.00176554,   -37.91, 0.00158353,  -146.58,          0,     0.00,  0.0001188,  -118.31, 0.0000138433,    91.55, 0.0000141242,   -28.36, 0.0000139911,  -148.40,          0,     0.00, 2.44542E-7,   -55.82
Line.L61,    45.3515,   -38.90,    52.2794,  -148.40,    80.7459,    94.58,          0,     0.00,    29.1914,   122.51,    45.3561,   141.09,    52.2832,    31.59,    80.7492,   -85.42,          0,     0.00,    29.1917,   -57.49
Line.L62,    45.3561,   -38.91,    52.2832,  -148.41,    62.0672,    94.91,          0,     0.00,    15.7266,   157.71,    45.3594,   141.08,    52.2858,    31.58,    62.0695,   -85.10,          0,     0.00,    15.7268,   -22.29
Line.L63,    27.2085,   -46.73,    52.2858,  -148.42,    62.0695,    94.90,          0,     0.00,    34.4629,   154.85,    27.2161,   133.25,     52.291,    31.57,    62.0741,   -85.11,          0,     0.00,    34.4633,   -25.15
Line.L64,    27.2161,   -46.75,    18.0065,  -155.38,    62.0741,    94.89,          0,     0.00,    34.6545,    94.99,    27.2253,   133.23,    18.0142,    24.59,    62.0796,   -85.12,          0,     0.00,    34.6547,   -85.01
Line.L65, 0.00984813,    89.02,  0.0101386,   -29.73,    34.6507,    95.01,          0,     0.00,    34.6547,    94.99, 3.63798E-12,   180.00, 6.76031E-12,   137.73,    34.6549,   -85.01,          0,     0.00,    34.6549,   -85.01
Line.L66,    54.7685,   -27.62,          0,     0.00,          0,     0.00,          0,     0.00,    54.7685,   -27.62,    54.7686,   152.38,          0,     0.00,          0,     0.00,          0,     0.00,    54.7686,   152.38
Line.L67,    118.256,    24.71,    126.412,  -106.04,    132.947,   136.31,          0,     0.00,    30.8143,   140.07,    118.256,  -155.29,    126.412,    73.96,    132.947,   -43.69,          0,     0.00,    30.8143,   -39.93
Line.L68,    198.805,  -167.92,    219.837,    68.48,    212.106,   -50.31,          0,     0.00,    21.7064,    -0.84,    198.806,    12.08,    219.837,  -111.52,    212.106,   129.69,          0,     0.00,    21.7064,   179.16
Line.L69,    45.6614,   -27.63,          0,     0.00,          0,     0.00,          0,     0.00,    45.6614,   -27.63,    45.6616,   152.37,          0,     0.00,          0,     0.00,          0,     0.00,    45.6616,   152.37
Line.L70,    27.4154,   -27.64,          0,     0.00,          0,     0.00,          0,     0.00,    27.4154,   -27.64,    27.4157,   152.36,          0,     0.00,          0,     0.00,          0,     0.00,    27.4157,   152.36
Line.L71,    18.2813,   -27.65,          0,     0.00,          0,     0.00,          0,     0.00,    18.2813,   -27.65,    18.2816,   152.35,          0,     0.00,          0,     0.00,          0,     0.00,    18.2816,   152.35
Line.L72,    55.4229,    93.42,          0,     0.00,          0,     0.00,          0,     0.00,    55.4229,    93.42,    55.4231,   -86.58,          0,     0.00,          0,     0.00,          0,     0.00,    55.4231,   -86.58
Line.L73,    118.256,    24.71,    126.412,  -106.04,    99.7451,   158.53,          0,     0.00,    40.9429,  -119.75,    118.256,  -155.29,    126.412,    73.96,    99.7447,   -21.47,          0,     0.00,    40.9429,    60.25
Line.L74,    37.2985,    93.41,          0,     0.00,          0,     0.00,          0,     0.00,    37.2985,    93.41,    37.2989,   -86.59,          0,     0.00,          0,     0.00,          0,     0.00,    37.2989,   -86.59
Line.L75,     18.175,    93.40,          0,     0.00,          0,     0.00,          0,     0.00,     18.175,    93.40,    18.1754,   -86.60,          0,     0.00,          0,     0.00,          0,     0.00,    18.1754,   -86.60
Line.L76,     76.803,    62.93,    76.8607,   -55.18,    77.0551,  -175.12,          0,     0.00,    2.40958,   -31.63,    76.8017,  -117.07,    76.8597,   124.81,    77.0539,     4.88,          0,     0.00,    2.40949,   148.37
Line.L77,    32.9827,     7.49,    57.9348,  -127.65,    20.9928,   159.68,          0,     0.00,    40.9351,  -123.13,    32.9822,  -172.51,    57.9354,    52.35,    20.9911,   -20.33,          0,     0.00,    40.9353,    56.87
Line.L78,    76.8017,    62.93,    79.4125,   -41.97,    77.0539,  -175.12,          0,     0.00,    19.3017,    26.90,    76.8014,  -117.07,    79.4122,   138.03,    77.0536,     4.88,          0,     0.00,    19.3016,  -153.10
Line.L79,    19.1169,   -27.80, 0.000664808,   -26.41, 0.000794001,  -145.85,          0,     0.00,    19.1172,   -27.80,    19.1171,   152.20, 1.02898E-11,  -135.00, 1.62695E-11,    26.57,          0,     0.00,    19.1171,   152.20
Line.L80,    79.3824,    76.87,    79.4115,   -41.97,    77.0529,  -175.12,          0,     0.00,    17.6514,    89.02,    79.3808,  -103.13,    79.4102,   138.03,    77.0514,     4.88,          0,     0.00,    17.6514,   -90.98
Line.L81,    79.3808,    76.87,    85.8215,   -30.18,    77.0514,  -175.12,          0,     0.00,    31.6328,    60.77,    79.3802,  -103.13,     85.821,   149.82,    77.0509,     4.88,          0,     0.00,    31.6328,  -119.23
Line.L82,    79.3802,    76.87,     85.821,   -30.18,    82.4647,  -155.91,          0,     0.00,    16.9422,     1.69,    79.3794,  -103.13,    85.8202,   149.82,    82.4638,    24.09,          0,     0.00,    16.9421,  -178.31
Line.L83,    27.1453,    93.14,          0,     0.00,          0,     0.00,          0,     0.00,    27.1453,    93.14,     27.146,   -86.86,          0,     0.00,          0,     0.00,          0,     0.00,     27.146,   -86.86
Line.L84,     85.797,    88.63,    85.8202,   -30.18,    82.4638,  -155.91,          0,     0.00,    9.01885,    83.97,    85.7962,   -91.37,    85.8195,   149.82,     82.463,    24.09,          0,     0.00,    9.01886,   -96.03
