hour,t(sec),V1,VAngle1,V2,VAngle2,V3,VAngle3,I1,IAngle1,I2,IAngle2,I3,IAngle3,Name,P1(kW),P2(kW),P3(kW)
1,0.0,66395.3,30,66395.3,-90,66395.3,150,8.72447,179.827,8.2088,76.9238,10.5601,-49.4359,monvsource-source,579.263802991,545.02573864,701.14100753
2,0.0,66395.3,30,66395.3,-90,66395.3,150,8.77442,179.95,8.23052,76.6507,10.5597,-49.3847,monvsource-source,582.580248226,546.467844556,701.11444941
3,0.0,66395.3,30,66395.3,-90,66395.3,150,8.725430000000001,179.71599999999998,8.19162,77.0748,10.5807,-49.3475,monvsource-source,579.327542479,543.8850673860001,702.5087507100001
4,0.0,66395.3,30,66395.3,-90,66395.3,150,8.71686,179.668,8.18489,77.1585,10.5862,-49.3406,monvsource-source,578.758534758,543.4382270169999,702.87392486
5,0.0,66395.3,30,66395.3,-90,66395.3,150,8.92136,179.36599999999999,8.29247,76.7206,10.7687,-49.3434,monvsource-source,592.336373608,550.581033391,714.99106711
6,0.0,66395.3,30,66395.3,-90,66395.3,150,9.06845,179.329,8.407789999999999,76.1697,10.8725,-49.5221,monvsource-source,602.102458285,558.237739387,721.88289925
7,0.0,66395.3,30,66395.3,-90,66395.3,150,9.965069999999999,179.331,8.97785,73.2702,11.4194,-49.7388,monvsource-source,661.6338121709999,596.087044105,758.19448882
8,0.0,66395.3,30,66395.3,-90,66395.3,150,9.96839,179.574,8.5772,72.5845,11.0892,-48.1333,monvsource-source,661.8542445669999,569.48576716,736.27076076
9,0.0,66395.3,30,66395.3,-90,66395.3,150,10.5923,-179.933,8.88917,70.1266,11.2691,-47.7943,monvsource-source,703.2789361900001,590.199108901,748.21527523
10,0.0,66395.3,30,66395.3,-90,66395.3,150,9.14339,175.97,6.9228,67.4574,9.55668,-47.4154,monvsource-source,607.078122067,459.64138283999995,634.5186356040001
11,0.0,66395.3,30,66395.3,-90,66395.3,150,8.64637,173.79,6.3301099999999995,66.39,9.0606,-48.02,monvsource-source,574.078330061,420.28955248299997,601.5812551800001
12,0.0,66395.3,30,66395.3,-90,66395.3,150,8.92555,174.692,6.7481100000000005,67.1036,9.42352,-48.357,monvsource-source,592.614569915,448.042787883,625.677437456
13,0.0,66395.3,30,66395.3,-90,66395.3,150,9.08719,175.115,6.9805399999999995,66.669,9.547880000000001,-48.79600000000001,monvsource-source,603.3467062069999,463.47504746199996,633.9343569640001
14,0.0,66395.3,30,66395.3,-90,66395.3,150,8.8845,174.44799999999998,6.70838,65.7771,9.261569999999999,-48.8825,monvsource-source,589.88904285,445.40490261400004,614.9247186209999
15,0.0,66395.3,30,66395.3,-90,66395.3,150,9.01041,175.06099999999998,6.90671,66.7854,9.4794,-48.7155,monvsource-source,598.2488750730001,458.57308246300005,629.38760682
16,0.0,66395.3,30,66395.3,-90,66395.3,150,9.85174,178.106,8.1817,70.255,10.7042,-48.575,monvsource-source,654.1092328220001,543.22642601,710.7085702600001
17,0.0,66395.3,30,66395.3,-90,66395.3,150,10.4407,179.498,9.01239,71.0208,11.4276,-48.9196,monvsource-source,693.21340871,598.3803377670001,758.7389302800001
18,0.0,66395.3,30,66395.3,-90,66395.3,150,10.5823,179.709,9.3725,70.7226,11.6316,-49.9273,monvsource-source,702.6149831900001,622.2899492500001,772.2835714800001
19,0.0,66395.3,30,66395.3,-90,66395.3,150,10.9632,-179.498,9.955060000000001,69.1624,11.8264,-51.1309,monvsource-source,727.9049529600001,660.9691952180001,785.21737592
20,0.0,66395.3,30,66395.3,-90,66395.3,150,10.8971,-179.41,9.87373,69.2025,11.7373,-50.9737,monvsource-source,723.51622363,655.5692654690001,779.30155469
21,0.0,66395.3,30,66395.3,-90,66395.3,150,10.7656,-179.093,9.8072,69.2134,11.5769,-51.0117,monvsource-source,714.78524168,651.15198616,768.6517485700001
22,0.0,66395.3,30,66395.3,-90,66395.3,150,10.4271,-179.148,9.48751,70.1626,11.3506,-50.5881,monvsource-source,692.3104326299999,629.926072703,753.62649218
23,0.0,66395.3,30,66395.3,-90,66395.3,150,9.464089999999999,-179.748,8.687560000000001,73.5881,10.8577,-49.7915,monvsource-source,628.3710947769999,576.8131524680001,720.90024881
24,0.0,66395.3,30,66395.3,-90,66395.3,150,9.16733,179.812,8.573269999999999,75.1924,10.8566,-50.0159,monvsource-source,608.667625549,569.224833631,720.82721398
25,0.0,66395.3,30,66395.3,-90,66395.3,150,8.823369999999999,179.41299999999998,8.32824,76.781,10.7271,-49.838,monvsource-source,585.8302981609999,552.955993272,712.22902263
26,0.0,66395.3,30,66395.3,-90,66395.3,150,8.73426,179.268,8.24585,77.2284,10.6881,-49.716,monvsource-source,579.913812978,547.4856845050001,709.6396059300001
27,0.0,66395.3,30,66395.3,-90,66395.3,150,8.68772,179.183,8.21433,77.4747,10.6765,-49.7006,monvsource-source,576.8237757160001,545.392904649,708.8694204500001
28,0.0,66395.3,30,66395.3,-90,66395.3,150,8.67458,179.18900000000002,8.21237,77.5154,10.6707,-49.7231,monvsource-source,575.9513414740001,545.262769861,708.48432771
29,0.0,66395.3,30,66395.3,-90,66395.3,150,9.174380000000001,178.024,8.32507,76.9689,11.1438,-49.1305,monvsource-source,609.1357124140001,552.7455201710001,739.89594414
30,0.0,66395.3,30,66395.3,-90,66395.3,150,9.43953,178.05599999999998,8.66468,76.0241,11.4054,-49.933,monvsource-source,626.7404262089999,575.2940280040001,757.2649546200001
31,0.0,66395.3,30,66395.3,-90,66395.3,150,10.9282,177.55900000000003,11.3288,73.2231,13.655,-55.9367,monvsource-source,725.5811174600001,752.17907464,906.6278215
32,0.0,66395.3,30,66395.3,-90,66395.3,150,11.1936,176.75,10.9271,73.3309,13.7086,-54.0853,monvsource-source,743.2024300800001,725.50808263,910.1866095800001
33,0.0,66395.3,30,66395.3,-90,66395.3,150,10.3794,172.347,9.93668,69.4871,12.6713,-57.5177,monvsource-source,689.14337682,659.7488496040002,841.3147648900001
34,0.0,66395.3,30,66395.3,-90,66395.3,150,9.60406,167.50400000000002,8.27247,64.7028,11.2011,-58.5655,monvsource-source,637.6644449180001,549.253127391,743.70039483
35,0.0,66395.3,30,66395.3,-90,66395.3,150,8.80847,162.607,6.858560000000001,61.7806,10.0962,-59.2463,monvsource-source,584.841008191,455.37614876800006,670.34022786
36,0.0,66395.3,30,66395.3,-90,66395.3,150,8.797239999999999,161.08700000000002,6.62027,58.5322,9.79284,-60.2027,monvsource-source,584.095388972,439.554812731,650.1985496520001
37,0.0,66395.3,30,66395.3,-90,66395.3,150,8.71994,161.327,6.54633,58.8582,9.707880000000001,-59.8534,monvsource-source,578.963032282,434.645544249,644.557604964
38,0.0,66395.3,30,66395.3,-90,66395.3,150,9.01455,163.00799999999998,7.01008,61.6115,10.2679,-59.0017,monvsource-source,598.523751615,465.436364624,681.7403008699999
39,0.0,66395.3,30,66395.3,-90,66395.3,150,9.58729,167.037,8.055010000000001,65.798,11.255999999999998,-57.5426,monvsource-source,636.550995737,534.8148054530001,747.3454968
40,0.0,66395.3,30,66395.3,-90,66395.3,150,10.888,173.489,10.27,70.8534,13.2325,-55.7392,monvsource-source,722.9120264,681.879731,878.57580725
41,0.0,66395.3,30,66395.3,-90,66395.3,150,11.8583,176.433,11.7671,72.3613,14.5339,-55.3195,monvsource-source,787.33538599,781.28013463,964.98265067
42,0.0,66395.3,30,66395.3,-90,66395.3,150,12.3184,176.829,11.7346,70.8791,14.4913,-54.3026,monvsource-source,817.88386352,779.1222873800001,962.1542108900001
43,0.0,66395.3,30,66395.3,-90,66395.3,150,11.9237,178.674,11.6306,69.816,13.704,-54.7585,monvsource-source,791.67763861,772.2171761799999,909.8811912000001
44,0.0,66395.3,30,66395.3,-90,66395.3,150,11.8784,178.75,11.5983,69.8311,13.6484,-54.7522,monvsource-source,788.66993152,770.07260799,906.1896125200001
45,0.0,66395.3,30,66395.3,-90,66395.3,150,11.408,179.72299999999998,11.3194,69.8947,13.0639,-54.8733,monvsource-source,757.4375824,751.55495882,867.3815596700001
46,0.0,66395.3,30,66395.3,-90,66395.3,150,10.6696,179.452,10.6722,71.7694,12.5922,-54.398999999999994,monvsource-source,708.4112928800001,708.5839206600001,836.0628966600001
47,0.0,66395.3,30,66395.3,-90,66395.3,150,9.47969,179.168,8.67333,74.8522,11.1549,-49.7176,monvsource-source,629.406861457,575.868347349,740.6329319700001
48,0.0,66395.3,30,66395.3,-90,66395.3,150,9.272839999999999,178.97299999999998,8.58416,75.8891,11.1191,-49.7892,monvsource-source,615.672993652,569.9478784480001,738.25598023
49,0.0,66395.3,30,66395.3,-90,66395.3,150,8.942,178.725,8.28903,77.2637,10.9184,-49.352,monvsource-source,593.7067726,550.3526335590001,724.93044352
50,0.0,66395.3,30,66395.3,-90,66395.3,150,8.865860000000001,178.687,8.23134,77.5516,10.8706,-49.2968,monvsource-source,588.6514344580002,546.522288702,721.75674818
51,0.0,66395.3,30,66395.3,-90,66395.3,150,8.824069999999999,178.74,8.237969999999999,77.6502,10.8519,-49.415,monvsource-source,585.876774871,546.962489541,720.51515607
52,0.0,66395.3,30,66395.3,-90,66395.3,150,8.84003,178.778,8.341330000000001,77.5413,10.9081,-49.8155,monvsource-source,586.9364438590001,553.825107749,724.24657193
53,0.0,66395.3,30,66395.3,-90,66395.3,150,9.4457,177.845,8.63605,76.5042,11.4769,-49.6972,monvsource-source,627.15008521,573.393130565,762.0122185700001
54,0.0,66395.3,30,66395.3,-90,66395.3,150,9.74278,177.86900000000003,8.85391,75.46,11.6722,-49.9328,monvsource-source,646.8748009340001,587.858010623,774.97922066
55,0.0,66395.3,30,66395.3,-90,66395.3,150,11.2056,177.497,11.4966,72.64,13.8446,-55.8861,monvsource-source,743.99917368,763.3202059800001,919.21637038
56,0.0,66395.3,30,66395.3,-90,66395.3,150,11.3793,176.52599999999998,10.9095,73.063,13.8094,-53.6749,monvsource-source,755.5320372900002,724.33952535,916.87925582
57,0.0,66395.3,30,66395.3,-90,66395.3,150,10.4871,172.16,9.791839999999999,69.449,12.6755,-56.7404,monvsource-source,696.2941506300001,650.1321543519999,841.59362515
58,0.0,66395.3,30,66395.3,-90,66395.3,150,9.68169,167.38,8.2252,64.8688,11.2644,-58.0877,monvsource-source,642.818712057,546.11462156,747.9032173200001
59,0.0,66395.3,30,66395.3,-90,66395.3,150,8.79071,162.295,6.76801,61.8492,10.0752,-59.0522,monvsource-source,583.661827663,449.36405435300003,668.9459265600001
60,0.0,66395.3,30,66395.3,-90,66395.3,150,8.67436,160.825,6.53412,58.4158,9.673689999999999,-60.4504,monvsource-source,575.9367345080001,433.834857636,642.287549657
61,0.0,66395.3,30,66395.3,-90,66395.3,150,8.52791,160.732,6.426819999999999,58.0967,9.48959,-60.6329,monvsource-source,566.2131428230001,426.710641946,630.064174927
62,0.0,66395.3,30,66395.3,-90,66395.3,150,8.9419,162.822,7.03005,60.9884,10.1783,-59.711000000000006,monvsource-source,593.7001330700001,466.7622787650001,675.79128199
63,0.0,66395.3,30,66395.3,-90,66395.3,150,10.123,169.986,9.01266,67.4883,12.009,-57.128,monvsource-source,672.1196219000001,598.398264498,797.3411577
64,0.0,66395.3,30,66395.3,-90,66395.3,150,11.0031,173.86599999999999,10.4982,70.4461,13.3291,-56.1407,monvsource-source,730.55412543,697.0311384600001,884.9895932300001
65,0.0,66395.3,30,66395.3,-90,66395.3,150,11.9138,176.576,11.8735,72.0054,14.5514,-55.5836,monvsource-source,791.0203251400001,788.34459455,966.14456842
66,0.0,66395.3,30,66395.3,-90,66395.3,150,12.2143,176.94400000000002,11.5948,70.9132,14.3321,-54.0929,monvsource-source,810.9721127900001,769.84022444,951.5840791300001
67,0.0,66395.3,30,66395.3,-90,66395.3,150,11.7366,178.86599999999999,11.4205,69.9637,13.4659,-54.4909,monvsource-source,779.2550779799999,758.2675236500002,894.07247027
68,0.0,66395.3,30,66395.3,-90,66395.3,150,11.6495,178.90599999999998,11.3655,70.1063,13.3997,-54.5067,monvsource-source,773.47204735,754.6157821500001,889.67710141
69,0.0,66395.3,30,66395.3,-90,66395.3,150,11.1988,179.93,11.1002,70.1047,12.8183,-54.6222,monvsource-source,743.54768564,737.00110906,851.0748739900001
70,0.0,66395.3,30,66395.3,-90,66395.3,150,10.4711,179.62599999999998,10.4728,72.0502,12.3731,-54.1684,monvsource-source,695.2318258299999,695.34469784,821.5156864300001
71,0.0,66395.3,30,66395.3,-90,66395.3,150,9.31052,179.43200000000002,8.60013,75.1209,11.0029,-49.8013,monvsource-source,618.1747685560001,571.008211389,730.54084637
72,0.0,66395.3,30,66395.3,-90,66395.3,150,9.10138,179.248,8.49768,76.172,10.9568,-49.8175,monvsource-source,604.288855514,564.2060129040001,727.48002304
73,0.0,66395.3,30,66395.3,-90,66395.3,150,8.720880000000001,179.107,8.1858,77.6433,10.7091,-49.4081,monvsource-source,579.0254438640002,543.49864674,711.0339072300001
74,0.0,66395.3,30,66395.3,-90,66395.3,150,8.641160000000001,179.00400000000002,8.11266,78.0269,10.6671,-49.2938,monvsource-source,573.7324105480001,538.642494498,708.2453046300001
75,0.0,66395.3,30,66395.3,-90,66395.3,150,8.61079,178.96,8.09569,78.1942,10.6604,-49.2899,monvsource-source,571.715985287,537.515766257,707.80045612
76,0.0,66395.3,30,66395.3,-90,66395.3,150,8.62146,178.96900000000002,8.10298,78.1472,10.6655,-49.2947,monvsource-source,572.4244231380001,537.999787994,708.1390721500001
77,0.0,66395.3,30,66395.3,-90,66395.3,150,9.134089999999999,177.838,8.23548,77.52199999999999,11.1496,-48.7721,monvsource-source,606.460645777,546.797165244,740.28103688
78,0.0,66395.3,30,66395.3,-90,66395.3,150,9.35474,177.935,8.441310000000001,76.6014,11.3018,-49.1478,monvsource-source,621.110768722,560.4633098430002,750.38640154
79,0.0,66395.3,30,66395.3,-90,66395.3,150,10.8712,177.36700000000002,10.6329,73.3635,13.24,-53.8218,monvsource-source,721.79658536,705.97458537,879.073772
80,0.0,66395.3,30,66395.3,-90,66395.3,150,11.171,176.609,10.5117,73.4267,13.4807,-52.7858,monvsource-source,741.7018963,697.92747501,895.0551207100001
81,0.0,66395.3,30,66395.3,-90,66395.3,150,10.9938,174.89,10.8004,71.3425,13.4864,-56.2385,monvsource-source,729.93664914,717.09579812,895.43357392
82,0.0,66395.3,30,66395.3,-90,66395.3,150,9.96712,169.388,8.865,66.5044,11.7698,-57.8545,monvsource-source,661.7699225360001,588.5943345,781.45940194
83,0.0,66395.3,30,66395.3,-90,66395.3,150,10.9155,174.37599999999998,10.5975,71.8106,13.4582,-55.8506,monvsource-source,724.73789715,703.62419175,893.5612264600001
84,0.0,66395.3,30,66395.3,-90,66395.3,150,9.134830000000001,163.963,7.3131699999999995,62.2493,10.4787,-59.1454,monvsource-source,606.5097782990001,485.560116101,695.7364301100001
85,0.0,66395.3,30,66395.3,-90,66395.3,150,9.55062,167.261,8.08718,65.1617,11.1462,-57.9282,monvsource-source,634.1162800860001,536.950742254,740.05529286
86,0.0,66395.3,30,66395.3,-90,66395.3,150,10.4699,171.363,9.54643,68.5389,12.5054,-56.7404,monvsource-source,695.15215147,633.838083779,830.2997846200001
87,0.0,66395.3,30,66395.3,-90,66395.3,150,10.3928,170.636,9.28083,67.9595,12.3211,-56.6612,monvsource-source,690.0330738399999,616.2034920990001,818.0631308300001
88,0.0,66395.3,30,66395.3,-90,66395.3,150,10.7925,172.174,9.90445,69.2587,12.9148,-56.2007,monvsource-source,716.5712752500001,657.6089290850001,857.48202044
89,0.0,66395.3,30,66395.3,-90,66395.3,150,12.0779,176.295,11.8975,71.7382,14.6694,-55.4259,monvsource-source,801.91579387,789.9380817500002,973.97921382
90,0.0,66395.3,30,66395.3,-90,66395.3,150,12.6088,176.84099999999998,11.9222,70.3104,14.6825,-54.2761,monvsource-source,837.1650586400001,791.57804566,974.84899225
91,0.0,66395.3,30,66395.3,-90,66395.3,150,12.2052,178.725,11.7386,69.1548,13.8123,-54.4784,monvsource-source,810.36791556,779.38786858,917.0718021900001
92,0.0,66395.3,30,66395.3,-90,66395.3,150,12.1891,178.905,11.7101,68.9986,13.7296,-54.4115,monvsource-source,809.2989512300001,777.49560253,911.58091088
93,0.0,66395.3,30,66395.3,-90,66395.3,150,11.7627,179.96,11.4182,68.8285,13.110999999999999,-54.3643,monvsource-source,780.98799531,758.11481446,870.5087783
94,0.0,66395.3,30,66395.3,-90,66395.3,150,11.012,179.638,10.7419,70.7127,12.6459,-53.8288,monvsource-source,731.1450436000001,713.2116730700001,839.62832427
95,0.0,66395.3,30,66395.3,-90,66395.3,150,9.815430000000001,179.27700000000002,8.83945,73.7174,11.3106,-49.5625,monvsource-source,651.6984194790001,586.897934585,750.9706801800002
96,0.0,66395.3,30,66395.3,-90,66395.3,150,9.56126,179.03099999999998,8.69312,74.9359,11.2475,-49.5274,monvsource-source,634.8227260780001,577.182310336,746.7811367500001
97,0.0,66395.3,30,66395.3,-90,66395.3,150,9.24814,178.954,8.43362,76.0573,11.0381,-49.1862,monvsource-source,614.033029742,559.952729986,732.8779609300001
98,0.0,66395.3,30,66395.3,-90,66395.3,150,9.138530000000001,178.852,8.334760000000001,76.5245,10.9753,-49.0416,monvsource-source,606.7554409090001,553.3888906280001,728.7083360900001
99,0.0,66395.3,30,66395.3,-90,66395.3,150,9.0929,178.78799999999998,8.307830000000001,76.7534,10.9635,-49.0384,monvsource-source,603.72582337,551.600865199,727.92487155
100,0.0,66395.3,30,66395.3,-90,66395.3,150,9.05804,178.861,8.301219999999999,76.8005,10.9333,-49.0842,monvsource-source,601.4112832120001,551.1619922659999,725.91973349
101,0.0,66395.3,30,66395.3,-90,66395.3,150,9.50028,177.924,8.4176,76.2779,11.3501,-48.6581,monvsource-source,630.7739406840001,558.88907728,753.59329453
102,0.0,66395.3,30,66395.3,-90,66395.3,150,9.77133,177.925,8.6353,75.3398,11.5445,-48.9634,monvsource-source,648.7703867490001,573.3433340900001,766.50054085
103,0.0,66395.3,30,66395.3,-90,66395.3,150,11.3308,177.50900000000001,10.3487,71.9659,13.1393,-51.851000000000006,monvsource-source,752.3118652400001,687.10504111,872.3877652900001
104,0.0,66395.3,30,66395.3,-90,66395.3,150,11.745,176.99,10.6032,71.6675,13.5851,-51.8395,monvsource-source,779.8127985,704.00264496,901.9867900300001
105,0.0,66395.3,30,66395.3,-90,66395.3,150,12.12,177.033,11.9785,70.6766,14.4433,-55.6957,monvsource-source,804.7110359999999,795.31610105,958.96723649
106,0.0,66395.3,30,66395.3,-90,66395.3,150,12.1145,175.298,11.6644,68.0054,14.1001,-56.8749,monvsource-source,804.34586185,774.4613373200001,936.18036953
107,0.0,66395.3,30,66395.3,-90,66395.3,150,11.4332,171.97400000000002,10.5433,66.0438,13.2555,-57.919,monvsource-source,759.11074396,700.02556649,880.1028991500001
108,0.0,66395.3,30,66395.3,-90,66395.3,150,10.9281,170.09599999999998,9.79139,64.3636,12.5407,-58.6262,monvsource-source,725.5744779300001,650.102276467,832.64353871
109,0.0,66395.3,30,66395.3,-90,66395.3,150,12.1049,175.627,11.8579,68.7413,14.2743,-57.0194,monvsource-source,803.70846697,787.3088278700001,947.74643079
110,0.0,66395.3,30,66395.3,-90,66395.3,150,11.0409,170.546,10.047,64.4029,12.6948,-58.9374,monvsource-source,733.0638677700001,667.0735791000001,842.8750544400001
111,0.0,66395.3,30,66395.3,-90,66395.3,150,10.6489,168.43,9.305639999999999,62.3388,12.0441,-59.501999999999995,monvsource-source,707.03691017,617.850759492,799.67163273
112,0.0,66395.3,30,66395.3,-90,66395.3,150,12.7433,177.042,12.8817,70.26,15.2819,-56.7654,monvsource-source,846.0952264900001,855.2843360100001,1014.6463350700001
113,0.0,66395.3,30,66395.3,-90,66395.3,150,13.0126,177.357,13.2649,69.9945,15.5649,-57.0727,monvsource-source,863.9754807800001,880.7270149700001,1033.43620497
114,0.0,66395.3,30,66395.3,-90,66395.3,150,13.2022,177.63,12.8544,68.712,15.1489,-55.7586,monvsource-source,876.56402966,853.4717443200001,1005.81576017
115,0.0,66395.3,30,66395.3,-90,66395.3,150,12.5986,179.609,12.4024,67.9461,14.0422,-55.5601,monvsource-source,836.48782658,823.4610687200001,932.33608166
116,0.0,66395.3,30,66395.3,-90,66395.3,150,12.5253,179.78099999999998,12.3211,67.923,13.9205,-55.4516,monvsource-source,831.6210510899999,818.0631308300001,924.2557736500002
117,0.0,66395.3,30,66395.3,-90,66395.3,150,12.0762,-179.21099999999998,11.9631,67.7951,13.2696,-55.3007,monvsource-source,801.80292186,794.29361343,881.0390728800002
118,0.0,66395.3,30,66395.3,-90,66395.3,150,11.2285,-179.50400000000002,11.1175,69.7197,12.6932,-54.4798,monvsource-source,745.51962605,738.14974775,842.76882196
119,0.0,66395.3,30,66395.3,-90,66395.3,150,9.93147,-179.628,9.137369999999999,72.3968,11.2301,-50.3364,monvsource-source,659.4029300909999,606.678422361,745.6258585300001
120,0.0,66395.3,30,66395.3,-90,66395.3,150,9.59903,-179.852,8.9233,73.8247,11.1184,-50.2255,monvsource-source,637.3304765590001,592.46518049,738.20950352
121,0.0,66395.3,30,66395.3,-90,66395.3,150,9.19353,-179.907,8.594430000000001,75.2427,10.8574,-49.8256,monvsource-source,610.4071824090001,570.6297581790001,720.88033022
122,0.0,66395.3,30,66395.3,-90,66395.3,150,9.0742,179.97799999999998,8.486130000000001,75.7533,10.794,-49.6698,monvsource-source,602.48423126,563.4391471890001,716.6708682
