hour,t(sec),V1,VAngle1,V2,VAngle2,V3,VAngle3,I1,IAngle1,I2,IAngle2,I3,IAngle3,Name,P1(kW),P2(kW),P3(kW)
1,0.0,2401.78,-0.000115364,2401.78,-120,2401.78,120,54.7669,-152.025,54.3199,95.6427,76.7908,-35.8424,monvsource-secondsource,131.538045082,130.464449422,184.43460762400002
2,0.0,2401.78,-0.00011488399999999999,2401.78,-120,2401.78,120,54.6273,-151.851,54.3146,95.5761,76.5361,-35.7606,monvsource-secondsource,131.202756594,130.451719988,183.822874258
3,0.0,2401.78,-0.00011577700000000001,2401.78,-120,2401.78,120,54.9996,-151.953,54.5525,95.2126,74.6173,-34.9629,monvsource-secondsource,132.09693928800002,131.02310345,179.214338794
4,0.0,2401.78,-0.000116007,2401.78,-120,2401.78,120,55.0935,-151.983,54.6139,95.12,74.2033,-34.7833,monvsource-secondsource,132.32246643,131.17057274200002,178.22000187400002
5,0.0,2401.78,-0.000124149,2401.78,-120,2401.78,120,58.0193,-153.782,57.0824,93.09299999999999,78.1256,-36.389,monvsource-secondsource,139.349594354,137.099366672,187.64050356800004
6,0.0,2401.78,-0.000128604,2401.78,-120,2401.78,120,59.5696,-154.839,58.3706,92.3552,83.3125,-38.3159,monvsource-secondsource,143.073073888,140.19333966800002,200.09829625
7,0.0,2401.78,-0.000154538,2401.78,-120,2401.78,120,69.1727,-159.49200000000002,66.7208,87.2279,102.236,-43.3193,monvsource-secondsource,166.13760740600003,160.248683024,245.54838008000004
8,0.0,2401.78,-0.000133939,2401.78,-120,2401.78,120,61.9355,-155.047,61.6807,90.1042,96.3832,-42.6152,monvsource-secondsource,148.75544519,148.14347164600002,231.49124209600004
9,0.0,2401.78,-0.000140616,2401.78,-120,2401.78,120,64.4004,-156.264,64.098,88.58,105.70200000000001,-44.5752,monvsource-secondsource,154.67559271200003,153.94929444,253.87294956000002
10,0.0,2401.78,-0.000128999,2401.78,-120,2401.78,120,60.2147,-153.91899999999998,59.9269,91.1423,95.1316,-42.1919,monvsource-secondsource,144.62246216600002,143.93122988200003,228.48517424800002
11,0.0,2401.78,-0.000131489,2401.78,-120,2401.78,120,61.2896,-154.086,59.8193,90.064,84.0731,-39.0221,monvsource-secondsource,147.204135488,143.672798354,201.925090118
12,0.0,2401.78,-0.000120059,2401.78,-120,2401.78,120,57.0433,-151.935,53.4197,94.2778,75.5666,-35.4968,monvsource-secondsource,137.005457074,128.30236706600002,181.494348548
13,0.0,2401.78,-0.000141903,2401.78,-120,2401.78,120,65.1378,-155.97,63.0215,87.3768,85.1089,-39.3926,monvsource-secondsource,156.446665284,151.36377827,204.41285384200003
14,0.0,2401.78,-0.000133048,2401.78,-120,2401.78,120,61.81399999999999,-154.474,58.9033,89.8054,80.5458,-37.6931,monvsource-secondsource,148.46362892,141.472767874,193.45329152400004
15,0.0,2401.78,-0.000125907,2401.78,-120,2401.78,120,59.1733,-153.135,55.7003,92.1031,77.1265,-36.2459,monvsource-secondsource,142.121248474,133.779866534,185.24088516999998
16,0.0,2401.78,-0.000125334,2401.78,-120,2401.78,120,58.9426,-153.061,55.301,92.5039,77.4567,-36.3585,monvsource-secondsource,141.567157828,132.82083578,186.033952926
17,0.0,2401.78,-0.000140095,2401.78,-120,2401.78,120,64.3122,-155.961,61.3992,88.7119,89.3336,-40.6625,monvsource-secondsource,154.463755716,147.467370576,214.55965380800004
18,0.0,2401.78,-0.000160928,2401.78,-120,2401.78,120,71.78,-160.039,68.8669,85.6242,108.694,-45.0199,monvsource-secondsource,172.39976840000003,165.403143082,261.05907532000003
19,0.0,2401.78,-0.000174255,2401.78,-120,2401.78,120,76.51100000000001,-162.711,72.3138,84.5095,125.059,-47.3977,monvsource-secondsource,183.76258958000003,173.681838564,300.36420502
20,0.0,2401.78,-0.00017004299999999998,2401.78,-120,2401.78,120,74.8526,-162.248,71.0648,85.2676,125.087,-47.396,monvsource-secondsource,179.779477628,170.682015344,300.43145486000003
21,0.0,2401.78,-0.000161713,2401.78,-120,2401.78,120,71.5734,-161.304,68.3007,86.8208,124.083,-47.2731,monvsource-secondsource,171.90356065200004,164.043255246,298.02006774
22,0.0,2401.78,-0.00015117399999999999,2401.78,-120,2401.78,120,67.5774,-159.697,65.1917,88.6076,116.859,-46.1313,monvsource-secondsource,162.30604777200003,156.57612122600003,280.66960902000005
23,0.0,2401.78,-0.000129517,2401.78,-120,2401.78,120,59.5643,-155.731,58.6304,93.1333,98.9023,-42.5797,monvsource-secondsource,143.06034445400002,140.81732211200003,237.54156609400002
24,0.0,2401.78,-0.000129131,2401.78,-120,2401.78,120,59.6319,-155.214,57.9922,92.4722,85.1012,-38.739000000000004,monvsource-secondsource,143.22270478200002,139.28450611600002,204.39436013600005
25,0.0,2401.78,-0.000122403,2401.78,-120,2401.78,120,57.2671,-153.653,56.6765,93.86399999999999,79.0028,-36.8144,monvsource-secondsource,137.542975438,136.12448417000002,189.747344984
26,0.0,2401.78,-0.000121292,2401.78,-120,2401.78,120,56.8576,-153.429,56.3428,94.2375,78.2895,-36.4989,monvsource-secondsource,136.559446528,135.32301018400003,188.03415531000002
27,0.0,2401.78,-0.000121061,2401.78,-120,2401.78,120,56.7726,-153.382,56.2284,94.3413,77.7477,-36.2732,monvsource-secondsource,136.355295228,135.04824655200002,186.732870906
28,0.0,2401.78,-0.000121189,2401.78,-120,2401.78,120,56.7944,-153.46,56.1822,94.3953,77.9725,-36.3173,monvsource-secondsource,136.407654032,134.93728431600002,187.27279105
29,0.0,2401.78,-0.000144324,2401.78,-120,2401.78,120,65.4075,-157.68,63.8914,89.1481,88.2344,-39.6989,monvsource-secondsource,157.09442535,153.453086692,211.91961723199998
30,0.0,2401.78,-0.000152862,2401.78,-120,2401.78,120,68.5554,-159.19799999999998,68.02600000000001,87.7368,97.6378,-42.7146,monvsource-secondsource,164.654988612,163.38348628000003,234.50451528400004
31,0.0,2401.78,-0.00021177400000000002,2401.78,-120,2401.78,120,91.6037,-165.74099999999999,105.285,79.8106,141.922,-53.3811,monvsource-secondsource,220.01193458600002,252.87140730000002,340.86542116000004
32,0.0,2401.78,-0.00023799999999999998,2401.78,-120,2401.78,120,102.01899999999999,-167.96099999999998,109.925,77.683,148.112,-52.4931,monvsource-secondsource,245.02719381999998,264.0156665,355.73243936
33,0.0,2401.78,-0.000271712,2401.78,-120,2401.78,120,115.455,-170.608,119.994,75.3386,151.119,-52.464,monvsource-secondsource,277.2975099,288.19918932,362.95459182
34,0.0,2401.78,-0.00028909599999999997,2401.78,-120,2401.78,120,122.4,-171.95,119.23200000000001,74.1805,148.08100000000002,-50.7296,monvsource-secondsource,293.97787200000005,286.36903296,355.6579841800001
35,0.0,2401.78,-0.00028262,2401.78,-120,2401.78,120,119.77799999999999,-171.55599999999998,115.569,74.551,137.715,-49.4107,monvsource-secondsource,287.68040484000005,277.57131282000006,330.7611327
36,0.0,2401.78,-0.000309673,2401.78,-120,2401.78,120,130.93,-172.535,128.624,72.4363,151.107,-51.0268,monvsource-secondsource,314.4650554000001,308.92655072,362.92577046
37,0.0,2401.78,-0.00025962,2401.78,-120,2401.78,120,110.399,-170.355,105.524,76.592,127.712,-48.4235,monvsource-secondsource,265.15411022,253.44543272,306.73612736000007
38,0.0,2401.78,-0.00029471099999999996,2401.78,-120,2401.78,120,124.76100000000001,-172.005,120.71799999999999,73.5664,141.924,-49.8626,monvsource-secondsource,299.64847458,289.93807804,340.87022472000007
39,0.0,2401.78,-0.00025948299999999997,2401.78,-120,2401.78,120,110.234,-170.68400000000003,101.28,77.029,121.414,-46.6565,monvsource-secondsource,264.75781652,243.25227840000002,291.60971692000004
40,0.0,2401.78,-0.000275326,2401.78,-120,2401.78,120,116.755,-171.335,109.49700000000001,75.3757,130.928,-48.1676,monvsource-secondsource,280.41982390000004,262.98770466,314.46025184000007
41,0.0,2401.78,-0.00029821599999999997,2401.78,-120,2401.78,120,126.15799999999999,-172.29,120.749,73.6651,147.907,-50.4214,monvsource-secondsource,303.00376124,290.01253322,355.24007446
42,0.0,2401.78,-0.00027571700000000003,2401.78,-120,2401.78,120,117.463,-169.74099999999999,123.585,74.2717,159.188,-53.4977,monvsource-secondsource,282.12028414,296.82398129999996,382.33455463999996
43,0.0,2401.78,-0.000231279,2401.78,-120,2401.78,120,99.3998,-167.274,105.212,77.5252,150.506,-52.8329,monvsource-secondsource,238.73645164400003,252.69607736000003,361.48230068000004
44,0.0,2401.78,-0.00022806400000000002,2401.78,-120,2401.78,120,98.0853,-167.101,104.346,77.9138,151.424,-52.9322,monvsource-secondsource,235.579311834,250.61613588000003,363.68713472
45,0.0,2401.78,-0.000199124,2401.78,-120,2401.78,120,86.4077,-165.04,92.2864,81.0022,143.274,-52.025,monvsource-secondsource,207.532285706,221.65162979200002,344.11262772000003
46,0.0,2401.78,-0.00017482200000000001,2401.78,-120,2401.78,120,76.884,-162.416,84.7733,84.0667,131.421,-50.9405,monvsource-secondsource,184.65845352000002,203.60681647400003,315.64432938
47,0.0,2401.78,-0.000141327,2401.78,-120,2401.78,120,64.0305,-157.722,63.3143,90.4299,101.291,-43.3037,monvsource-secondsource,153.78717429000002,152.06701945400002,243.27869798000003
48,0.0,2401.78,-0.00014092100000000002,2401.78,-120,2401.78,120,64.0301,-157.32399999999998,62.3161,89.9235,89.5085,-40.1349,monvsource-secondsource,153.78621357800003,149.66956265800002,214.97972513000002
49,0.0,2401.78,-0.000132771,2401.78,-120,2401.78,120,61.0252,-155.804,59.9111,91.6966,84.1495,-38.418,monvsource-secondsource,146.56910485600002,143.893281758,202.10858611000003
50,0.0,2401.78,-0.00013065399999999999,2401.78,-120,2401.78,120,60.2418,-155.407,59.2774,92.2275,83.3201,-38.1538,monvsource-secondsource,144.687550404,142.37127377200002,200.116549778
51,0.0,2401.78,-0.000130397,2401.78,-120,2401.78,120,60.1103,-155.434,58.9655,92.3999,82.8926,-37.9429,monvsource-secondsource,144.371716334,141.62215859,199.08978882800002
52,0.0,2401.78,-0.00012986899999999999,2401.78,-120,2401.78,120,59.9247,-155.313,59.6395,92.3685,83.7572,-38.6122,monvsource-secondsource,143.92594596600003,143.24095831000002,201.16636781600002
53,0.0,2401.78,-0.000156788,2401.78,-120,2401.78,120,70.0753,-159.721,68.803,86.9114,95.5484,-41.934,monvsource-secondsource,168.30545403400004,165.24966934,229.48623615200003
54,0.0,2401.78,-0.00016425,2401.78,-120,2401.78,120,72.8861,-160.86700000000002,71.8583,85.9044,104.961,-44.2542,monvsource-secondsource,175.05637725800003,172.587827774,252.09323058
55,0.0,2401.78,-0.000222256,2401.78,-120,2401.78,120,95.7716,-166.62900000000002,109.05,78.9476,149.4,-53.945,monvsource-secondsource,230.02231344800003,261.91410900000005,358.825932
56,0.0,2401.78,-0.000246896,2401.78,-120,2401.78,120,105.60799999999999,-168.544,112.485,77.0189,153.123,-52.7131,monvsource-secondsource,253.64718224,270.1642233,367.76775894
57,0.0,2401.78,-0.00026815599999999997,2401.78,-120,2401.78,120,113.97399999999999,-170.516,115.82600000000001,75.8317,148.405,-51.7725,monvsource-secondsource,273.74047372,278.18857028,356.4361609
58,0.0,2401.78,-0.000272533,2401.78,-120,2401.78,120,115.555,-171.385,109.34100000000001,75.925,138.819,-49.4086,monvsource-secondsource,277.53768790000004,262.61302698000003,333.41269782
59,0.0,2401.78,-0.000257195,2401.78,-120,2401.78,120,109.296,-170.578,101.575,77.324,124.132,-47.288000000000004,monvsource-secondsource,262.50494688000003,243.96080350000003,298.13775496000005
60,0.0,2401.78,-0.00028739099999999996,2401.78,-120,2401.78,120,121.714,-171.831,117.02799999999999,74.2445,140.621,-49.7853,monvsource-secondsource,292.33025092,281.07550984,337.74070538000007
61,0.0,2401.78,-0.00025702200000000003,2401.78,-120,2401.78,120,109.32,-170.274,105.36399999999999,76.8567,130.305,-48.9616,monvsource-secondsource,262.5625896,253.06114792,312.9639429
62,0.0,2401.78,-0.000271643,2401.78,-120,2401.78,120,115.20299999999999,-171.301,108.911,75.8979,135.30700000000002,-49.0449,monvsource-secondsource,276.69226133999996,261.58026158,324.9776464600001
63,0.0,2401.78,-0.00027808,2401.78,-120,2401.78,120,117.853,-171.56,111.654,75.273,139.24200000000002,-49.4066,monvsource-secondsource,283.05697834000006,268.16834412000003,334.42865076000004
64,0.0,2401.78,-0.000283786,2401.78,-120,2401.78,120,120.195,-171.80599999999998,114.44,74.8531,143.618,-49.9673,monvsource-secondsource,288.6819471,274.8597032,344.93884004000006
65,0.0,2401.78,-0.000302112,2401.78,-120,2401.78,120,127.734,-172.53099999999998,123.096,73.5511,156.414,-51.382,monvsource-secondsource,306.78896652000003,295.64951088000004,375.67201692000003
66,0.0,2401.78,-0.000269773,2401.78,-120,2401.78,120,115.025,-169.486,120.564,74.6967,158.18,-53.2791,monvsource-secondsource,276.2647445,289.56820392,379.91356040000005
67,0.0,2401.78,-0.000222014,2401.78,-120,2401.78,120,95.6569,-166.65599999999998,100.57,78.3756,146.282,-52.24100000000001,monvsource-secondsource,229.746829282,241.54701459999998,351.33718196000007
68,0.0,2401.78,-0.000217811,2401.78,-120,2401.78,120,93.9485,-166.395,99.5244,78.9167,146.94,-52.3561,monvsource-secondsource,225.64362833,239.03571343200002,352.91755320000004
69,0.0,2401.78,-0.000189499,2401.78,-120,2401.78,120,82.5686,-164.188,87.7248,82.1962,138.796,-51.3764,monvsource-secondsource,198.31161210800002,210.69567014400002,333.35745688000003
70,0.0,2401.78,-0.00016684099999999998,2401.78,-120,2401.78,120,73.747,-161.525,80.969,85.286,127.605,-50.2846,monvsource-secondsource,177.12406966,194.46972482,306.4791369
71,0.0,2401.78,-0.000134072,2401.78,-120,2401.78,120,61.2865,-156.514,60.9532,92.0738,98.6634,-42.7424,monvsource-secondsource,147.19668997,146.396176696,236.967780852
72,0.0,2401.78,-0.000132741,2401.78,-120,2401.78,120,60.9815,-155.86700000000002,59.7742,91.6809,86.2874,-39.241,monvsource-secondsource,146.46414707,143.564478076,207.24335157200005
73,0.0,2401.78,-0.000122478,2401.78,-120,2401.78,120,57.2754,-153.707,56.8376,94.0391,79.6848,-36.9775,monvsource-secondsource,137.56291021200002,136.51141092800003,191.38535894400002
74,0.0,2401.78,-0.000120741,2401.78,-120,2401.78,120,56.6648,-153.297,56.3904,94.4671,78.5108,-36.5462,monvsource-secondsource,136.096383344,135.437334912,188.565669224
75,0.0,2401.78,-0.000120471,2401.78,-120,2401.78,120,56.5873,-153.19899999999998,56.2902,94.4756,77.4386,-36.1284,monvsource-secondsource,135.910245394,135.19667655600003,185.99048070799998
76,0.0,2401.78,-0.000120614,2401.78,-120,2401.78,120,56.6435,-153.221,56.3471,94.4175,77.4934,-36.1597,monvsource-secondsource,136.04522543000002,135.333337838,186.122098252
77,0.0,2401.78,-0.000144467,2401.78,-120,2401.78,120,65.4992,-157.623,64.1989,89.0507,87.8623,-39.5819,monvsource-secondsource,157.31466857600003,154.191634042,211.025914894
78,0.0,2401.78,-0.00014956100000000001,2401.78,-120,2401.78,120,67.3519,-158.586,66.2513,88.3033,94.9805,-41.7542,monvsource-secondsource,161.76444638200002,159.12104731400004,228.12226529000003
79,0.0,2401.78,-0.000211168,2401.78,-120,2401.78,120,91.3543,-165.71,99.374,79.7918,136.024,-51.417,monvsource-secondsource,219.412930654,238.67448572,326.69972272
80,0.0,2401.78,-0.00023822400000000001,2401.78,-120,2401.78,120,102.11399999999999,-167.965,106.902,77.5361,144.764,-51.4131,monvsource-secondsource,245.25536291999998,256.75508556000005,347.69127992000006
81,0.0,2401.78,-0.000256762,2401.78,-120,2401.78,120,109.31200000000001,-169.967,110.44200000000001,76.7934,140.585,-50.9746,monvsource-secondsource,262.5433753600001,265.25738676000003,337.6542413000001
82,0.0,2401.78,-0.000254307,2401.78,-120,2401.78,120,108.055,-170.622,100.05799999999999,77.8216,126.994,-47.8165,monvsource-secondsource,259.52433790000003,240.31730324,305.01164932
83,0.0,2401.78,-0.000231525,2401.78,-120,2401.78,120,98.7657,-169.33900000000003,87.8169,80.6925,107.225,-44.0296,monvsource-secondsource,237.213482946,210.91687408200002,257.5308605
84,0.0,2401.78,-0.000252697,2401.78,-120,2401.78,120,107.396,-170.543,93.5481,78.7735,112.551,-44.6584,monvsource-secondsource,257.94156488000004,224.68195561800005,270.32274078000006
85,0.0,2401.78,-0.00024132599999999999,2401.78,-120,2401.78,120,102.85600000000001,-169.61,90.4047,79.9342,109.68700000000001,-44.505,monvsource-secondsource,247.03748368000004,217.13220036600003,263.44404286
86,0.0,2401.78,-0.000247973,2401.78,-120,2401.78,120,105.447,-170.351,91.4724,79.4032,112.075,-44.5124,monvsource-secondsource,253.26049566,219.696580872,269.17949350000004
87,0.0,2401.78,-0.000240598,2401.78,-120,2401.78,120,102.436,-169.952,89.7558,79.775,110.70200000000001,-44.3885,monvsource-secondsource,246.02873608000004,215.573685324,265.88184956000003
88,0.0,2401.78,-0.000262375,2401.78,-120,2401.78,120,111.383,-170.93900000000002,100.745,77.0904,122.725,-46.7009,monvsource-secondsource,267.51746174,241.96732610000004,294.75845050000004
89,0.0,2401.78,-0.000295158,2401.78,-120,2401.78,120,124.865,-172.28799999999998,117.42299999999999,74.1351,145.248,-50.008,monvsource-secondsource,299.8982597,282.02421294,348.85374144
90,0.0,2401.78,-0.000282872,2401.78,-120,2401.78,120,120.36200000000001,-170.144,125.459,73.8654,161.993,-53.6006,monvsource-secondsource,289.08304436000003,301.32491702000004,389.07154754
91,0.0,2401.78,-0.000240463,2401.78,-120,2401.78,120,103.098,-167.9,107.90100000000001,76.6485,154.634,-52.9728,monvsource-secondsource,247.61871444000002,259.15446378000007,371.39684852
92,0.0,2401.78,-0.000236413,2401.78,-120,2401.78,120,101.448,-167.67700000000002,106.475,77.0388,155.241,-53.0012,monvsource-secondsource,243.65577744,255.72952550000002,372.85472898000006
93,0.0,2401.78,-0.000206866,2401.78,-120,2401.78,120,89.4991,-165.695,93.7212,79.9508,146.715,-52.0052,monvsource-secondsource,214.95714839800002,225.097703736,352.3771527
94,0.0,2401.78,-0.000181418,2401.78,-120,2401.78,120,79.5034,-163.067,86.1854,83.0067,134.602,-50.9998,monvsource-secondsource,190.94967605200003,206.99837001200004,323.28439156
95,0.0,2401.78,-0.000147033,2401.78,-120,2401.78,120,66.2938,-158.41,65.792,88.7895,104.21700000000001,-44.0384,monvsource-secondsource,159.22312296400003,158.01790976,250.30630626000004
96,0.0,2401.78,-0.000145236,2401.78,-120,2401.78,120,65.7969,-157.732,64.497,88.4492,90.9531,-40.7041,monvsource-secondsource,158.02967848199998,154.90760466,218.44933651800002
97,0.0,2401.78,-0.000135879,2401.78,-120,2401.78,120,62.3595,-155.998,61.6937,90.21,84.4928,-38.7616,monvsource-secondsource,149.77379991,148.174694786,202.93311718400003
98,0.0,2401.78,-0.00013315,2401.78,-120,2401.78,120,61.3685,-155.45600000000002,60.9141,90.7936,82.779,-38.2002,monvsource-secondsource,147.39363593000002,146.30226709800002,198.81694662
99,0.0,2401.78,-0.000132557,2401.78,-120,2401.78,120,61.1697,-155.303,60.7068,90.8739,81.4525,-37.7483,monvsource-secondsource,146.91616206600003,145.804378104,195.63098545
100,0.0,2401.78,-0.000131006,2401.78,-120,2401.78,120,60.5958,-155.013,60.1752,91.2134,80.6597,-37.4754,monvsource-secondsource,145.537780524,144.52759185600002,193.726854266
101,0.0,2401.78,-0.000152041,2401.78,-120,2401.78,120,68.5122,-158.493,67.3849,86.9841,89.75200000000001,-40.2891,monvsource-secondsource,164.55123171600005,161.84370512200002,215.56455856000002
102,0.0,2401.78,-0.000159584,2401.78,-120,2401.78,120,71.3114,-159.751,70.3072,85.95200000000001,98.3069,-42.6644,monvsource-secondsource,171.27429429200004,168.86242681599998,236.11154628200003
103,0.0,2401.78,-0.000226593,2401.78,-120,2401.78,120,97.4994,-166.981,99.8581,78.1001,140.08100000000002,-50.463,monvsource-secondsource,234.17210893200001,239.837187418,336.4437441800001
104,0.0,2401.78,-0.000255996,2401.78,-120,2401.78,120,109.27799999999999,-169.13299999999998,110.671,75.8886,152.869,-51.4187,monvsource-secondsource,262.46171484,265.80739438,367.15770682000004
105,0.0,2401.78,-0.000275821,2401.78,-120,2401.78,120,117.04899999999999,-171.067,116.444,75.3446,152.965,-51.8657,monvsource-secondsource,281.12594722000006,279.6728703200001,367.38827770000006
106,0.0,2401.78,-0.000284731,2401.78,-120,2401.78,120,120.431,-172.36700000000002,110.95299999999999,75.673,152.625,-50.8041,monvsource-secondsource,289.24876718,266.48469634,366.57167250000003
107,0.0,2401.78,-0.000272386,2401.78,-120,2401.78,120,115.31200000000001,-171.99900000000002,103.046,77.38,143.624,-49.827,monvsource-secondsource,276.95405536000004,247.49382188000004,344.95325072
