hour,t(sec),V1,VAngle1,V2,VAngle2,V3,VAngle3,I1,IAngle1,I2,IAngle2,I3,IAngle3,Name
1,0.0,2392.36,119.55,0.0,0.0,,,43.1367,119.55,43.1367,-60.45,,,monload-611_hotel
2,0.0,2392.06,119.535,0.0,0.0,,,45.7742,119.535,45.7742,-60.4651,,,monload-611_hotel
3,0.0,2393.24,119.575,0.0,0.0,,,39.9058,119.575,39.9058,-60.4253,,,monload-611_hotel
4,0.0,2393.49,119.583,0.0,0.0,,,38.7017,119.583,38.7017,-60.4168,,,monload-611_hotel
5,0.0,2393.01,119.57,0.0,0.0,,,39.0717,119.57,39.0717,-60.4297,,,monload-611_hotel
6,0.0,2391.71,119.538,0.0,0.0,,,42.3067,119.538,42.3067,-60.461999999999996,,,monload-611_hotel
7,0.0,2386.49,119.36200000000001,0.0,0.0,,,63.5775,119.36200000000001,63.5775,-60.6378,,,monload-611_hotel
8,0.0,2385.97,119.353,0.0,0.0,,,67.8662,119.353,67.8662,-60.6467,,,monload-611_hotel
9,0.0,2381.52,119.185,0.0,0.0,,,93.7779,119.185,93.7779,-60.8153,,,monload-611_hotel
10,0.0,2385.41,119.311,0.0,0.0,,,80.5483,119.31,80.5483,-60.6896,,,monload-611_hotel
11,0.0,2390.97,119.494,0.0,0.0,,,56.915,119.494,56.915,-60.5064,,,monload-611_hotel
12,0.0,2395.31,119.63,0.0,0.0,,,53.3413,119.63,53.3413,-60.3704,,,monload-611_hotel
13,0.0,2391.18,119.50299999999999,0.0,0.0,,,53.1575,119.50399999999999,53.1575,-60.4964,,,monload-611_hotel
14,0.0,2392.92,119.556,0.0,0.0,,,53.2417,119.556,53.2417,-60.4442,,,monload-611_hotel
15,0.0,2394.41,119.602,0.0,0.0,,,53.0946,119.601,53.0946,-60.3985,,,monload-611_hotel
16,0.0,2394.6,119.611,0.0,0.0,,,52.7958,119.611,52.7958,-60.3891,,,monload-611_hotel
17,0.0,2390.72,119.507,0.0,0.0,,,55.3571,119.508,55.3571,-60.4919,,,monload-611_hotel
18,0.0,2384.87,119.334,0.0,0.0,,,66.9467,119.335,66.9467,-60.6654,,,monload-611_hotel
19,0.0,2379.1,119.14,0.0,0.0,,,91.9212,119.14,91.9212,-60.8601,,,monload-611_hotel
20,0.0,2378.37,119.11200000000001,0.0,0.0,,,96.4971,119.11200000000001,96.4971,-60.8883,,,monload-611_hotel
21,0.0,2377.49,119.083,0.0,0.0,,,101.833,119.083,101.833,-60.9173,,,monload-611_hotel
22,0.0,2378.86,119.117,0.0,0.0,,,98.9275,119.117,98.9275,-60.8834,,,monload-611_hotel
23,0.0,2384.42,119.296,0.0,0.0,,,76.0358,119.296,76.0358,-60.7041,,,monload-611_hotel
24,0.0,2390.52,119.495,0.0,0.0,,,48.8033,119.494,48.8033,-60.5058,,,monload-611_hotel
25,0.0,2392.67,119.56299999999999,0.0,0.0,,,39.7604,119.56299999999999,39.7604,-60.4369,,,monload-611_hotel
26,0.0,2393.03,119.575,0.0,0.0,,,38.0196,119.575,38.0196,-60.4247,,,monload-611_hotel
27,0.0,2393.38,119.588,0.0,0.0,,,36.0533,119.588,36.0533,-60.4116,,,monload-611_hotel
28,0.0,2393.33,119.587,0.0,0.0,,,36.235,119.587,36.235,-60.4133,,,monload-611_hotel
29,0.0,2392.3,119.54799999999999,0.0,0.0,,,37.6592,119.54899999999999,37.6592,-60.4515,,,monload-611_hotel
30,0.0,2389.86,119.478,0.0,0.0,,,45.2842,119.478,45.2842,-60.5219,,,monload-611_hotel
31,0.0,2383.68,119.221,0.0,0.0,,,70.6758,119.22,70.6758,-60.7803,,,monload-611_hotel
32,0.0,2383.58,119.18,0.0,0.0,,,74.2371,119.18,74.2371,-60.8197,,,monload-611_hotel
33,0.0,2386.49,119.25,0.0,0.0,,,65.5525,119.249,65.5525,-60.7509,,,monload-611_hotel
34,0.0,2389.1,119.294,0.0,0.0,,,66.2387,119.29299999999999,66.2387,-60.7071,,,monload-611_hotel
35,0.0,2393.23,119.421,0.0,0.0,,,53.5379,119.42,53.5379,-60.5802,,,monload-611_hotel
36,0.0,2388.92,119.286,0.0,0.0,,,55.3904,119.287,55.3904,-60.7126,,,monload-611_hotel
37,0.0,2396.89,119.54,0.0,0.0,,,56.2571,119.537,56.2571,-60.4627,,,monload-611_hotel
38,0.0,2392.29,119.385,0.0,0.0,,,54.0496,119.387,54.0496,-60.6131,,,monload-611_hotel
39,0.0,2400.56,119.639,0.0,0.0,,,52.2029,119.63600000000001,52.2029,-60.364,,,monload-611_hotel
40,0.0,2396.94,119.53,0.0,0.0,,,52.7137,119.531,52.7137,-60.4686,,,monload-611_hotel
41,0.0,2391.84,119.389,0.0,0.0,,,55.1004,119.391,55.1004,-60.6094,,,monload-611_hotel
42,0.0,2384.02,119.20700000000001,0.0,0.0,,,67.4433,119.209,67.4433,-60.7908,,,monload-611_hotel
43,0.0,2380.89,119.139,0.0,0.0,,,82.6417,119.139,82.6417,-60.8608,,,monload-611_hotel
44,0.0,2379.98,119.105,0.0,0.0,,,87.71,119.10600000000001,87.71,-60.8945,,,monload-611_hotel
45,0.0,2378.96,119.07799999999999,0.0,0.0,,,96.1129,119.07799999999999,96.1129,-60.9217,,,monload-611_hotel
46,0.0,2381.01,119.141,0.0,0.0,,,90.1046,119.14,90.1046,-60.86,,,monload-611_hotel
47,0.0,2388.33,119.366,0.0,0.0,,,65.7104,119.363,65.7104,-60.6367,,,monload-611_hotel
48,0.0,2393.17,119.521,0.0,0.0,,,45.0492,119.51899999999999,45.0492,-60.4811,,,monload-611_hotel
49,0.0,2394.57,119.56200000000001,0.0,0.0,,,40.245,119.561,40.245,-60.4386,,,monload-611_hotel
50,0.0,2394.79,119.57,0.0,0.0,,,39.1808,119.57,39.1808,-60.4297,,,monload-611_hotel
51,0.0,2394.99,119.57799999999999,0.0,0.0,,,38.1004,119.57799999999999,38.1004,-60.4219,,,monload-611_hotel
52,0.0,2394.62,119.568,0.0,0.0,,,39.2742,119.569,39.2742,-60.4314,,,monload-611_hotel
53,0.0,2393.32,119.52,0.0,0.0,,,41.8758,119.52,41.8758,-60.4795,,,monload-611_hotel
54,0.0,2390.65,119.441,0.0,0.0,,,51.0733,119.44200000000001,51.0733,-60.558,,,monload-611_hotel
55,0.0,2382.1,119.17,0.0,0.0,,,76.0804,119.17299999999999,76.0804,-60.8268,,,monload-611_hotel
56,0.0,2382.79,119.15299999999999,0.0,0.0,,,76.6342,119.15299999999999,76.6342,-60.847,,,monload-611_hotel
57,0.0,2388.25,119.29799999999999,0.0,0.0,,,67.2179,119.296,67.2179,-60.7036,,,monload-611_hotel
58,0.0,2393.58,119.429,0.0,0.0,,,66.57,119.428,66.57,-60.5725,,,monload-611_hotel
59,0.0,2399.21,119.60700000000001,0.0,0.0,,,52.7854,119.605,52.7854,-60.3948,,,monload-611_hotel
60,0.0,2392.85,119.413,0.0,0.0,,,55.1871,119.416,55.1871,-60.5843,,,monload-611_hotel
61,0.0,2395.39,119.506,0.0,0.0,,,57.7238,119.505,57.7238,-60.4954,,,monload-611_hotel
62,0.0,2395.11,119.485,0.0,0.0,,,58.7533,119.485,58.7533,-60.5149,,,monload-611_hotel
63,0.0,2393.57,119.43700000000001,0.0,0.0,,,59.5167,119.43799999999999,59.5167,-60.5621,,,monload-611_hotel
64,0.0,2392.38,119.405,0.0,0.0,,,59.8096,119.406,59.8096,-60.5943,,,monload-611_hotel
65,0.0,2388.81,119.307,0.0,0.0,,,60.7446,119.30799999999999,60.7446,-60.6917,,,monload-611_hotel
66,0.0,2383.57,119.195,0.0,0.0,,,69.4392,119.197,69.4392,-60.8032,,,monload-611_hotel
67,0.0,2381.23,119.15100000000001,0.0,0.0,,,82.4912,119.15100000000001,82.4912,-60.8487,,,monload-611_hotel
68,0.0,2380.4,119.12100000000001,0.0,0.0,,,87.0558,119.12100000000001,87.0558,-60.8787,,,monload-611_hotel
69,0.0,2379.4,119.094,0.0,0.0,,,95.4375,119.094,95.4375,-60.9056,,,monload-611_hotel
70,0.0,2381.42,119.155,0.0,0.0,,,89.3571,119.155,89.3571,-60.8451,,,monload-611_hotel
71,0.0,2388.47,119.37299999999999,0.0,0.0,,,65.7621,119.37,65.7621,-60.6296,,,monload-611_hotel
72,0.0,2393.39,119.529,0.0,0.0,,,45.145,119.527,45.145,-60.4728,,,monload-611_hotel
73,0.0,2395.04,119.57799999999999,0.0,0.0,,,39.5725,119.57799999999999,39.5725,-60.4222,,,monload-611_hotel
74,0.0,2395.45,119.59200000000001,0.0,0.0,,,37.7287,119.59200000000001,37.7287,-60.4079,,,monload-611_hotel
75,0.0,2395.92,119.60700000000001,0.0,0.0,,,35.6613,119.60700000000001,35.6613,-60.3927,,,monload-611_hotel
76,0.0,2395.89,119.60700000000001,0.0,0.0,,,35.8042,119.60700000000001,35.8042,-60.3935,,,monload-611_hotel
77,0.0,2394.87,119.56700000000001,0.0,0.0,,,37.3025,119.568,37.3025,-60.431999999999995,,,monload-611_hotel
78,0.0,2392.74,119.506,0.0,0.0,,,44.5662,119.507,44.5662,-60.4932,,,monload-611_hotel
79,0.0,2384.88,119.243,0.0,0.0,,,69.6879,119.245,69.6879,-60.7546,,,monload-611_hotel
80,0.0,2384.21,119.18700000000001,0.0,0.0,,,74.5383,119.18700000000001,74.5383,-60.8127,,,monload-611_hotel
81,0.0,2390.6,119.368,0.0,0.0,,,65.6471,119.366,65.6471,-60.6338,,,monload-611_hotel
82,0.0,2397.94,119.564,0.0,0.0,,,64.1288,119.56200000000001,64.1288,-60.4381,,,monload-611_hotel
83,0.0,2405.43,119.78200000000001,0.0,0.0,,,49.1608,119.78,49.1608,-60.2205,,,monload-611_hotel
84,0.0,2408.2,119.868,0.0,0.0,,,50.3138,119.867,50.3138,-60.1334,,,monload-611_hotel
85,0.0,2408.8,119.89200000000001,0.0,0.0,,,52.6817,119.89200000000001,52.6817,-60.1079,,,monload-611_hotel
86,0.0,2407.24,119.815,0.0,0.0,,,55.5108,119.816,55.5108,-60.1843,,,monload-611_hotel
87,0.0,2405.61,119.78299999999999,0.0,0.0,,,56.2408,119.78399999999999,56.2408,-60.2162,,,monload-611_hotel
88,0.0,2401.41,119.654,0.0,0.0,,,56.0908,119.656,56.0908,-60.343999999999994,,,monload-611_hotel
89,0.0,2394.12,119.45200000000001,0.0,0.0,,,58.7104,119.454,58.7104,-60.5458,,,monload-611_hotel
90,0.0,2384.06,119.198,0.0,0.0,,,72.0446,119.20100000000001,72.0446,-60.7988,,,monload-611_hotel
91,0.0,2379.83,119.095,0.0,0.0,,,88.3167,119.095,88.3167,-60.9045,,,monload-611_hotel
92,0.0,2378.71,119.054,0.0,0.0,,,94.8817,119.054,94.8817,-60.9461,,,monload-611_hotel
93,0.0,2377.49,119.01799999999999,0.0,0.0,,,104.95299999999999,119.01799999999999,104.95299999999999,-60.9818,,,monload-611_hotel
94,0.0,2379.57,119.081,0.0,0.0,,,98.8721,119.081,98.8721,-60.9194,,,monload-611_hotel
95,0.0,2387.06,119.31299999999999,0.0,0.0,,,73.2562,119.311,73.2562,-60.6893,,,monload-611_hotel
96,0.0,2392.32,119.48,0.0,0.0,,,51.1483,119.478,51.1483,-60.522,,,monload-611_hotel
97,0.0,2393.83,119.524,0.0,0.0,,,46.4267,119.523,46.4267,-60.4766,,,monload-611_hotel
98,0.0,2394.34,119.541,0.0,0.0,,,44.3242,119.54,44.3242,-60.4595,,,monload-611_hotel
99,0.0,2394.92,119.56,0.0,0.0,,,41.6067,119.56,41.6067,-60.4398,,,monload-611_hotel
100,0.0,2395.05,119.565,0.0,0.0,,,41.2242,119.565,41.2242,-60.4351,,,monload-611_hotel
101,0.0,2394.21,119.53299999999999,0.0,0.0,,,42.1637,119.53399999999999,42.1637,-60.4664,,,monload-611_hotel
102,0.0,2391.82,119.462,0.0,0.0,,,50.4492,119.463,50.4492,-60.5374,,,monload-611_hotel
103,0.0,2383.31,119.161,0.0,0.0,,,81.8408,119.164,81.8408,-60.8363,,,monload-611_hotel
104,0.0,2381.44,119.07,0.0,0.0,,,90.9583,119.07,90.9583,-60.9299,,,monload-611_hotel
105,0.0,2387.08,119.235,0.0,0.0,,,84.7004,119.235,84.7004,-60.7652,,,monload-611_hotel
106,0.0,2391.64,119.36200000000001,0.0,0.0,,,90.4383,119.361,90.4383,-60.6391,,,monload-611_hotel
107,0.0,2397.76,119.575,0.0,0.0,,,78.3313,119.573,78.3313,-60.4272,,,monload-611_hotel
108,0.0,2401.97,119.7,0.0,0.0,,,74.3887,119.699,74.3887,-60.3015,,,monload-611_hotel
109,0.0,2402.68,119.738,0.0,0.0,,,75.2554,119.738,75.2554,-60.2622,,,monload-611_hotel
110,0.0,2401.22,119.686,0.0,0.0,,,77.0025,119.68700000000001,77.0025,-60.313,,,monload-611_hotel
111,0.0,2398.44,119.602,0.0,0.0,,,77.8671,119.603,77.8671,-60.3967,,,monload-611_hotel
112,0.0,2394.65,119.48700000000001,0.0,0.0,,,76.3475,119.48899999999999,76.3475,-60.5113,,,monload-611_hotel
113,0.0,2386.69,119.26299999999999,0.0,0.0,,,79.5,119.266,79.5,-60.7343,,,monload-611_hotel
114,0.0,2378.04,119.04299999999999,0.0,0.0,,,90.2146,119.045,90.2146,-60.9547,,,monload-611_hotel
115,0.0,2375.56,118.98299999999999,0.0,0.0,,,102.868,118.98299999999999,102.868,-61.016999999999996,,,monload-611_hotel
116,0.0,2374.91,118.95299999999999,0.0,0.0,,,108.381,118.95299999999999,108.381,-61.0471,,,monload-611_hotel
117,0.0,2374.01,118.926,0.0,0.0,,,117.37100000000001,118.926,117.37100000000001,-61.0741,,,monload-611_hotel
118,0.0,2376.21,118.98899999999999,0.0,0.0,,,111.735,118.98899999999999,111.735,-61.0111,,,monload-611_hotel
119,0.0,2383.77,119.221,0.0,0.0,,,86.7621,119.21799999999999,86.7621,-60.7815,,,monload-611_hotel
120,0.0,2392.03,119.465,0.0,0.0,,,63.0054,119.465,63.0054,-60.5348,,,monload-611_hotel
121,0.0,2393.91,119.527,0.0,0.0,,,55.1263,119.52600000000001,55.1263,-60.4738,,,monload-611_hotel
122,0.0,2394.5,119.54700000000001,0.0,0.0,,,52.3471,119.54700000000001,52.3471,-60.4534,,,monload-611_hotel
123,0.0,2395.18,119.57,0.0,0.0,,,48.9842,119.57,48.9842,-60.4297,,,monload-611_hotel
124,0.0,2395.47,119.58,0.0,0.0,,,47.6787,119.58,47.6787,-60.4204,,,monload-611_hotel
125,0.0,2394.79,119.54799999999999,0.0,0.0,,,48.5929,119.54799999999999,48.5929,-60.4521,,,monload-611_hotel
126,0.0,2392.84,119.485,0.0,0.0,,,56.9388,119.485,56.9388,-60.5149,,,monload-611_hotel
127,0.0,2384.93,119.20299999999999,0.0,0.0,,,87.9779,119.204,87.9779,-60.7958,,,monload-611_hotel
128,0.0,2382.7,119.113,0.0,0.0,,,97.0242,119.11399999999999,97.0242,-60.8864,,,monload-611_hotel
129,0.0,2385.56,119.204,0.0,0.0,,,93.8425,119.204,93.8425,-60.7964,,,monload-611_hotel
130,0.0,2390.5,119.331,0.0,0.0,,,94.4821,119.33,94.4821,-60.67,,,monload-611_hotel
131,0.0,2397.59,119.54899999999999,0.0,0.0,,,81.6162,119.54799999999999,81.6162,-60.4518,,,monload-611_hotel
132,0.0,2395.55,119.493,0.0,0.0,,,83.1754,119.494,83.1754,-60.5063,,,monload-611_hotel
133,0.0,2396.77,119.53200000000001,0.0,0.0,,,84.6712,119.53200000000001,84.6712,-60.468,,,monload-611_hotel
134,0.0,2396.8,119.527,0.0,0.0,,,85.8842,119.527,85.8842,-60.473,,,monload-611_hotel
135,0.0,2397.11,119.535,0.0,0.0,,,85.2383,119.535,85.2383,-60.4651,,,monload-611_hotel
136,0.0,2394.27,119.46,0.0,0.0,,,82.5404,119.46,82.5404,-60.5397,,,monload-611_hotel
137,0.0,2389.59,119.334,0.0,0.0,,,80.6383,119.335,80.6383,-60.6652,,,monload-611_hotel
138,0.0,2382.39,119.132,0.0,0.0,,,91.3779,119.133,91.3779,-60.8673,,,monload-611_hotel
139,0.0,2379.47,119.056,0.0,0.0,,,106.45200000000001,119.057,106.45200000000001,-60.9434,,,monload-611_hotel
140,0.0,2378.51,119.021,0.0,0.0,,,112.205,119.021,112.205,-60.979,,,monload-611_hotel
141,0.0,2377.34,118.988,0.0,0.0,,,121.81200000000001,118.988,121.81200000000001,-61.0124,,,monload-611_hotel
142,0.0,2380.64,119.09100000000001,0.0,0.0,,,110.04,119.09100000000001,110.04,-60.909,,,monload-611_hotel
143,0.0,2388.72,119.353,0.0,0.0,,,78.9912,119.351,78.9912,-60.6487,,,monload-611_hotel
144,0.0,2394.02,119.531,0.0,0.0,,,53.9267,119.529,53.9267,-60.4707,,,monload-611_hotel
145,0.0,2395.22,119.569,0.0,0.0,,,49.2346,119.569,49.2346,-60.4311,,,monload-611_hotel
146,0.0,2395.41,119.575,0.0,0.0,,,48.3846,119.575,48.3846,-60.4253,,,monload-611_hotel
147,0.0,2396.75,119.62200000000001,0.0,0.0,,,41.5325,119.62100000000001,41.5325,-60.3785,,,monload-611_hotel
148,0.0,2396.9,119.62700000000001,0.0,0.0,,,40.7979,119.62700000000001,40.7979,-60.3729,,,monload-611_hotel
149,0.0,2396.59,119.616,0.0,0.0,,,41.4075,119.616,41.4075,-60.3837,,,monload-611_hotel
150,0.0,2395.8,119.59299999999999,0.0,0.0,,,44.2875,119.59299999999999,44.2875,-60.4065,,,monload-611_hotel
151,0.0,2390.22,119.412,0.0,0.0,,,65.3092,119.413,65.3092,-60.5871,,,monload-611_hotel
152,0.0,2389.29,119.367,0.0,0.0,,,69.3487,119.367,69.3487,-60.633,,,monload-611_hotel
153,0.0,2387.48,119.27600000000001,0.0,0.0,,,97.0133,119.27600000000001,97.0133,-60.7243,,,monload-611_hotel
154,0.0,2389.44,119.32799999999999,0.0,0.0,,,86.5208,119.32799999999999,86.5208,-60.672,,,monload-611_hotel
155,0.0,2402.73,119.719,0.0,0.0,,,67.7721,119.71700000000001,67.7721,-60.283,,,monload-611_hotel
156,0.0,2404.68,119.77600000000001,0.0,0.0,,,66.7608,119.77600000000001,66.7608,-60.2243,,,monload-611_hotel
157,0.0,2402.67,119.727,0.0,0.0,,,68.2204,119.728,68.2204,-60.2725,,,monload-611_hotel
158,0.0,2402.32,119.71799999999999,0.0,0.0,,,67.6625,119.71799999999999,67.6625,-60.282,,,monload-611_hotel
159,0.0,2400.59,119.665,0.0,0.0,,,68.2375,119.665,68.2375,-60.3346,,,monload-611_hotel
160,0.0,2394.77,119.514,0.0,0.0,,,70.3167,119.515,70.3167,-60.4854,,,monload-611_hotel
161,0.0,2391.57,119.431,0.0,0.0,,,70.8979,119.432,70.8979,-60.5684,,,monload-611_hotel
162,0.0,2387.45,119.311,0.0,0.0,,,77.8433,119.31200000000001,77.8433,-60.6882,,,monload-611_hotel
163,0.0,2383.07,119.155,0.0,0.0,,,101.295,119.155,101.295,-60.8452,,,monload-611_hotel
164,0.0,2382.45,119.133,0.0,0.0,,,105.009,119.133,105.009,-60.8671,,,monload-611_hotel
165,0.0,2381.77,119.118,0.0,0.0,,,110.525,119.118,110.525,-60.8819,,,monload-611_hotel
166,0.0,2382.43,119.13600000000001,0.0,0.0,,,108.838,119.13600000000001,108.838,-60.8637,,,monload-611_hotel
167,0.0,2387.26,119.3,0.0,0.0,,,86.9413,119.3,86.9413,-60.7003,,,monload-611_hotel
168,0.0,2393.01,119.495,0.0,0.0,,,59.3587,119.493,59.3587,-60.5065,,,monload-611_hotel
169,0.0,2395.09,119.566,0.0,0.0,,,50.2696,119.566,50.2696,-60.4344,,,monload-611_hotel
170,0.0,2395.36,119.575,0.0,0.0,,,49.055,119.575,49.055,-60.4247,,,monload-611_hotel
171,0.0,2396.72,119.62299999999999,0.0,0.0,,,42.1954,119.62299999999999,42.1954,-60.3771,,,monload-611_hotel
172,0.0,2396.8,119.626,0.0,0.0,,,41.8475,119.626,41.8475,-60.3743,,,monload-611_hotel
173,0.0,2396.38,119.611,0.0,0.0,,,42.9613,119.611,42.9613,-60.3893,,,monload-611_hotel
174,0.0,2395.57,119.587,0.0,0.0,,,45.9196,119.587,45.9196,-60.4132,,,monload-611_hotel
175,0.0,2390.99,119.42399999999999,0.0,0.0,,,66.4571,119.42399999999999,66.4571,-60.5755,,,monload-611_hotel
176,0.0,2390.21,119.397,0.0,0.0,,,71.1221,119.397,71.1221,-60.6033,,,monload-611_hotel
177,0.0,2386.72,119.24600000000001,0.0,0.0,,,105.635,119.24700000000001,105.635,-60.7534,,,monload-611_hotel
178,0.0,2391.79,119.397,0.0,0.0,,,103.148,119.396,103.148,-60.6036,,,monload-611_hotel
179,0.0,2388.47,119.336,0.0,0.0,,,84.5004,119.337,84.5004,-60.6632,,,monload-611_hotel
180,0.0,2389.85,119.37799999999999,0.0,0.0,,,81.26,119.37799999999999,81.26,-60.6218,,,monload-611_hotel
181,0.0,2393.42,119.477,0.0,0.0,,,81.8363,119.476,81.8363,-60.5239,,,monload-611_hotel
182,0.0,2393.87,119.486,0.0,0.0,,,84.8196,119.486,84.8196,-60.5137,,,monload-611_hotel
183,0.0,2391.51,119.42200000000001,0.0,0.0,,,87.6263,119.42200000000001,87.6263,-60.5778,,,monload-611_hotel
184,0.0,2389.61,119.37200000000001,0.0,0.0,,,85.7421,119.37200000000001,85.7421,-60.6275,,,monload-611_hotel
185,0.0,2387.78,119.33,0.0,0.0,,,83.9721,119.33,83.9721,-60.6697,,,monload-611_hotel
186,0.0,2385.14,119.25200000000001,0.0,0.0,,,88.63,119.25200000000001,88.63,-60.7476,,,monload-611_hotel
187,0.0,2381.62,119.12299999999999,0.0,0.0,,,107.90899999999999,119.12299999999999,107.90899999999999,-60.8766,,,monload-611_hotel
188,0.0,2381.87,119.126,0.0,0.0,,,108.495,119.126,108.495,-60.8741,,,monload-611_hotel
189,0.0,2381.58,119.11399999999999,0.0,0.0,,,111.51100000000001,119.11399999999999,111.51100000000001,-60.8861,,,monload-611_hotel
190,0.0,2382.7,119.146,0.0,0.0,,,107.713,119.146,107.713,-60.8537,,,monload-611_hotel
191,0.0,2387.8,119.32,0.0,0.0,,,84.55,119.319,84.55,-60.6808,,,monload-611_hotel
192,0.0,1365.7,119.583,0.0,0.0,,,32.4958,119.583,32.4958,-60.4173,,,monload-611_hotel
193,0.0,1366.86,119.647,0.0,0.0,,,25.9415,119.647,25.9415,-60.3528,,,monload-611_hotel
194,0.0,1367.29,119.67299999999999,0.0,0.0,,,23.3841,119.67299999999999,23.3841,-60.3267,,,monload-611_hotel
195,0.0,1367.68,119.696,0.0,0.0,,,21.1135,119.696,21.1135,-60.3036,,,monload-611_hotel
196,0.0,1367.74,119.70100000000001,0.0,0.0,,,20.6821,119.70100000000001,20.6821,-60.2995,,,monload-611_hotel
197,0.0,1367.49,119.681,0.0,0.0,,,21.256999999999998,119.681,21.256999999999998,-60.3189,,,monload-611_hotel
198,0.0,1366.73,119.641,0.0,0.0,,,25.4321,119.641,25.4321,-60.3589,,,monload-611_hotel
199,0.0,1363.78,119.455,0.0,0.0,,,40.7902,119.455,40.7902,-60.5454,,,monload-611_hotel
200,0.0,1363.02,119.398,0.0,0.0,,,44.5638,119.398,44.5638,-60.6023,,,monload-611_hotel
201,0.0,1365.84,119.529,0.0,0.0,,,40.7587,119.529,40.7587,-60.4714,,,monload-611_hotel
202,0.0,1368.21,119.62299999999999,0.0,0.0,,,43.31399999999999,119.62200000000001,43.31399999999999,-60.3779,,,monload-611_hotel
203,0.0,1366.74,119.575,0.0,0.0,,,38.0676,119.57600000000001,38.0676,-60.4244,,,monload-611_hotel
204,0.0,1369.03,119.67299999999999,0.0,0.0,,,41.898999999999994,119.67299999999999,41.898999999999994,-60.3275,,,monload-611_hotel
205,0.0,1367.24,119.596,0.0,0.0,,,44.9207,119.596,44.9207,-60.4039,,,monload-611_hotel
206,0.0,1364.48,119.473,0.0,0.0,,,46.5946,119.473,46.5946,-60.5274,,,monload-611_hotel
207,0.0,1364.8,119.488,0.0,0.0,,,47.8496,119.488,47.8496,-60.5123,,,monload-611_hotel
208,0.0,1364.89,119.495,0.0,0.0,,,44.9064,119.495,44.9064,-60.5048,,,monload-611_hotel
209,0.0,1363.87,119.454,0.0,0.0,,,44.4308,119.454,44.4308,-60.5459,,,monload-611_hotel
210,0.0,1362.3,119.37,0.0,0.0,,,49.9808,119.369,49.9808,-60.6306,,,monload-611_hotel
211,0.0,1360.85,119.30799999999999,0.0,0.0,,,56.9426,119.307,56.9426,-60.6925,,,monload-611_hotel
212,0.0,1360.5,119.281,0.0,0.0,,,59.2042,119.281,59.2042,-60.7193,,,monload-611_hotel
