hour,t(sec),V1,VAngle1,V2,VAngle2,V3,VAngle3,I1,IAngle1,I2,IAngle2,I3,IAngle3,Name,P1(kW),P2(kW),P3(kW)
1,0.0,0.0,53.4443,,,,,197972.0,60.0,,,,,monisource-isource_newdiesel675_1_shape,0.0,,
2,0.0,0.0,53.4443,,,,,197972.0,60.0,,,,,monisource-isource_newdiesel675_1_shape,0.0,,
3,0.0,0.0,53.4443,,,,,197972.0,60.0,,,,,monisource-isource_newdiesel675_1_shape,0.0,,
4,0.0,0.0,53.4443,,,,,197972.0,60.0,,,,,monisource-isource_newdiesel675_1_shape,0.0,,
5,0.0,0.0,53.4443,,,,,197972.0,60.0,,,,,monisource-isource_newdiesel675_1_shape,0.0,,
6,0.0,0.0,53.4443,,,,,197972.0,60.0,,,,,monisource-isource_newdiesel675_1_shape,0.0,,
7,0.0,0.0,53.4443,,,,,197972.0,60.0,,,,,monisource-isource_newdiesel675_1_shape,0.0,,
8,0.0,0.0,53.4443,,,,,197972.0,60.0,,,,,monisource-isource_newdiesel675_1_shape,0.0,,
9,0.0,0.0,53.4443,,,,,197972.0,60.0,,,,,monisource-isource_newdiesel675_1_shape,0.0,,
10,0.0,0.0,53.4443,,,,,197972.0,60.0,,,,,monisource-isource_newdiesel675_1_shape,0.0,,
11,0.0,0.0,53.4443,,,,,197972.0,60.0,,,,,monisource-isource_newdiesel675_1_shape,0.0,,
12,0.0,0.0,53.4443,,,,,197972.0,60.0,,,,,monisource-isource_newdiesel675_1_shape,0.0,,
13,0.0,0.0,53.4443,,,,,197972.0,60.0,,,,,monisource-isource_newdiesel675_1_shape,0.0,,
14,0.0,0.0,53.4443,,,,,197972.0,60.0,,,,,monisource-isource_newdiesel675_1_shape,0.0,,
15,0.0,0.0,53.4443,,,,,197972.0,60.0,,,,,monisource-isource_newdiesel675_1_shape,0.0,,
16,0.0,0.0,53.4443,,,,,197972.0,60.0,,,,,monisource-isource_newdiesel675_1_shape,0.0,,
17,0.0,0.0,53.4443,,,,,197972.0,60.0,,,,,monisource-isource_newdiesel675_1_shape,0.0,,
18,0.0,0.0,53.4443,,,,,197972.0,60.0,,,,,monisource-isource_newdiesel675_1_shape,0.0,,
19,0.0,0.0,53.4443,,,,,197972.0,60.0,,,,,monisource-isource_newdiesel675_1_shape,0.0,,
20,0.0,0.0,53.4443,,,,,197972.0,60.0,,,,,monisource-isource_newdiesel675_1_shape,0.0,,
21,0.0,0.0,53.4443,,,,,197972.0,60.0,,,,,monisource-isource_newdiesel675_1_shape,0.0,,
22,0.0,0.0,53.4443,,,,,197972.0,60.0,,,,,monisource-isource_newdiesel675_1_shape,0.0,,
23,0.0,0.0,53.4443,,,,,197972.0,60.0,,,,,monisource-isource_newdiesel675_1_shape,0.0,,
24,0.0,0.0,53.4443,,,,,197972.0,60.0,,,,,monisource-isource_newdiesel675_1_shape,0.0,,
25,0.0,0.0,53.4443,,,,,197972.0,60.0,,,,,monisource-isource_newdiesel675_1_shape,0.0,,
26,0.0,0.0,53.4443,,,,,197972.0,60.0,,,,,monisource-isource_newdiesel675_1_shape,0.0,,
27,0.0,0.0,53.4443,,,,,197972.0,60.0,,,,,monisource-isource_newdiesel675_1_shape,0.0,,
28,0.0,0.0,53.4443,,,,,197972.0,60.0,,,,,monisource-isource_newdiesel675_1_shape,0.0,,
29,0.0,0.0,53.4443,,,,,197972.0,60.0,,,,,monisource-isource_newdiesel675_1_shape,0.0,,
30,0.0,0.0,53.4443,,,,,197972.0,60.0,,,,,monisource-isource_newdiesel675_1_shape,0.0,,
31,0.0,2867320.0,-149.222,,,,,197972.0,60.0,,,,,monisource-isource_newdiesel675_1_shape,567649075.04,,
32,0.0,2867320.0,-149.222,,,,,197972.0,60.0,,,,,monisource-isource_newdiesel675_1_shape,567649075.04,,
33,0.0,2867320.0,-149.222,,,,,197972.0,60.0,,,,,monisource-isource_newdiesel675_1_shape,567649075.04,,
34,0.0,2867320.0,-149.222,,,,,197972.0,60.0,,,,,monisource-isource_newdiesel675_1_shape,567649075.04,,
35,0.0,2867320.0,-149.222,,,,,197972.0,60.0,,,,,monisource-isource_newdiesel675_1_shape,567649075.04,,
36,0.0,2867320.0,-149.222,,,,,197972.0,60.0,,,,,monisource-isource_newdiesel675_1_shape,567649075.04,,
37,0.0,2123160.0,-140.554,,,,,197972.0,60.0,,,,,monisource-isource_newdiesel675_1_shape,420326231.52,,
38,0.0,2383750.0,-143.077,,,,,197972.0,60.0,,,,,monisource-isource_newdiesel675_1_shape,471915755.0,,
39,0.0,2391700.0,-143.153,,,,,197972.0,60.0,,,,,monisource-isource_newdiesel675_1_shape,473489632.4,,
40,0.0,2391700.0,-143.153,,,,,197972.0,60.0,,,,,monisource-isource_newdiesel675_1_shape,473489632.4,,
41,0.0,2295080.0,-142.164,,,,,197972.0,60.0,,,,,monisource-isource_newdiesel675_1_shape,454361577.76,,
42,0.0,2295080.0,-142.164,,,,,197972.0,60.0,,,,,monisource-isource_newdiesel675_1_shape,454361577.76,,
43,0.0,2295080.0,-142.164,,,,,197972.0,60.0,,,,,monisource-isource_newdiesel675_1_shape,454361577.76,,
44,0.0,2295080.0,-142.164,,,,,197972.0,60.0,,,,,monisource-isource_newdiesel675_1_shape,454361577.76,,
45,0.0,2295080.0,-142.164,,,,,197972.0,60.0,,,,,monisource-isource_newdiesel675_1_shape,454361577.76,,
46,0.0,3079310.0,-151.804,,,,,197972.0,60.0,,,,,monisource-isource_newdiesel675_1_shape,609617159.32,,
47,0.0,3079310.0,-151.804,,,,,197972.0,60.0,,,,,monisource-isource_newdiesel675_1_shape,609617159.32,,
48,0.0,3079310.0,-151.804,,,,,197972.0,60.0,,,,,monisource-isource_newdiesel675_1_shape,609617159.32,,
49,0.0,3079310.0,-151.804,,,,,197972.0,60.0,,,,,monisource-isource_newdiesel675_1_shape,609617159.32,,
50,0.0,3079310.0,-151.804,,,,,197972.0,60.0,,,,,monisource-isource_newdiesel675_1_shape,609617159.32,,
51,0.0,3079310.0,-151.804,,,,,197972.0,60.0,,,,,monisource-isource_newdiesel675_1_shape,609617159.32,,
52,0.0,3079310.0,-151.804,,,,,197972.0,60.0,,,,,monisource-isource_newdiesel675_1_shape,609617159.32,,
53,0.0,3079310.0,-151.804,,,,,197972.0,60.0,,,,,monisource-isource_newdiesel675_1_shape,609617159.32,,
54,0.0,3079310.0,-151.804,,,,,197972.0,60.0,,,,,monisource-isource_newdiesel675_1_shape,609617159.32,,
55,0.0,2858340.0,-149.121,,,,,197972.0,60.0,,,,,monisource-isource_newdiesel675_1_shape,565871286.48,,
56,0.0,2858340.0,-149.121,,,,,197972.0,60.0,,,,,monisource-isource_newdiesel675_1_shape,565871286.48,,
57,0.0,2858340.0,-149.121,,,,,197972.0,60.0,,,,,monisource-isource_newdiesel675_1_shape,565871286.48,,
58,0.0,2363390.0,-142.863,,,,,197972.0,60.0,,,,,monisource-isource_newdiesel675_1_shape,467885045.08,,
59,0.0,2363390.0,-142.863,,,,,197972.0,60.0,,,,,monisource-isource_newdiesel675_1_shape,467885045.08,,
60,0.0,2394310.0,-143.185,,,,,197972.0,60.0,,,,,monisource-isource_newdiesel675_1_shape,474006339.32,,
61,0.0,2458900.0,-144.014,,,,,197972.0,60.0,,,,,monisource-isource_newdiesel675_1_shape,486793350.8,,
62,0.0,2458900.0,-144.014,,,,,197972.0,60.0,,,,,monisource-isource_newdiesel675_1_shape,486793350.8,,
63,0.0,2458900.0,-144.014,,,,,197972.0,60.0,,,,,monisource-isource_newdiesel675_1_shape,486793350.8,,
64,0.0,2458900.0,-144.014,,,,,197972.0,60.0,,,,,monisource-isource_newdiesel675_1_shape,486793350.8,,
65,0.0,2272410.0,-141.933,,,,,197972.0,60.0,,,,,monisource-isource_newdiesel675_1_shape,449873552.52,,
66,0.0,2272410.0,-141.933,,,,,197972.0,60.0,,,,,monisource-isource_newdiesel675_1_shape,449873552.52,,
67,0.0,2272410.0,-141.933,,,,,197972.0,60.0,,,,,monisource-isource_newdiesel675_1_shape,449873552.52,,
68,0.0,2272410.0,-141.933,,,,,197972.0,60.0,,,,,monisource-isource_newdiesel675_1_shape,449873552.52,,
69,0.0,3008660.0,-150.996,,,,,197972.0,60.0,,,,,monisource-isource_newdiesel675_1_shape,595630437.52,,
70,0.0,3008660.0,-150.996,,,,,197972.0,60.0,,,,,monisource-isource_newdiesel675_1_shape,595630437.52,,
71,0.0,3008660.0,-150.996,,,,,197972.0,60.0,,,,,monisource-isource_newdiesel675_1_shape,595630437.52,,
72,0.0,3008660.0,-150.996,,,,,197972.0,60.0,,,,,monisource-isource_newdiesel675_1_shape,595630437.52,,
73,0.0,3008660.0,-150.996,,,,,197972.0,60.0,,,,,monisource-isource_newdiesel675_1_shape,595630437.52,,
74,0.0,3008660.0,-150.996,,,,,197972.0,60.0,,,,,monisource-isource_newdiesel675_1_shape,595630437.52,,
75,0.0,3008660.0,-150.996,,,,,197972.0,60.0,,,,,monisource-isource_newdiesel675_1_shape,595630437.52,,
76,0.0,3008660.0,-150.996,,,,,197972.0,60.0,,,,,monisource-isource_newdiesel675_1_shape,595630437.52,,
77,0.0,3008660.0,-150.996,,,,,197972.0,60.0,,,,,monisource-isource_newdiesel675_1_shape,595630437.52,,
78,0.0,3008660.0,-150.996,,,,,197972.0,60.0,,,,,monisource-isource_newdiesel675_1_shape,595630437.52,,
79,0.0,2739300.0,-147.797,,,,,197972.0,60.0,,,,,monisource-isource_newdiesel675_1_shape,542304699.6,,
80,0.0,2739300.0,-147.797,,,,,197972.0,60.0,,,,,monisource-isource_newdiesel675_1_shape,542304699.6,,
81,0.0,2739300.0,-147.797,,,,,197972.0,60.0,,,,,monisource-isource_newdiesel675_1_shape,542304699.6,,
82,0.0,2739300.0,-147.797,,,,,197972.0,60.0,,,,,monisource-isource_newdiesel675_1_shape,542304699.6,,
83,0.0,2035640.0,-139.526,,,,,197972.0,60.0,,,,,monisource-isource_newdiesel675_1_shape,402999722.08,,
84,0.0,2035640.0,-139.526,,,,,197972.0,60.0,,,,,monisource-isource_newdiesel675_1_shape,402999722.08,,
85,0.0,2035640.0,-139.526,,,,,197972.0,60.0,,,,,monisource-isource_newdiesel675_1_shape,402999722.08,,
86,0.0,2035640.0,-139.526,,,,,197972.0,60.0,,,,,monisource-isource_newdiesel675_1_shape,402999722.08,,
87,0.0,2035640.0,-139.526,,,,,197972.0,60.0,,,,,monisource-isource_newdiesel675_1_shape,402999722.08,,
88,0.0,2035640.0,-139.526,,,,,197972.0,60.0,,,,,monisource-isource_newdiesel675_1_shape,402999722.08,,
89,0.0,2035640.0,-139.526,,,,,197972.0,60.0,,,,,monisource-isource_newdiesel675_1_shape,402999722.08,,
90,0.0,2612290.0,-146.436,,,,,197972.0,60.0,,,,,monisource-isource_newdiesel675_1_shape,517160275.88,,
91,0.0,2612290.0,-146.436,,,,,197972.0,60.0,,,,,monisource-isource_newdiesel675_1_shape,517160275.88,,
92,0.0,2612290.0,-146.436,,,,,197972.0,60.0,,,,,monisource-isource_newdiesel675_1_shape,517160275.88,,
93,0.0,2612290.0,-146.436,,,,,197972.0,60.0,,,,,monisource-isource_newdiesel675_1_shape,517160275.88,,
94,0.0,3056540.0,-151.606,,,,,197972.0,60.0,,,,,monisource-isource_newdiesel675_1_shape,605109336.88,,
95,0.0,3056540.0,-151.606,,,,,197972.0,60.0,,,,,monisource-isource_newdiesel675_1_shape,605109336.88,,
96,0.0,3056540.0,-151.606,,,,,197972.0,60.0,,,,,monisource-isource_newdiesel675_1_shape,605109336.88,,
97,0.0,3056540.0,-151.606,,,,,197972.0,60.0,,,,,monisource-isource_newdiesel675_1_shape,605109336.88,,
98,0.0,3056540.0,-151.606,,,,,197972.0,60.0,,,,,monisource-isource_newdiesel675_1_shape,605109336.88,,
99,0.0,3056540.0,-151.606,,,,,197972.0,60.0,,,,,monisource-isource_newdiesel675_1_shape,605109336.88,,
100,0.0,3056540.0,-151.606,,,,,197972.0,60.0,,,,,monisource-isource_newdiesel675_1_shape,605109336.88,,
101,0.0,3056540.0,-151.606,,,,,197972.0,60.0,,,,,monisource-isource_newdiesel675_1_shape,605109336.88,,
102,0.0,3056540.0,-151.606,,,,,197972.0,60.0,,,,,monisource-isource_newdiesel675_1_shape,605109336.88,,
103,0.0,2669730.0,-147.031,,,,,197972.0,60.0,,,,,monisource-isource_newdiesel675_1_shape,528531787.56,,
104,0.0,2669730.0,-147.031,,,,,197972.0,60.0,,,,,monisource-isource_newdiesel675_1_shape,528531787.56,,
105,0.0,2669730.0,-147.031,,,,,197972.0,60.0,,,,,monisource-isource_newdiesel675_1_shape,528531787.56,,
106,0.0,2669730.0,-147.031,,,,,197972.0,60.0,,,,,monisource-isource_newdiesel675_1_shape,528531787.56,,
107,0.0,1946310.0,-138.633,,,,,197972.0,60.0,,,,,monisource-isource_newdiesel675_1_shape,385314883.32,,
108,0.0,1946310.0,-138.633,,,,,197972.0,60.0,,,,,monisource-isource_newdiesel675_1_shape,385314883.32,,
109,0.0,1946310.0,-138.633,,,,,197972.0,60.0,,,,,monisource-isource_newdiesel675_1_shape,385314883.32,,
110,0.0,1946310.0,-138.633,,,,,197972.0,60.0,,,,,monisource-isource_newdiesel675_1_shape,385314883.32,,
111,0.0,1946310.0,-138.633,,,,,197972.0,60.0,,,,,monisource-isource_newdiesel675_1_shape,385314883.32,,
112,0.0,1946310.0,-138.633,,,,,197972.0,60.0,,,,,monisource-isource_newdiesel675_1_shape,385314883.32,,
113,0.0,1946310.0,-138.633,,,,,197972.0,60.0,,,,,monisource-isource_newdiesel675_1_shape,385314883.32,,
114,0.0,2607410.0,-146.383,,,,,197972.0,60.0,,,,,monisource-isource_newdiesel675_1_shape,516194172.52,,
115,0.0,2607410.0,-146.383,,,,,197972.0,60.0,,,,,monisource-isource_newdiesel675_1_shape,516194172.52,,
116,0.0,2607410.0,-146.383,,,,,197972.0,60.0,,,,,monisource-isource_newdiesel675_1_shape,516194172.52,,
117,0.0,2904560.0,-149.866,,,,,197972.0,60.0,,,,,monisource-isource_newdiesel675_1_shape,575021552.32,,
118,0.0,2904560.0,-149.866,,,,,197972.0,60.0,,,,,monisource-isource_newdiesel675_1_shape,575021552.32,,
119,0.0,2904560.0,-149.866,,,,,197972.0,60.0,,,,,monisource-isource_newdiesel675_1_shape,575021552.32,,
120,0.0,2904560.0,-149.866,,,,,197972.0,60.0,,,,,monisource-isource_newdiesel675_1_shape,575021552.32,,
121,0.0,2904560.0,-149.866,,,,,0.0,0.0,,,,,monisource-isource_newdiesel675_1_shape,0.0,,
122,0.0,2904560.0,-149.866,,,,,0.0,0.0,,,,,monisource-isource_newdiesel675_1_shape,0.0,,
123,0.0,2904560.0,-149.866,,,,,0.0,0.0,,,,,monisource-isource_newdiesel675_1_shape,0.0,,
124,0.0,2904560.0,-149.866,,,,,0.0,0.0,,,,,monisource-isource_newdiesel675_1_shape,0.0,,
125,0.0,2904560.0,-149.866,,,,,0.0,0.0,,,,,monisource-isource_newdiesel675_1_shape,0.0,,
126,0.0,2904560.0,-149.866,,,,,0.0,0.0,,,,,monisource-isource_newdiesel675_1_shape,0.0,,
127,0.0,2256.12,-6.8335,,,,,0.0,0.0,,,,,monisource-isource_newdiesel675_1_shape,0.0,,
128,0.0,2237.97,-7.3191,,,,,0.0,0.0,,,,,monisource-isource_newdiesel675_1_shape,0.0,,
129,0.0,2225.08,-8.47812,,,,,0.0,0.0,,,,,monisource-isource_newdiesel675_1_shape,0.0,,
130,0.0,2225.08,-8.47812,,,,,0.0,0.0,,,,,monisource-isource_newdiesel675_1_shape,0.0,,
131,0.0,2227.95,-10.3096,,,,,0.0,0.0,,,,,monisource-isource_newdiesel675_1_shape,0.0,,
132,0.0,2227.95,-10.3096,,,,,0.0,0.0,,,,,monisource-isource_newdiesel675_1_shape,0.0,,
133,0.0,2230.52,-10.2809,,,,,0.0,0.0,,,,,monisource-isource_newdiesel675_1_shape,0.0,,
134,0.0,2222.4,-10.5409,,,,,0.0,0.0,,,,,monisource-isource_newdiesel675_1_shape,0.0,,
135,0.0,2223.06,-10.5364,,,,,0.0,0.0,,,,,monisource-isource_newdiesel675_1_shape,0.0,,
136,0.0,2223.06,-10.5364,,,,,0.0,0.0,,,,,monisource-isource_newdiesel675_1_shape,0.0,,
137,0.0,2223.06,-10.5364,,,,,0.0,0.0,,,,,monisource-isource_newdiesel675_1_shape,0.0,,
138,0.0,2224.05,-8.13254,,,,,0.0,0.0,,,,,monisource-isource_newdiesel675_1_shape,0.0,,
139,0.0,2268.29,-6.8704,,,,,0.0,0.0,,,,,monisource-isource_newdiesel675_1_shape,0.0,,
140,0.0,2256.37,-7.14057,,,,,0.0,0.0,,,,,monisource-isource_newdiesel675_1_shape,0.0,,
141,0.0,2256.37,-7.14057,,,,,0.0,0.0,,,,,monisource-isource_newdiesel675_1_shape,0.0,,
142,0.0,2256.37,-7.14057,,,,,0.0,0.0,,,,,monisource-isource_newdiesel675_1_shape,0.0,,
143,0.0,2256.37,-7.14057,,,,,0.0,0.0,,,,,monisource-isource_newdiesel675_1_shape,0.0,,
144,0.0,2256.37,-7.14057,,,,,0.0,0.0,,,,,monisource-isource_newdiesel675_1_shape,0.0,,
145,0.0,2256.37,-7.14057,,,,,0.0,0.0,,,,,monisource-isource_newdiesel675_1_shape,0.0,,
146,0.0,2256.37,-7.14057,,,,,0.0,0.0,,,,,monisource-isource_newdiesel675_1_shape,0.0,,
147,0.0,2256.37,-7.14057,,,,,0.0,0.0,,,,,monisource-isource_newdiesel675_1_shape,0.0,,
148,0.0,2256.37,-7.14057,,,,,0.0,0.0,,,,,monisource-isource_newdiesel675_1_shape,0.0,,
149,0.0,2256.37,-7.14057,,,,,0.0,0.0,,,,,monisource-isource_newdiesel675_1_shape,0.0,,
150,0.0,2256.37,-7.14057,,,,,0.0,0.0,,,,,monisource-isource_newdiesel675_1_shape,0.0,,
151,0.0,2256.37,-7.14057,,,,,0.0,0.0,,,,,monisource-isource_newdiesel675_1_shape,0.0,,
152,0.0,2256.37,-7.14057,,,,,0.0,0.0,,,,,monisource-isource_newdiesel675_1_shape,0.0,,
153,0.0,2256.37,-7.14057,,,,,0.0,0.0,,,,,monisource-isource_newdiesel675_1_shape,0.0,,
154,0.0,2256.37,-7.14057,,,,,0.0,0.0,,,,,monisource-isource_newdiesel675_1_shape,0.0,,
155,0.0,2275.44,-9.07492,,,,,0.0,0.0,,,,,monisource-isource_newdiesel675_1_shape,0.0,,
156,0.0,2272.74,-9.10532,,,,,0.0,0.0,,,,,monisource-isource_newdiesel675_1_shape,0.0,,
157,0.0,2311.57,-8.16755,,,,,0.0,0.0,,,,,monisource-isource_newdiesel675_1_shape,0.0,,
158,0.0,2311.57,-8.16755,,,,,0.0,0.0,,,,,monisource-isource_newdiesel675_1_shape,0.0,,
159,0.0,2311.57,-8.16755,,,,,0.0,0.0,,,,,monisource-isource_newdiesel675_1_shape,0.0,,
160,0.0,2311.57,-8.16755,,,,,0.0,0.0,,,,,monisource-isource_newdiesel675_1_shape,0.0,,
161,0.0,2311.57,-8.16755,,,,,0.0,0.0,,,,,monisource-isource_newdiesel675_1_shape,0.0,,
162,0.0,2311.57,-8.16755,,,,,0.0,0.0,,,,,monisource-isource_newdiesel675_1_shape,0.0,,
163,0.0,2311.57,-8.16755,,,,,0.0,0.0,,,,,monisource-isource_newdiesel675_1_shape,0.0,,
164,0.0,2311.57,-8.16755,,,,,0.0,0.0,,,,,monisource-isource_newdiesel675_1_shape,0.0,,
165,0.0,2311.57,-8.16755,,,,,0.0,0.0,,,,,monisource-isource_newdiesel675_1_shape,0.0,,
166,0.0,2311.57,-8.16755,,,,,0.0,0.0,,,,,monisource-isource_newdiesel675_1_shape,0.0,,
167,0.0,2311.57,-8.16755,,,,,0.0,0.0,,,,,monisource-isource_newdiesel675_1_shape,0.0,,
168,0.0,2311.57,-8.16755,,,,,0.0,0.0,,,,,monisource-isource_newdiesel675_1_shape,0.0,,
169,0.0,2311.57,-8.16755,,,,,0.0,0.0,,,,,monisource-isource_newdiesel675_1_shape,0.0,,
170,0.0,2311.57,-8.16755,,,,,0.0,0.0,,,,,monisource-isource_newdiesel675_1_shape,0.0,,
171,0.0,2311.57,-8.16755,,,,,0.0,0.0,,,,,monisource-isource_newdiesel675_1_shape,0.0,,
172,0.0,2311.57,-8.16755,,,,,0.0,0.0,,,,,monisource-isource_newdiesel675_1_shape,0.0,,
173,0.0,2311.57,-8.16755,,,,,0.0,0.0,,,,,monisource-isource_newdiesel675_1_shape,0.0,,
174,0.0,2311.57,-8.16755,,,,,0.0,0.0,,,,,monisource-isource_newdiesel675_1_shape,0.0,,
175,0.0,2311.57,-8.16755,,,,,0.0,0.0,,,,,monisource-isource_newdiesel675_1_shape,0.0,,
176,0.0,2311.57,-8.16755,,,,,0.0,0.0,,,,,monisource-isource_newdiesel675_1_shape,0.0,,
177,0.0,2330.33,-6.18709,,,,,0.0,0.0,,,,,monisource-isource_newdiesel675_1_shape,0.0,,
178,0.0,2326.21,-6.95803,,,,,0.0,0.0,,,,,monisource-isource_newdiesel675_1_shape,0.0,,
179,0.0,2326.21,-6.95803,,,,,0.0,0.0,,,,,monisource-isource_newdiesel675_1_shape,0.0,,
180,0.0,2326.21,-6.95803,,,,,0.0,0.0,,,,,monisource-isource_newdiesel675_1_shape,0.0,,
181,0.0,2326.21,-6.95803,,,,,0.0,0.0,,,,,monisource-isource_newdiesel675_1_shape,0.0,,
182,0.0,2326.21,-6.95803,,,,,0.0,0.0,,,,,monisource-isource_newdiesel675_1_shape,0.0,,
183,0.0,2326.21,-6.95803,,,,,0.0,0.0,,,,,monisource-isource_newdiesel675_1_shape,0.0,,
184,0.0,2326.21,-6.95803,,,,,0.0,0.0,,,,,monisource-isource_newdiesel675_1_shape,0.0,,
185,0.0,2326.21,-6.95803,,,,,0.0,0.0,,,,,monisource-isource_newdiesel675_1_shape,0.0,,
186,0.0,2326.21,-6.95803,,,,,0.0,0.0,,,,,monisource-isource_newdiesel675_1_shape,0.0,,
187,0.0,2326.21,-6.95803,,,,,0.0,0.0,,,,,monisource-isource_newdiesel675_1_shape,0.0,,
188,0.0,2326.21,-6.95803,,,,,0.0,0.0,,,,,monisource-isource_newdiesel675_1_shape,0.0,,
189,0.0,2326.21,-6.95803,,,,,0.0,0.0,,,,,monisource-isource_newdiesel675_1_shape,0.0,,
190,0.0,2326.21,-6.95803,,,,,0.0,0.0,,,,,monisource-isource_newdiesel675_1_shape,0.0,,
191,0.0,2326.21,-6.95803,,,,,0.0,0.0,,,,,monisource-isource_newdiesel675_1_shape,0.0,,
192,0.0,2326.21,-6.95803,,,,,0.0,0.0,,,,,monisource-isource_newdiesel675_1_shape,0.0,,
193,0.0,2326.21,-6.95803,,,,,0.0,0.0,,,,,monisource-isource_newdiesel675_1_shape,0.0,,
194,0.0,2326.21,-6.95803,,,,,0.0,0.0,,,,,monisource-isource_newdiesel675_1_shape,0.0,,
195,0.0,2326.21,-6.95803,,,,,0.0,0.0,,,,,monisource-isource_newdiesel675_1_shape,0.0,,
196,0.0,2326.21,-6.95803,,,,,0.0,0.0,,,,,monisource-isource_newdiesel675_1_shape,0.0,,
197,0.0,2326.21,-6.95803,,,,,0.0,0.0,,,,,monisource-isource_newdiesel675_1_shape,0.0,,
198,0.0,2326.21,-6.95803,,,,,0.0,0.0,,,,,monisource-isource_newdiesel675_1_shape,0.0,,
199,0.0,2263.31,-6.65364,,,,,0.0,0.0,,,,,monisource-isource_newdiesel675_1_shape,0.0,,
200,0.0,2247.53,-7.0869,,,,,0.0,0.0,,,,,monisource-isource_newdiesel675_1_shape,0.0,,
201,0.0,2212.06,-8.46173,,,,,0.0,0.0,,,,,monisource-isource_newdiesel675_1_shape,0.0,,
202,0.0,2223.69,-9.0383,,,,,0.0,0.0,,,,,monisource-isource_newdiesel675_1_shape,0.0,,
203,0.0,2211.18,-8.62868,,,,,0.0,0.0,,,,,monisource-isource_newdiesel675_1_shape,0.0,,
204,0.0,2211.18,-8.62868,,,,,0.0,0.0,,,,,monisource-isource_newdiesel675_1_shape,0.0,,
205,0.0,2211.18,-8.62868,,,,,0.0,0.0,,,,,monisource-isource_newdiesel675_1_shape,0.0,,
206,0.0,2207.34,-8.87168,,,,,0.0,0.0,,,,,monisource-isource_newdiesel675_1_shape,0.0,,
207,0.0,2207.09,-9.0528,,,,,0.0,0.0,,,,,monisource-isource_newdiesel675_1_shape,0.0,,
208,0.0,2204.81,-8.9773,,,,,0.0,0.0,,,,,monisource-isource_newdiesel675_1_shape,0.0,,
209,0.0,2213.02,-8.50362,,,,,0.0,0.0,,,,,monisource-isource_newdiesel675_1_shape,0.0,,
210,0.0,2229.64,-7.98838,,,,,0.0,0.0,,,,,monisource-isource_newdiesel675_1_shape,0.0,,
211,0.0,2271.08,-6.80234,,,,,0.0,0.0,,,,,monisource-isource_newdiesel675_1_shape,0.0,,
212,0.0,2258.48,-7.08652,,,,,0.0,0.0,,,,,monisource-isource_newdiesel675_1_shape,0.0,,
