hour,t(sec),V1,VAngle1,V2,VAngle2,V3,VAngle3,I1,IAngle1,I2,IAngle2,I3,IAngle3,Name,P1(kW),P2(kW),P3(kW)
1,0.0,2401.78,-0.000275334,2401.78,-120,2401.78,120,115.74700000000001,175.726,54.45,64.7307,81.645,-52.7017,monvsource-secondsource,277.99882966000007,130.77692100000002,196.0933281
2,0.0,2401.78,-0.000276878,2401.78,-120,2401.78,120,116.39,175.765,54.505,64.6258,81.3913,-52.6573,monvsource-secondsource,279.5431742,130.9090189,195.48399651400004
3,0.0,2401.78,-0.000279503,2401.78,-120,2401.78,120,117.485,175.824,54.9089,64.4049,79.2698,-52.326,monvsource-secondsource,282.17312330000004,131.87909784200002,190.388620244
4,0.0,2401.78,-0.000280153,2401.78,-120,2401.78,120,117.756,175.83700000000002,55.0123,64.3495,78.8102,-52.2502,monvsource-secondsource,282.82400568,132.12744189400001,189.284762156
5,0.0,2401.78,-0.000295119,2401.78,-120,2401.78,120,124.045,175.84099999999998,58.2277,63.7231,83.2718,-52.8075,monvsource-secondsource,297.92880010000005,139.850125306,200.00054380400002
6,0.0,2401.78,-0.000298786,2401.78,-120,2401.78,120,125.6,175.75599999999997,59.7027,63.7128,89.0,-53.606,monvsource-secondsource,301.66356800000005,143.39275080600004,213.75842
7,0.0,2401.78,-0.00034521300000000003,2401.78,-120,2401.78,120,145.136,175.648,69.9489,62.2392,109.536,-55.3656,monvsource-secondsource,348.58474208,168.001869042,263.08137408000005
8,0.0,2401.78,-0.000335694,2401.78,-120,2401.78,120,141.03799999999998,176.195,64.1616,62.6198,103.678,-55.2943,monvsource-secondsource,338.74224763999996,154.10204764800002,249.01174684
9,0.0,2401.78,-0.00035052300000000005,2401.78,-120,2401.78,120,147.255,176.273,63.7177,62.7503,110.29899999999999,-55.5048,monvsource-secondsource,353.6741139,153.035897506,264.91393222
10,0.0,2401.78,-0.000318162,2401.78,-120,2401.78,120,133.615,176.588,51.4743,65.5094,92.2183,-53.4134,monvsource-secondsource,320.91383470000005,123.62994425400002,221.488068574
11,0.0,2401.78,-0.000310744,2401.78,-120,2401.78,120,130.46200000000002,176.88099999999997,47.4596,65.8155,76.2426,-50.8064,monvsource-secondsource,313.34102236000007,113.98751808800002,183.11795182800003
12,0.0,2401.78,-0.000217725,2401.78,-120,2401.78,120,91.3243,178.136,13.5012,116.686,39.1685,-33.44,monvsource-secondsource,219.340877254,32.426912136000006,94.07411993000001
13,0.0,2401.78,-0.00033267199999999995,2401.78,-120,2401.78,120,139.689,176.72400000000002,56.0714,62.9554,81.5884,-51.9525,monvsource-secondsource,335.50224642000006,134.67116709200002,195.95738735199998
14,0.0,2401.78,-0.00028450299999999997,2401.78,-120,2401.78,120,119.414,177.17700000000002,37.003,69.6359,63.2896,-47.2888,monvsource-secondsource,286.80615692000003,88.87306534,152.00769548800002
15,0.0,2401.78,-0.000245418,2401.78,-120,2401.78,120,102.969,177.67700000000002,21.8282,84.3974,48.5248,-40.7062,monvsource-secondsource,247.30888482,52.426534196,116.545894144
16,0.0,2401.78,-0.00023747200000000002,2401.78,-120,2401.78,120,99.6282,177.78599999999997,19.0577,90.5996,46.3856,-39.2937,monvsource-secondsource,239.28501819600004,45.77240270600001,111.408006368
17,0.0,2401.78,-0.00029957,2401.78,-120,2401.78,120,125.772,176.87400000000002,44.475,67.1099,77.1866,-50.8716,monvsource-secondsource,302.07667416000004,106.81916550000001,185.385232148
18,0.0,2401.78,-0.000353831,2401.78,-120,2401.78,120,148.718,175.86,71.4114,61.7289,115.295,-56.0647,monvsource-secondsource,357.18791804,171.51447229200002,276.91322510000003
19,0.0,2401.78,-0.000356031,2401.78,-120,2401.78,120,149.76,175.283,76.2734,61.7804,133.388,-57.1339,monvsource-secondsource,359.69057280000004,183.191926652,320.36863064000005
20,0.0,2401.78,-0.000350565,2401.78,-120,2401.78,120,147.465,175.26,74.736,62.0951,133.39700000000002,-57.1392,monvsource-secondsource,354.17848770000006,179.49943008000002,320.39024666000006
21,0.0,2401.78,-0.000333687,2401.78,-120,2401.78,120,140.38299999999998,175.176,71.3303,62.7244,132.263,-57.1621,monvsource-secondsource,337.16908173999997,171.319687934,317.66662814000006
22,0.0,2401.78,-0.000322227,2401.78,-120,2401.78,120,135.549,175.24099999999999,67.6239,63.2312,124.70700000000001,-56.6908,monvsource-secondsource,325.55887722,162.41773054200004,299.5187784600001
23,0.0,2401.78,-0.000292558,2401.78,-120,2401.78,120,123.04799999999999,175.364,59.4564,64.6467,105.67399999999999,-55.313,monvsource-secondsource,295.53422544,142.80119239200002,253.80569972
24,0.0,2401.78,-0.000291976,2401.78,-120,2401.78,120,122.764,175.597,59.2183,63.784,90.8026,-53.7648,monvsource-secondsource,294.85211992,142.22932857400002,218.08786862800002
25,0.0,2401.78,-0.00028607700000000003,2401.78,-120,2401.78,120,120.26700000000001,175.701,57.3983,64.3378,84.1892,-53.1002,monvsource-secondsource,288.8548752600001,137.85808897400003,202.203936776
26,0.0,2401.78,-0.000284793,2401.78,-120,2401.78,120,119.728,175.69299999999998,56.9232,64.4982,83.38,-52.9563,monvsource-secondsource,287.56031584,136.717003296,200.26041640000003
27,0.0,2401.78,-0.000284022,2401.78,-120,2401.78,120,119.405,175.69,56.7661,64.542,82.7673,-52.8659,monvsource-secondsource,286.7845409,136.339683658,198.78884579400003
28,0.0,2401.78,-0.000283235,2401.78,-120,2401.78,120,119.079,175.66099999999997,56.6877,64.5847,82.98899999999999,-52.8715,monvsource-secondsource,286.00156062,136.15138410600002,199.32132042
29,0.0,2401.78,-0.000336351,2401.78,-120,2401.78,120,141.387,175.774,66.4658,62.8518,94.5439,-53.8582,monvsource-secondsource,339.58046886,159.636229124,227.073648142
30,0.0,2401.78,-0.000348057,2401.78,-120,2401.78,120,146.326,175.678,70.9291,63.0538,104.861,-55.3054,monvsource-secondsource,351.44286028000005,170.35609379800002,251.85305258000002
31,0.0,2401.78,-0.00046559199999999997,2401.78,-120,2401.78,120,195.734,175.685,110.62200000000001,63.4046,152.834,-61.1266,monvsource-secondsource,470.11000652000007,265.68970716000007,367.07364452
32,0.0,2401.78,-0.000519398,2401.78,-120,2401.78,120,218.394,175.544,116.584,61.8221,158.97299999999998,-59.8413,monvsource-secondsource,524.53434132,280.00911952,381.81817193999996
33,0.0,2401.78,-0.0005033209999999999,2401.78,-120,2401.78,120,211.11,178.10299999999998,118.376,63.2012,150.941,-59.4113,monvsource-secondsource,507.0397758000001,284.31310928000005,362.52707498
34,0.0,2401.78,-0.000484545,2401.78,-120,2401.78,120,203.237,178.09,103.67299999999999,63.9598,133.588,-56.7268,monvsource-secondsource,488.13056186,248.99973794,320.84898664
35,0.0,2401.78,-0.00045907,2401.78,-120,2401.78,120,192.515,178.454,90.5404,65.6245,113.961,-54.7466,monvsource-secondsource,462.3786767,217.45812191200002,273.70925058
36,0.0,2401.78,-0.0005766619999999999,2401.78,-120,2401.78,120,241.97,177.493,136.516,60.2095,158.393,-58.4382,monvsource-secondsource,581.1587066000001,327.88139848000003,380.4251395400001
37,0.0,2401.78,-0.000343854,2401.78,-120,2401.78,120,144.149,-179.805,44.313,83.3352,68.4122,-46.6536,monvsource-secondsource,346.21418522000005,106.43007714000001,164.31105371600003
38,0.0,2401.78,-0.000501118,2401.78,-120,2401.78,120,210.18200000000002,178.139,103.803,63.4959,125.72200000000001,-55.7974,monvsource-secondsource,504.8109239600001,249.31196934000002,301.95658516000003
39,0.0,2401.78,-0.000291272,2401.78,-120,2401.78,120,122.12799999999999,-178.93,25.8087,114.961,44.3188,-32.1406,monvsource-secondsource,293.32458784,61.98681948600001,106.44400746400001
40,0.0,2401.78,-0.000382495,2401.78,-120,2401.78,120,160.35299999999998,179.46200000000002,55.0088,75.7159,78.6536,-48.1884,monvsource-secondsource,385.13262834,132.11903566400002,188.90864340800002
41,0.0,2401.78,-0.00048285900000000003,2401.78,-120,2401.78,120,202.51,178.262,95.6487,64.9634,124.07700000000001,-55.3751,monvsource-secondsource,486.38446780000004,229.72713468600003,298.00565706000003
42,0.0,2401.78,-0.000568066,2401.78,-120,2401.78,120,238.245,178.25599999999997,129.518,61.3375,166.02700000000002,-60.137,monvsource-secondsource,572.2120761000001,311.07374204,398.76032806000006
43,0.0,2401.78,-0.000467234,2401.78,-120,2401.78,120,195.919,178.692,112.18700000000001,62.5217,159.33700000000002,-60.4111,monvsource-secondsource,470.5543358200001,269.44849286000004,382.6924198600001
44,0.0,2401.78,-0.00046221900000000004,2401.78,-120,2401.78,120,193.81599999999997,178.69799999999998,111.141,62.7785,160.25799999999998,-60.4713,monvsource-secondsource,465.50339248,266.93623098000006,384.90445924
45,0.0,2401.78,-0.000395224,2401.78,-120,2401.78,120,165.705,179.047,97.6029,64.202,151.475,-60.2785,monvsource-secondsource,397.98695490000006,234.42069316200005,363.80962550000004
46,0.0,2401.78,-0.000360851,2401.78,-120,2401.78,120,151.28,179.44099999999997,88.8831,65.7213,139.244,-60.0443,monvsource-secondsource,363.3412784,213.47765191800002,334.43345432
47,0.0,2401.78,-0.00030064400000000003,2401.78,-120,2401.78,120,126.035,-179.815,65.6611,66.0497,106.527,-55.8033,monvsource-secondsource,302.7083423,157.703516758,255.85441806000003
48,0.0,2401.78,-0.00029925599999999997,2401.78,-120,2401.78,120,125.456,-179.615,64.9786,65.2587,93.8359,-54.4498,monvsource-secondsource,301.31771168,156.06430190800003,225.373187902
49,0.0,2401.78,-0.000289404,2401.78,-120,2401.78,120,121.33,-179.416,61.9749,65.9145,87.9629,-53.7487,monvsource-secondsource,291.4079674,148.850075322,211.26753396200002
50,0.0,2401.78,-0.00028566,2401.78,-120,2401.78,120,119.76100000000001,-179.357,61.143,66.1519,87.0412,-53.6669,monvsource-secondsource,287.6395745800001,146.85203454000003,209.05381333600002
51,0.0,2401.78,-0.000282285,2401.78,-120,2401.78,120,118.34700000000001,-179.34799999999998,60.7466,66.2355,86.5114,-53.582,monvsource-secondsource,284.24345766000005,145.89996894800004,207.781350292
52,0.0,2401.78,-0.000281475,2401.78,-120,2401.78,120,118.008,-179.32299999999998,61.3586,66.4909,87.59899999999999,-54.0481,monvsource-secondsource,283.42925424000003,147.36985830800003,210.39352622
53,0.0,2401.78,-0.000337693,2401.78,-120,2401.78,120,141.566,179.91,72.5814,64.3879,100.65100000000001,-55.0522,monvsource-secondsource,340.01038748,174.324554892,241.74155878000005
54,0.0,2401.78,-0.000349737,2401.78,-120,2401.78,120,146.616,179.699,75.9315,64.3128,110.774,-56.0524,monvsource-secondsource,352.13937648,182.37075807000002,266.05477772
55,0.0,2401.78,-0.000465425,2401.78,-120,2401.78,120,195.15900000000002,178.703,115.272,64.2373,158.64700000000002,-61.4618,monvsource-secondsource,468.7289830200001,276.85798416000006,381.03519166000007
56,0.0,2401.78,-0.000518894,2401.78,-120,2401.78,120,217.623,178.264,119.93799999999999,62.5982,162.227,-59.9695,monvsource-secondsource,522.68256894,288.06468964,389.6335640600001
57,0.0,2401.78,-0.000461948,2401.78,-120,2401.78,120,193.71200000000002,178.575,96.1439,66.0611,130.734,-57.5035,monvsource-secondsource,465.2536073600001,230.91649614200003,313.99430652000007
58,0.0,2401.78,-0.000370638,2401.78,-120,2401.78,120,155.38299999999998,179.446,54.5652,77.1411,86.2521,-50.1542,monvsource-secondsource,373.19578174000003,131.053606056,207.158568738
59,0.0,2401.78,-0.00030133,2401.78,-120,2401.78,120,126.333,-179.263,30.4635,102.009,52.9763,-38.9653,monvsource-secondsource,303.42407274000004,73.16662503,127.23741781400001
60,0.0,2401.78,-0.000456087,2401.78,-120,2401.78,120,191.263,178.47,89.3225,65.9351,114.31299999999999,-54.7541,monvsource-secondsource,459.37164814000005,214.53299405000004,274.55467713999997
61,0.0,2401.78,-0.000347876,2401.78,-120,2401.78,120,145.834,179.967,50.5173,79.3876,77.5502,-49.5776,monvsource-secondsource,350.26118452000003,121.331440794,186.25851935600002
62,0.0,2401.78,-0.00036637199999999995,2401.78,-120,2401.78,120,153.593,179.519,54.1882,77.1462,82.7655,-49.6635,monvsource-secondsource,368.89659554,130.148134996,198.78452259000002
63,0.0,2401.78,-0.00040384199999999996,2401.78,-120,2401.78,120,169.32,179.007,67.9398,71.1928,97.6163,-52.1931,monvsource-secondsource,406.6693896,163.176452844,234.452877014
64,0.0,2401.78,-0.000427853,2401.78,-120,2401.78,120,179.40400000000002,178.715,77.4373,68.6932,108.536,-53.7527,monvsource-secondsource,430.8889391200001,185.987358394,260.67959408
65,0.0,2401.78,-0.000503795,2401.78,-120,2401.78,120,211.329,177.95,107.75399999999999,63.5526,142.115,-57.0305,monvsource-secondsource,507.5657656200001,258.80140212000003,341.3289647000001
66,0.0,2401.78,-0.000556302,2401.78,-120,2401.78,120,233.31,178.274,127.271,61.3966,165.83900000000003,-60.068999999999996,monvsource-secondsource,560.3592918,305.67694238,398.30879342000014
67,0.0,2401.78,-0.000446601,2401.78,-120,2401.78,120,187.25900000000001,178.804,107.161,62.7785,154.83100000000002,-60.1379,monvsource-secondsource,449.75492102000004,257.37714658000004,371.8699991800001
68,0.0,2401.78,-0.00043996300000000003,2401.78,-120,2401.78,120,184.475,178.82,105.865,63.1444,155.49200000000002,-60.2273,monvsource-secondsource,443.0683655,254.26443970000003,373.4575757600001
69,0.0,2401.78,-0.00037408300000000004,2401.78,-120,2401.78,120,156.835,179.195,92.5499,64.6193,146.696,-60.0034,monvsource-secondsource,376.68316630000004,222.284498822,352.33151888000003
70,0.0,2401.78,-0.00034322,2401.78,-120,2401.78,120,143.886,179.588,84.6012,66.1564,135.143,-59.7623,monvsource-secondsource,345.58251708,203.19347013600003,324.58375454000003
71,0.0,2401.78,-0.000284863,2401.78,-120,2401.78,120,119.42200000000001,-179.613,62.666000000000004,66.774,103.65,-55.6758,monvsource-secondsource,286.82537116000003,150.50994548000003,248.94449700000004
72,0.0,2401.78,-0.000283443,2401.78,-120,2401.78,120,118.83200000000001,-179.365,61.7861,65.9614,90.2806,-54.2085,monvsource-secondsource,285.40832096,148.39661925800002,216.83413946800005
73,0.0,2401.78,-0.000270084,2401.78,-120,2401.78,120,113.24,-179.05700000000002,58.0493,66.8326,82.9948,-53.3357,monvsource-secondsource,271.9775672,139.421647754,199.335250744
74,0.0,2401.78,-0.00026832900000000004,2401.78,-120,2401.78,120,112.506,-179.003,57.4572,67.0025,81.699,-53.1713,monvsource-secondsource,270.21466068,137.999553816,196.22302422
75,0.0,2401.78,-0.000268126,2401.78,-120,2401.78,120,112.421,-178.976,57.3653,66.9623,80.5091,-53.0051,monvsource-secondsource,270.0105093800001,137.778830234,193.36514619800002
76,0.0,2401.78,-0.000268514,2401.78,-120,2401.78,120,112.584,-178.97799999999998,57.4453,66.9326,80.5768,-53.0198,monvsource-secondsource,270.40199952,137.970972634,193.527746704
77,0.0,2401.78,-0.000322084,2401.78,-120,2401.78,120,135.023,-179.765,67.3344,64.8203,92.2481,-54.0021,monvsource-secondsource,324.29554094,161.72241523200003,221.559641618
78,0.0,2401.78,-0.00032769900000000003,2401.78,-120,2401.78,120,137.376,-179.925,69.5582,64.8526,99.9987,-54.9835,monvsource-secondsource,329.94692928000006,167.063493596,240.17487768600003
79,0.0,2401.78,-0.000449038,2401.78,-120,2401.78,120,188.278,178.84099999999998,105.50299999999999,63.7362,144.487,-59.8504,monvsource-secondsource,452.20233484000005,253.39499533999998,347.02598686
80,0.0,2401.78,-0.000504908,2401.78,-120,2401.78,120,211.747,178.359,114.234,62.4281,153.44299999999998,-59.1887,monvsource-secondsource,508.56970966000006,274.36493652,368.53632854
81,0.0,2401.78,-0.000408828,2401.78,-120,2401.78,120,171.40200000000002,179.176,76.4705,70.1925,109.03399999999999,-55.6015,monvsource-secondsource,411.6698955600001,183.66531749,261.87568052
82,0.0,2401.78,-0.000266157,2401.78,-120,2401.78,120,111.61200000000001,-178.592,24.9954,126.359,46.5937,-34.9383,monvsource-secondsource,268.06746936,60.03345181200001,111.90781678600001
83,0.0,2401.78,-0.00014383200000000001,2401.78,-120,2401.78,120,60.7797,-172.803,53.2185,-154.843,31.7035,62.7781,monvsource-secondsource,145.97946786600002,127.81912893,76.14483223
84,0.0,2401.78,-8.007319999999999e-05,2401.78,-120,2401.78,120,34.9868,-163.662,80.7271,-145.21200000000002,54.8747,86.8333,monvsource-secondsource,84.03059650400002,193.888734238,131.796956966
85,0.0,2401.78,-3.69042e-05,2401.78,-120,2401.78,120,19.4293,-142.81,96.5625,-142.362,68.1016,93.3692,monvsource-secondsource,46.66490415400001,231.92188125,163.56506084800003
86,0.0,2401.78,-7.07155e-05,2401.78,-120,2401.78,120,31.3406,-161.102,86.339,-144.123,58.3841,88.3412,monvsource-secondsource,75.273226268,207.36728342000004,140.225763698
87,0.0,2401.78,-0.000139698,2401.78,-120,2401.78,120,59.1035,-172.28,60.5602,-151.121,36.8308,69.8954,monvsource-secondsource,141.95360423,145.45227715600004,88.45947882400002
88,0.0,2401.78,-0.00025147099999999996,2401.78,-120,2401.78,120,105.49600000000001,-177.85,25.2605,163.624,31.5794,-12.3868,monvsource-secondsource,253.37818288000003,60.67016369000001,75.846771332
89,0.0,2401.78,-0.00041941699999999995,2401.78,-120,2401.78,120,175.84900000000002,179.016,65.6513,72.1704,95.7259,-51.3495,monvsource-secondsource,422.3506112200001,157.67997931400004,229.912552102
90,0.0,2401.78,-0.0005640630000000001,2401.78,-120,2401.78,120,236.55200000000002,178.38,122.493,62.0337,160.162,-59.5764,monvsource-secondsource,568.1458625600002,294.20123754,384.67388836000003
91,0.0,2401.78,-0.000486847,2401.78,-120,2401.78,120,204.153,178.56599999999997,115.34899999999999,61.963,163.588,-60.2869,monvsource-secondsource,490.33059234,277.04292122000004,392.90238664000003
92,0.0,2401.78,-0.000480316,2401.78,-120,2401.78,120,201.41299999999998,178.585,113.75200000000001,62.1612,164.17,-60.3008,monvsource-secondsource,483.74971514,273.2072785600001,394.3002226
93,0.0,2401.78,-0.00041257,2401.78,-120,2401.78,120,172.984,178.924,99.6026,63.3719,154.976,-60.013999999999996,monvsource-secondsource,415.4695115200001,239.22353262800002,372.21825728000005
94,0.0,2401.78,-0.00037857300000000005,2401.78,-120,2401.78,120,158.713,179.322,90.867,64.8919,142.52200000000002,-59.8181,monvsource-secondsource,381.19370914,218.24254326000005,342.30648916000007
95,0.0,2401.78,-0.000319878,2401.78,-120,2401.78,120,134.09799999999998,-179.937,68.8462,65.2202,109.81299999999999,-56.0353,monvsource-secondsource,322.07389444,165.353426236,263.74666714
96,0.0,2401.78,-0.000318318,2401.78,-120,2401.78,120,133.446,-179.707,67.8273,64.4793,95.6203,-54.6161,monvsource-secondsource,320.50793388000005,162.906252594,229.65892413400002
97,0.0,2401.78,-0.00030616,2401.78,-120,2401.78,120,128.35299999999998,-179.456,64.4362,65.0526,88.5805,-53.8634,monvsource-secondsource,308.27566834,154.761576436,212.75087329000002
98,0.0,2401.78,-0.00030282,2401.78,-120,2401.78,120,126.954,-179.38299999999998,63.4562,65.27199999999999,86.7024,-53.6493,monvsource-secondsource,304.91557812,152.407832036,208.240090272
99,0.0,2401.78,-0.000301892,2401.78,-120,2401.78,120,126.566,-179.347,63.2282,65.2672,85.2467,-53.4759,monvsource-secondsource,303.98368748,151.860226196,204.743819126
100,0.0,2401.78,-0.00029818900000000003,2401.78,-120,2401.78,120,125.015,-179.292,62.5668,65.3931,84.3529,-53.3945,monvsource-secondsource,300.25852670000006,150.271688904,202.597108162
101,0.0,2401.78,-0.00034618199999999995,2401.78,-120,2401.78,120,145.124,-179.899,71.4219,63.7925,94.5379,-54.207,monvsource-secondsource,348.55592072,171.539690982,227.059237462
102,0.0,2401.78,-0.000357314,2401.78,-120,2401.78,120,149.79,179.88400000000001,74.6391,63.7188,103.805,-55.2268,monvsource-secondsource,359.7626262,179.266697598,249.31677290000005
103,0.0,2401.78,-0.000483201,2401.78,-120,2401.78,120,202.623,178.581,107.06299999999999,62.0695,148.38299999999998,-58.608999999999995,monvsource-secondsource,486.65586894,257.14177214,356.38332174
104,0.0,2401.78,-0.0005418630000000001,2401.78,-120,2401.78,120,227.273,178.12599999999998,118.961,61.2171,161.692,-58.6895,monvsource-secondsource,545.85974594,285.71815058000004,388.34861176000004
105,0.0,2401.78,-0.000437086,2401.78,-120,2401.78,120,183.262,178.923,79.4248,69.3018,118.28200000000001,-55.724,monvsource-secondsource,440.1550063600001,190.76089614400001,284.08734196000006
106,0.0,2401.78,-0.000301224,2401.78,-120,2401.78,120,126.285,-179.419,28.1334,115.075,66.1354,-43.6325,monvsource-secondsource,303.3087873,67.57023745200001,158.842681012
