hour,t(sec),P1(kW),Q1(kvar),P2(kW),Q2(kvar),P3(kW),Q3(kvar),Name,P4(kW),Q4(kvar)
1,0.0,0.0,0.0,0.0,0.0,0.0,0.0,mongenerator-diesel_670,,
2,0.0,0.0,0.0,0.0,0.0,0.0,0.0,mongenerator-diesel_670,,
3,0.0,0.0,0.0,0.0,0.0,0.0,0.0,mongenerator-diesel_670,,
4,0.0,0.0,0.0,0.0,0.0,0.0,0.0,mongenerator-diesel_670,,
5,0.0,0.0,0.0,0.0,0.0,0.0,0.0,mongenerator-diesel_670,,
6,0.0,0.0,0.0,0.0,0.0,0.0,0.0,mongenerator-diesel_670,,
7,0.0,0.0,0.0,0.0,0.0,0.0,0.0,mongenerator-diesel_670,,
8,0.0,0.0,0.0,0.0,0.0,0.0,0.0,mongenerator-diesel_670,,
9,0.0,0.0,0.0,0.0,0.0,0.0,0.0,mongenerator-diesel_670,,
10,0.0,0.0,0.0,0.0,0.0,0.0,0.0,mongenerator-diesel_670,,
11,0.0,0.0,0.0,0.0,0.0,0.0,0.0,mongenerator-diesel_670,,
12,0.0,0.0,0.0,0.0,0.0,0.0,0.0,mongenerator-diesel_670,,
13,0.0,0.0,0.0,0.0,0.0,0.0,0.0,mongenerator-diesel_670,,
14,0.0,0.0,0.0,0.0,0.0,0.0,0.0,mongenerator-diesel_670,,
15,0.0,0.0,0.0,0.0,0.0,0.0,0.0,mongenerator-diesel_670,,
16,0.0,0.0,0.0,0.0,0.0,0.0,0.0,mongenerator-diesel_670,,
17,0.0,0.0,0.0,0.0,0.0,0.0,0.0,mongenerator-diesel_670,,
18,0.0,0.0,0.0,0.0,0.0,0.0,0.0,mongenerator-diesel_670,,
19,0.0,0.0,0.0,0.0,0.0,0.0,0.0,mongenerator-diesel_670,,
20,0.0,0.0,0.0,0.0,0.0,0.0,0.0,mongenerator-diesel_670,,
21,0.0,0.0,0.0,0.0,0.0,0.0,0.0,mongenerator-diesel_670,,
22,0.0,0.0,0.0,0.0,0.0,0.0,0.0,mongenerator-diesel_670,,
23,0.0,0.0,0.0,0.0,0.0,0.0,0.0,mongenerator-diesel_670,,
24,0.0,0.0,0.0,0.0,0.0,0.0,0.0,mongenerator-diesel_670,,
25,0.0,0.0,0.0,0.0,0.0,0.0,0.0,mongenerator-diesel_670,,
26,0.0,0.0,0.0,0.0,0.0,0.0,0.0,mongenerator-diesel_670,,
27,0.0,0.0,0.0,0.0,0.0,0.0,0.0,mongenerator-diesel_670,,
28,0.0,0.0,0.0,0.0,0.0,0.0,0.0,mongenerator-diesel_670,,
29,0.0,0.0,0.0,0.0,0.0,0.0,0.0,mongenerator-diesel_670,,
30,0.0,0.0,0.0,0.0,0.0,0.0,0.0,mongenerator-diesel_670,,
31,0.0,0.0,0.0,0.0,0.0,0.0,0.0,mongenerator-diesel_670,,
32,0.0,0.0,0.0,0.0,0.0,0.0,0.0,mongenerator-diesel_670,,
33,0.0,0.0,0.0,0.0,0.0,0.0,0.0,mongenerator-diesel_670,,
34,0.0,0.0,0.0,0.0,0.0,0.0,0.0,mongenerator-diesel_670,,
35,0.0,0.0,0.0,0.0,0.0,0.0,0.0,mongenerator-diesel_670,,
36,0.0,0.0,0.0,0.0,0.0,0.0,0.0,mongenerator-diesel_670,,
37,0.0,0.0,0.0,0.0,0.0,0.0,0.0,mongenerator-diesel_670,,
38,0.0,0.0,0.0,0.0,0.0,0.0,0.0,mongenerator-diesel_670,,
39,0.0,0.0,0.0,0.0,0.0,0.0,0.0,mongenerator-diesel_670,,
40,0.0,0.0,0.0,0.0,0.0,0.0,0.0,mongenerator-diesel_670,,
41,0.0,0.0,0.0,0.0,0.0,0.0,0.0,mongenerator-diesel_670,,
42,0.0,0.0,0.0,0.0,0.0,0.0,0.0,mongenerator-diesel_670,,
43,0.0,0.0,0.0,0.0,0.0,0.0,0.0,mongenerator-diesel_670,,
44,0.0,0.0,0.0,0.0,0.0,0.0,0.0,mongenerator-diesel_670,,
45,0.0,0.0,0.0,0.0,0.0,0.0,0.0,mongenerator-diesel_670,,
46,0.0,0.0,0.0,0.0,0.0,0.0,0.0,mongenerator-diesel_670,,
47,0.0,0.0,0.0,0.0,0.0,0.0,0.0,mongenerator-diesel_670,,
48,0.0,0.0,0.0,0.0,0.0,0.0,0.0,mongenerator-diesel_670,,
49,0.0,0.0,0.0,0.0,0.0,0.0,0.0,mongenerator-diesel_670,,
50,0.0,0.0,0.0,0.0,0.0,0.0,0.0,mongenerator-diesel_670,,
51,0.0,0.0,0.0,0.0,0.0,0.0,0.0,mongenerator-diesel_670,,
52,0.0,0.0,0.0,0.0,0.0,0.0,0.0,mongenerator-diesel_670,,
53,0.0,0.0,0.0,0.0,0.0,0.0,0.0,mongenerator-diesel_670,,
54,0.0,0.0,0.0,0.0,0.0,0.0,0.0,mongenerator-diesel_670,,
55,0.0,0.0,0.0,0.0,0.0,0.0,0.0,mongenerator-diesel_670,,
56,0.0,0.0,0.0,0.0,0.0,0.0,0.0,mongenerator-diesel_670,,
57,0.0,0.0,0.0,0.0,0.0,0.0,0.0,mongenerator-diesel_670,,
58,0.0,0.0,0.0,0.0,0.0,0.0,0.0,mongenerator-diesel_670,,
59,0.0,0.0,0.0,0.0,0.0,0.0,0.0,mongenerator-diesel_670,,
60,0.0,0.0,0.0,0.0,0.0,0.0,0.0,mongenerator-diesel_670,,
61,0.0,0.0,0.0,0.0,0.0,0.0,0.0,mongenerator-diesel_670,,
62,0.0,0.0,0.0,0.0,0.0,0.0,0.0,mongenerator-diesel_670,,
63,0.0,0.0,0.0,0.0,0.0,0.0,0.0,mongenerator-diesel_670,,
64,0.0,0.0,0.0,0.0,0.0,0.0,0.0,mongenerator-diesel_670,,
65,0.0,0.0,0.0,0.0,0.0,0.0,0.0,mongenerator-diesel_670,,
66,0.0,0.0,0.0,0.0,0.0,0.0,0.0,mongenerator-diesel_670,,
67,0.0,0.0,0.0,0.0,0.0,0.0,0.0,mongenerator-diesel_670,,
68,0.0,0.0,0.0,0.0,0.0,0.0,0.0,mongenerator-diesel_670,,
69,0.0,0.0,0.0,0.0,0.0,0.0,0.0,mongenerator-diesel_670,,
70,0.0,0.0,0.0,0.0,0.0,0.0,0.0,mongenerator-diesel_670,,
71,0.0,0.0,0.0,0.0,0.0,0.0,0.0,mongenerator-diesel_670,,
72,0.0,0.0,0.0,0.0,0.0,0.0,0.0,mongenerator-diesel_670,,
73,0.0,0.0,0.0,0.0,0.0,0.0,0.0,mongenerator-diesel_670,,
74,0.0,0.0,0.0,0.0,0.0,0.0,0.0,mongenerator-diesel_670,,
75,0.0,0.0,0.0,0.0,0.0,0.0,0.0,mongenerator-diesel_670,,
76,0.0,0.0,0.0,0.0,0.0,0.0,0.0,mongenerator-diesel_670,,
77,0.0,0.0,0.0,0.0,0.0,0.0,0.0,mongenerator-diesel_670,,
78,0.0,0.0,0.0,0.0,0.0,0.0,0.0,mongenerator-diesel_670,,
79,0.0,0.0,0.0,0.0,0.0,0.0,0.0,mongenerator-diesel_670,,
80,0.0,0.0,0.0,0.0,0.0,0.0,0.0,mongenerator-diesel_670,,
81,0.0,0.0,0.0,0.0,0.0,0.0,0.0,mongenerator-diesel_670,,
82,0.0,0.0,0.0,0.0,0.0,0.0,0.0,mongenerator-diesel_670,,
83,0.0,0.0,0.0,0.0,0.0,0.0,0.0,mongenerator-diesel_670,,
84,0.0,0.0,0.0,0.0,0.0,0.0,0.0,mongenerator-diesel_670,,
85,0.0,0.0,0.0,0.0,0.0,0.0,0.0,mongenerator-diesel_670,,
86,0.0,0.0,0.0,0.0,0.0,0.0,0.0,mongenerator-diesel_670,,
87,0.0,0.0,0.0,0.0,0.0,0.0,0.0,mongenerator-diesel_670,,
88,0.0,0.0,0.0,0.0,0.0,0.0,0.0,mongenerator-diesel_670,,
89,0.0,0.0,0.0,0.0,0.0,0.0,0.0,mongenerator-diesel_670,,
90,0.0,0.0,0.0,0.0,0.0,0.0,0.0,mongenerator-diesel_670,,
91,0.0,0.0,0.0,0.0,0.0,0.0,0.0,mongenerator-diesel_670,,
92,0.0,0.0,0.0,0.0,0.0,0.0,0.0,mongenerator-diesel_670,,
93,0.0,0.0,0.0,0.0,0.0,0.0,0.0,mongenerator-diesel_670,,
94,0.0,0.0,0.0,0.0,0.0,0.0,0.0,mongenerator-diesel_670,,
95,0.0,0.0,0.0,0.0,0.0,0.0,0.0,mongenerator-diesel_670,,
96,0.0,0.0,0.0,0.0,0.0,0.0,0.0,mongenerator-diesel_670,,
97,0.0,0.0,0.0,0.0,0.0,0.0,0.0,mongenerator-diesel_670,,
98,0.0,0.0,0.0,0.0,0.0,0.0,0.0,mongenerator-diesel_670,,
99,0.0,0.0,0.0,0.0,0.0,0.0,0.0,mongenerator-diesel_670,,
100,0.0,0.0,0.0,0.0,0.0,0.0,0.0,mongenerator-diesel_670,,
101,0.0,0.0,0.0,0.0,0.0,0.0,0.0,mongenerator-diesel_670,,
102,0.0,0.0,0.0,0.0,0.0,0.0,0.0,mongenerator-diesel_670,,
103,0.0,0.0,0.0,0.0,0.0,0.0,0.0,mongenerator-diesel_670,,
104,0.0,0.0,0.0,0.0,0.0,0.0,0.0,mongenerator-diesel_670,,
105,0.0,0.0,0.0,0.0,0.0,0.0,0.0,mongenerator-diesel_670,,
106,0.0,0.0,0.0,0.0,0.0,0.0,0.0,mongenerator-diesel_670,,
107,0.0,0.0,0.0,0.0,0.0,0.0,0.0,mongenerator-diesel_670,,
108,0.0,0.0,0.0,0.0,0.0,0.0,0.0,mongenerator-diesel_670,,
109,0.0,0.0,0.0,0.0,0.0,0.0,0.0,mongenerator-diesel_670,,
110,0.0,0.0,0.0,0.0,0.0,0.0,0.0,mongenerator-diesel_670,,
111,0.0,0.0,0.0,0.0,0.0,0.0,0.0,mongenerator-diesel_670,,
112,0.0,0.0,0.0,0.0,0.0,0.0,0.0,mongenerator-diesel_670,,
113,0.0,0.0,0.0,0.0,0.0,0.0,0.0,mongenerator-diesel_670,,
114,0.0,0.0,0.0,0.0,0.0,0.0,0.0,mongenerator-diesel_670,,
115,0.0,0.0,0.0,0.0,0.0,0.0,0.0,mongenerator-diesel_670,,
116,0.0,0.0,0.0,0.0,0.0,0.0,0.0,mongenerator-diesel_670,,
117,0.0,0.0,0.0,0.0,0.0,0.0,0.0,mongenerator-diesel_670,,
118,0.0,0.0,0.0,0.0,0.0,0.0,0.0,mongenerator-diesel_670,,
119,0.0,0.0,0.0,0.0,0.0,0.0,0.0,mongenerator-diesel_670,,
120,0.0,0.0,0.0,0.0,0.0,0.0,0.0,mongenerator-diesel_670,,
121,0.0,0.0,0.0,0.0,0.0,0.0,0.0,mongenerator-diesel_670,,
122,0.0,0.0,0.0,0.0,0.0,0.0,0.0,mongenerator-diesel_670,,
123,0.0,0.0,0.0,0.0,0.0,0.0,0.0,mongenerator-diesel_670,,
124,0.0,0.0,0.0,0.0,0.0,0.0,0.0,mongenerator-diesel_670,,
125,0.0,0.0,0.0,0.0,0.0,0.0,0.0,mongenerator-diesel_670,,
126,0.0,0.0,0.0,0.0,0.0,0.0,0.0,mongenerator-diesel_670,,
127,0.0,0.0,0.0,0.0,0.0,0.0,0.0,mongenerator-diesel_670,,
128,0.0,0.0,0.0,0.0,0.0,0.0,0.0,mongenerator-diesel_670,,
129,0.0,0.0,0.0,0.0,0.0,0.0,0.0,mongenerator-diesel_670,,
130,0.0,0.0,0.0,0.0,0.0,0.0,0.0,mongenerator-diesel_670,,
131,0.0,0.0,0.0,0.0,0.0,0.0,0.0,mongenerator-diesel_670,,
132,0.0,0.0,0.0,0.0,0.0,0.0,0.0,mongenerator-diesel_670,,
133,0.0,0.0,0.0,0.0,0.0,0.0,0.0,mongenerator-diesel_670,,
134,0.0,0.0,0.0,0.0,0.0,0.0,0.0,mongenerator-diesel_670,,
135,0.0,0.0,0.0,0.0,0.0,0.0,0.0,mongenerator-diesel_670,,
136,0.0,0.0,0.0,0.0,0.0,0.0,0.0,mongenerator-diesel_670,,
137,0.0,0.0,0.0,0.0,0.0,0.0,0.0,mongenerator-diesel_670,,
138,0.0,0.0,0.0,0.0,0.0,0.0,0.0,mongenerator-diesel_670,,
139,0.0,0.0,0.0,0.0,0.0,0.0,0.0,mongenerator-diesel_670,,
140,0.0,0.0,0.0,0.0,0.0,0.0,0.0,mongenerator-diesel_670,,
141,0.0,0.0,0.0,0.0,0.0,0.0,0.0,mongenerator-diesel_670,,
142,0.0,0.0,0.0,0.0,0.0,0.0,0.0,mongenerator-diesel_670,,
143,0.0,0.0,0.0,0.0,0.0,0.0,0.0,mongenerator-diesel_670,,
144,0.0,0.0,0.0,0.0,0.0,0.0,0.0,mongenerator-diesel_670,,
145,0.0,0.0,0.0,0.0,0.0,0.0,0.0,mongenerator-diesel_670,,
146,0.0,0.0,0.0,0.0,0.0,0.0,0.0,mongenerator-diesel_670,,
147,0.0,0.0,0.0,0.0,0.0,0.0,0.0,mongenerator-diesel_670,,
148,0.0,0.0,0.0,0.0,0.0,0.0,0.0,mongenerator-diesel_670,,
149,0.0,0.0,0.0,0.0,0.0,0.0,0.0,mongenerator-diesel_670,,
150,0.0,0.0,0.0,0.0,0.0,0.0,0.0,mongenerator-diesel_670,,
151,0.0,0.0,0.0,0.0,0.0,0.0,0.0,mongenerator-diesel_670,,
152,0.0,0.0,0.0,0.0,0.0,0.0,0.0,mongenerator-diesel_670,,
153,0.0,0.0,0.0,0.0,0.0,0.0,0.0,mongenerator-diesel_670,,
154,0.0,0.0,0.0,0.0,0.0,0.0,0.0,mongenerator-diesel_670,,
155,0.0,0.0,0.0,0.0,0.0,0.0,0.0,mongenerator-diesel_670,,
156,0.0,0.0,0.0,0.0,0.0,0.0,0.0,mongenerator-diesel_670,,
157,0.0,0.0,0.0,0.0,0.0,0.0,0.0,mongenerator-diesel_670,,
158,0.0,0.0,0.0,0.0,0.0,0.0,0.0,mongenerator-diesel_670,,
159,0.0,0.0,0.0,0.0,0.0,0.0,0.0,mongenerator-diesel_670,,
160,0.0,0.0,0.0,0.0,0.0,0.0,0.0,mongenerator-diesel_670,,
161,0.0,0.0,0.0,0.0,0.0,0.0,0.0,mongenerator-diesel_670,,
162,0.0,0.0,0.0,0.0,0.0,0.0,0.0,mongenerator-diesel_670,,
163,0.0,0.0,0.0,0.0,0.0,0.0,0.0,mongenerator-diesel_670,,
164,0.0,0.0,0.0,0.0,0.0,0.0,0.0,mongenerator-diesel_670,,
165,0.0,0.0,0.0,0.0,0.0,0.0,0.0,mongenerator-diesel_670,,
166,0.0,0.0,0.0,0.0,0.0,0.0,0.0,mongenerator-diesel_670,,
167,0.0,0.0,0.0,0.0,0.0,0.0,0.0,mongenerator-diesel_670,,
168,0.0,0.0,0.0,0.0,0.0,0.0,0.0,mongenerator-diesel_670,,
169,0.0,0.0,0.0,0.0,0.0,0.0,0.0,mongenerator-diesel_670,,
170,0.0,0.0,0.0,0.0,0.0,0.0,0.0,mongenerator-diesel_670,,
171,0.0,0.0,0.0,0.0,0.0,0.0,0.0,mongenerator-diesel_670,,
172,0.0,0.0,0.0,0.0,0.0,0.0,0.0,mongenerator-diesel_670,,
173,0.0,0.0,0.0,0.0,0.0,0.0,0.0,mongenerator-diesel_670,,
174,0.0,0.0,0.0,0.0,0.0,0.0,0.0,mongenerator-diesel_670,,
175,0.0,0.0,0.0,0.0,0.0,0.0,0.0,mongenerator-diesel_670,,
176,0.0,0.0,0.0,0.0,0.0,0.0,0.0,mongenerator-diesel_670,,
177,0.0,0.0,0.0,0.0,0.0,0.0,0.0,mongenerator-diesel_670,,
178,0.0,0.0,0.0,0.0,0.0,0.0,0.0,mongenerator-diesel_670,,
179,0.0,0.0,0.0,0.0,0.0,0.0,0.0,mongenerator-diesel_670,,
180,0.0,0.0,0.0,0.0,0.0,0.0,0.0,mongenerator-diesel_670,,
181,0.0,0.0,0.0,0.0,0.0,0.0,0.0,mongenerator-diesel_670,,
182,0.0,0.0,0.0,0.0,0.0,0.0,0.0,mongenerator-diesel_670,,
183,0.0,0.0,0.0,0.0,0.0,0.0,0.0,mongenerator-diesel_670,,
184,0.0,0.0,0.0,0.0,0.0,0.0,0.0,mongenerator-diesel_670,,
185,0.0,0.0,0.0,0.0,0.0,0.0,0.0,mongenerator-diesel_670,,
186,0.0,0.0,0.0,0.0,0.0,0.0,0.0,mongenerator-diesel_670,,
187,0.0,0.0,0.0,0.0,0.0,0.0,0.0,mongenerator-diesel_670,,
188,0.0,0.0,0.0,0.0,0.0,0.0,0.0,mongenerator-diesel_670,,
189,0.0,0.0,0.0,0.0,0.0,0.0,0.0,mongenerator-diesel_670,,
190,0.0,0.0,0.0,0.0,0.0,0.0,0.0,mongenerator-diesel_670,,
191,0.0,0.0,0.0,0.0,0.0,0.0,0.0,mongenerator-diesel_670,,
192,0.0,0.0,0.0,0.0,0.0,0.0,0.0,mongenerator-diesel_670,,
193,0.0,0.0,0.0,0.0,0.0,0.0,0.0,mongenerator-diesel_670,,
194,0.0,0.0,0.0,0.0,0.0,0.0,0.0,mongenerator-diesel_670,,
195,0.0,0.0,0.0,0.0,0.0,0.0,0.0,mongenerator-diesel_670,,
196,0.0,0.0,0.0,0.0,0.0,0.0,0.0,mongenerator-diesel_670,,
197,0.0,0.0,0.0,0.0,0.0,0.0,0.0,mongenerator-diesel_670,,
198,0.0,0.0,0.0,0.0,0.0,0.0,0.0,mongenerator-diesel_670,,
199,0.0,0.0,0.0,0.0,0.0,0.0,0.0,mongenerator-diesel_670,,
200,0.0,0.0,0.0,0.0,0.0,0.0,0.0,mongenerator-diesel_670,,
201,0.0,0.0,0.0,0.0,0.0,0.0,0.0,mongenerator-diesel_670,,
202,0.0,0.0,0.0,0.0,0.0,0.0,0.0,mongenerator-diesel_670,,
203,0.0,0.0,0.0,0.0,0.0,0.0,0.0,mongenerator-diesel_670,,
204,0.0,0.0,0.0,0.0,0.0,0.0,0.0,mongenerator-diesel_670,,
205,0.0,0.0,0.0,0.0,0.0,0.0,0.0,mongenerator-diesel_670,,
206,0.0,0.0,0.0,0.0,0.0,0.0,0.0,mongenerator-diesel_670,,
207,0.0,0.0,0.0,0.0,0.0,0.0,0.0,mongenerator-diesel_670,,
208,0.0,0.0,0.0,0.0,0.0,0.0,0.0,mongenerator-diesel_670,,
209,0.0,0.0,0.0,0.0,0.0,0.0,0.0,mongenerator-diesel_670,,
210,0.0,0.0,0.0,0.0,0.0,0.0,0.0,mongenerator-diesel_670,,
211,0.0,0.0,0.0,0.0,0.0,0.0,0.0,mongenerator-diesel_670,,
212,0.0,0.0,0.0,0.0,0.0,0.0,0.0,mongenerator-diesel_670,,
213,0.0,0.0,0.0,0.0,0.0,0.0,0.0,mongenerator-diesel_670,,
214,0.0,0.0,0.0,0.0,0.0,0.0,0.0,mongenerator-diesel_670,,
215,0.0,0.0,0.0,0.0,0.0,0.0,0.0,mongenerator-diesel_670,,
216,0.0,0.0,0.0,0.0,0.0,0.0,0.0,mongenerator-diesel_670,,
217,0.0,0.0,0.0,0.0,0.0,0.0,0.0,mongenerator-diesel_670,,
218,0.0,0.0,0.0,0.0,0.0,0.0,0.0,mongenerator-diesel_670,,
219,0.0,0.0,0.0,0.0,0.0,0.0,0.0,mongenerator-diesel_670,,
220,0.0,0.0,0.0,0.0,0.0,0.0,0.0,mongenerator-diesel_670,,
221,0.0,0.0,0.0,0.0,0.0,0.0,0.0,mongenerator-diesel_670,,
222,0.0,0.0,0.0,0.0,0.0,0.0,0.0,mongenerator-diesel_670,,
223,0.0,0.0,0.0,0.0,0.0,0.0,0.0,mongenerator-diesel_670,,
224,0.0,0.0,0.0,0.0,0.0,0.0,0.0,mongenerator-diesel_670,,
225,0.0,0.0,0.0,0.0,0.0,0.0,0.0,mongenerator-diesel_670,,
226,0.0,0.0,0.0,0.0,0.0,0.0,0.0,mongenerator-diesel_670,,
227,0.0,0.0,0.0,0.0,0.0,0.0,0.0,mongenerator-diesel_670,,
228,0.0,0.0,0.0,0.0,0.0,0.0,0.0,mongenerator-diesel_670,,
229,0.0,0.0,0.0,0.0,0.0,0.0,0.0,mongenerator-diesel_670,,
230,0.0,0.0,0.0,0.0,0.0,0.0,0.0,mongenerator-diesel_670,,
231,0.0,0.0,0.0,0.0,0.0,0.0,0.0,mongenerator-diesel_670,,
232,0.0,0.0,0.0,0.0,0.0,0.0,0.0,mongenerator-diesel_670,,
233,0.0,0.0,0.0,0.0,0.0,0.0,0.0,mongenerator-diesel_670,,
234,0.0,0.0,0.0,0.0,0.0,0.0,0.0,mongenerator-diesel_670,,
235,0.0,0.0,0.0,0.0,0.0,0.0,0.0,mongenerator-diesel_670,,
236,0.0,0.0,0.0,0.0,0.0,0.0,0.0,mongenerator-diesel_670,,
237,0.0,0.0,0.0,0.0,0.0,0.0,0.0,mongenerator-diesel_670,,
238,0.0,0.0,0.0,0.0,0.0,0.0,0.0,mongenerator-diesel_670,,
239,0.0,0.0,0.0,0.0,0.0,0.0,0.0,mongenerator-diesel_670,,
240,0.0,0.0,0.0,0.0,0.0,0.0,0.0,mongenerator-diesel_670,,
1,0.0,0.0,0.0,0.0,0.0,0.0,0.0,mongenerator-solar_670,0.0,0.0
2,0.0,0.0,0.0,0.0,0.0,0.0,0.0,mongenerator-solar_670,0.0,0.0
3,0.0,0.0,0.0,0.0,0.0,0.0,0.0,mongenerator-solar_670,0.0,0.0
4,0.0,0.0,0.0,0.0,0.0,0.0,0.0,mongenerator-solar_670,0.0,0.0
5,0.0,0.0,0.0,0.0,0.0,0.0,0.0,mongenerator-solar_670,0.0,0.0
6,0.0,0.0,0.0,0.0,0.0,0.0,0.0,mongenerator-solar_670,0.0,0.0
7,0.0,0.0,0.0,0.0,0.0,0.0,0.0,mongenerator-solar_670,0.0,0.0
8,0.0,0.0,0.0,0.0,0.0,0.0,0.0,mongenerator-solar_670,0.0,0.0
9,0.0,-14.5803,8.10736e-06,-14.5803,8.74967e-06,-14.5802,3.9960500000000005e-05,mongenerator-solar_670,0.0,0.0
10,0.0,-44.2072,-0.000181,-44.2071,-0.000144129,-44.2073,-0.000259803,mongenerator-solar_670,0.0,0.0
11,0.0,-62.4025,8.08252e-05,-62.4028,0.000401355,-62.4031,-0.000580227,mongenerator-solar_670,0.0,0.0
12,0.0,-191.755,-0.0007424510000000001,-191.75400000000002,-0.0013201999999999999,-191.753,-0.00230345,mongenerator-solar_670,0.0,0.0
13,0.0,-43.9734,0.000392539,-43.9737,0.000591292,-43.9739,0.000537743,mongenerator-solar_670,0.0,0.0
14,0.0,-102.76100000000001,-0.00030769,-102.76100000000001,-0.000432884,-102.76100000000001,-0.000535982,mongenerator-solar_670,0.0,0.0
15,0.0,-153.733,-0.000380065,-153.733,-0.00072743,-153.732,-0.0006763769999999999,mongenerator-solar_670,0.0,0.0
16,0.0,-165.514,-3.38738e-05,-165.514,-0.000254772,-165.514,-0.000101247,mongenerator-solar_670,0.0,0.0
17,0.0,-82.6991,0.000518797,-82.6994,0.00038600300000000005,-82.6993,0.000828873,mongenerator-solar_670,0.0,0.0
18,0.0,-5.48235,3.19043e-05,-5.4823699999999995,4.35752e-06,-5.48228,6.90512e-05,mongenerator-solar_670,0.0,0.0
19,0.0,0.0,0.0,0.0,0.0,0.0,0.0,mongenerator-solar_670,0.0,0.0
20,0.0,0.0,0.0,0.0,0.0,0.0,0.0,mongenerator-solar_670,0.0,0.0
21,0.0,0.0,0.0,0.0,0.0,0.0,0.0,mongenerator-solar_670,0.0,0.0
22,0.0,0.0,0.0,0.0,0.0,0.0,0.0,mongenerator-solar_670,0.0,0.0
23,0.0,0.0,0.0,0.0,0.0,0.0,0.0,mongenerator-solar_670,0.0,0.0
24,0.0,0.0,0.0,0.0,0.0,0.0,0.0,mongenerator-solar_670,0.0,0.0
25,0.0,0.0,0.0,0.0,0.0,0.0,0.0,mongenerator-solar_670,0.0,0.0
26,0.0,0.0,0.0,0.0,0.0,0.0,0.0,mongenerator-solar_670,0.0,0.0
27,0.0,0.0,0.0,0.0,0.0,0.0,0.0,mongenerator-solar_670,0.0,0.0
28,0.0,0.0,0.0,0.0,0.0,0.0,0.0,mongenerator-solar_670,0.0,0.0
29,0.0,0.0,0.0,0.0,0.0,0.0,0.0,mongenerator-solar_670,0.0,0.0
30,0.0,0.0,0.0,0.0,0.0,0.0,0.0,mongenerator-solar_670,0.0,0.0
31,0.0,0.0,0.0,0.0,0.0,0.0,0.0,mongenerator-solar_670,0.0,0.0
32,0.0,0.0,0.0,0.0,0.0,0.0,0.0,mongenerator-solar_670,0.0,0.0
33,0.0,-38.2581,2.2449899999999997e-05,-38.2578,0.00038914699999999995,-38.2589,-0.000311473,mongenerator-solar_670,0.0,0.0
34,0.0,-97.1613,-0.000144227,-97.162,0.00081599,-97.1623,-0.00028718,mongenerator-solar_670,0.0,0.0
35,0.0,-136.004,-9.327120000000001e-05,-136.005,-0.000192573,-136.003,-0.0006944089999999999,mongenerator-solar_670,0.0,0.0
36,0.0,-5.36569,1.1613799999999999e-06,-5.36569,4.11653e-06,-5.3657,6.87614e-07,mongenerator-solar_670,0.0,0.0
37,0.0,-291.954,-0.000166895,-291.954,-0.000273008,-291.954,-0.000167404,mongenerator-solar_670,0.0,0.0
38,0.0,-104.395,0.000278466,-104.39299999999999,0.00101753,-104.395,0.0006990330000000001,mongenerator-solar_670,0.0,0.0
39,0.0,-379.085,-0.000331405,-379.085,-0.000401121,-379.085,-0.000429164,mongenerator-solar_670,0.0,0.0
40,0.0,-260.7,0.000178235,-260.697,0.00157038,-260.702,0.00147845,mongenerator-solar_670,0.0,0.0
41,0.0,-137.638,0.000474794,-137.636,0.000609423,-137.638,0.0009974060000000002,mongenerator-solar_670,0.0,0.0
42,0.0,-11.7809,9.95627e-05,-11.7809,-3.89868e-05,-11.7807,0.000153346,mongenerator-solar_670,0.0,0.0
43,0.0,0.0,0.0,0.0,0.0,0.0,0.0,mongenerator-solar_670,0.0,0.0
44,0.0,0.0,0.0,0.0,0.0,0.0,0.0,mongenerator-solar_670,0.0,0.0
45,0.0,0.0,0.0,0.0,0.0,0.0,0.0,mongenerator-solar_670,0.0,0.0
46,0.0,0.0,0.0,0.0,0.0,0.0,0.0,mongenerator-solar_670,0.0,0.0
47,0.0,0.0,0.0,0.0,0.0,0.0,0.0,mongenerator-solar_670,0.0,0.0
48,0.0,0.0,0.0,0.0,0.0,0.0,0.0,mongenerator-solar_670,0.0,0.0
49,0.0,0.0,0.0,0.0,0.0,0.0,0.0,mongenerator-solar_670,0.0,0.0
50,0.0,0.0,0.0,0.0,0.0,0.0,0.0,mongenerator-solar_670,0.0,0.0
51,0.0,0.0,0.0,0.0,0.0,0.0,0.0,mongenerator-solar_670,0.0,0.0
52,0.0,0.0,0.0,0.0,0.0,0.0,0.0,mongenerator-solar_670,0.0,0.0
53,0.0,0.0,0.0,0.0,0.0,0.0,0.0,mongenerator-solar_670,0.0,0.0
54,0.0,0.0,0.0,0.0,0.0,0.0,0.0,mongenerator-solar_670,0.0,0.0
55,0.0,0.0,0.0,0.0,0.0,0.0,0.0,mongenerator-solar_670,0.0,0.0
56,0.0,0.0,0.0,0.0,0.0,0.0,0.0,mongenerator-solar_670,0.0,0.0
57,0.0,-112.20700000000001,-0.000287987,-112.208,0.0009100719999999999,-112.209,-0.00108291,mongenerator-solar_670,0.0,0.0
58,0.0,-261.617,-0.000487181,-261.622,1.15957e-05,-261.617,-0.00116673,mongenerator-solar_670,0.0,0.0
59,0.0,-347.582,0.000227068,-347.587,-0.0020486999999999997,-347.57599999999996,-0.0023853999999999998,mongenerator-solar_670,0.0,0.0
60,0.0,-147.31799999999998,3.3844e-05,-147.31799999999998,0.00010384399999999999,-147.31799999999998,1.1326800000000001e-05,mongenerator-solar_670,0.0,0.0
61,0.0,-261.971,-0.000132932,-261.973,-0.00261592,-261.969,-0.000975651,mongenerator-solar_670,0.0,0.0
62,0.0,-261.277,-0.000215288,-261.277,0.00034512,-261.278,0.000321059,mongenerator-solar_670,0.0,0.0
63,0.0,-213.456,0.000157682,-213.455,0.00035786199999999997,-213.456,0.0005961159999999999,mongenerator-solar_670,0.0,0.0
64,0.0,-185.34400000000002,0.000135411,-185.34400000000002,0.000152026,-185.34400000000002,0.000306668,mongenerator-solar_670,0.0,0.0
65,0.0,-97.2788,0.000314492,-97.2779,0.00028910299999999997,-97.2786,0.00047782,mongenerator-solar_670,0.0,0.0
66,0.0,-7.69822,4.4064300000000004e-05,-7.6982800000000005,-2.87469e-05,-7.698119999999999,7.94093e-05,mongenerator-solar_670,0.0,0.0
67,0.0,0.0,0.0,0.0,0.0,0.0,0.0,mongenerator-solar_670,0.0,0.0
68,0.0,0.0,0.0,0.0,0.0,0.0,0.0,mongenerator-solar_670,0.0,0.0
69,0.0,0.0,0.0,0.0,0.0,0.0,0.0,mongenerator-solar_670,0.0,0.0
70,0.0,0.0,0.0,0.0,0.0,0.0,0.0,mongenerator-solar_670,0.0,0.0
71,0.0,0.0,0.0,0.0,0.0,0.0,0.0,mongenerator-solar_670,0.0,0.0
72,0.0,0.0,0.0,0.0,0.0,0.0,0.0,mongenerator-solar_670,0.0,0.0
73,0.0,0.0,0.0,0.0,0.0,0.0,0.0,mongenerator-solar_670,0.0,0.0
