hour,t(sec),V1,VAngle1,V2,VAngle2,V3,VAngle3,I1,IAngle1,I2,IAngle2,I3,IAngle3,Name,V4,VAngle4,I4,IAngle4,kv,V1(PU),V2(PU),V3(PU)
1,0.0,2278.75,112.149,0.0,0.0,,,20.24,112.149,20.24,-67.8507,,,monload-611_runway,,,,,2.4,0.9494791666666667,0.0,
2,0.0,2311.98,112.87700000000001,0.0,0.0,,,21.49,112.87700000000001,21.49,-67.1231,,,monload-611_runway,,,,,2.4,0.963325,0.0,
3,0.0,2311.98,112.87700000000001,0.0,0.0,,,18.735,112.87700000000001,18.735,-67.1228,,,monload-611_runway,,,,,2.4,0.963325,0.0,
4,0.0,2311.98,112.87700000000001,0.0,0.0,,,18.1696,112.87700000000001,18.1696,-67.1228,,,monload-611_runway,,,,,2.4,0.963325,0.0,
5,0.0,2311.98,112.87700000000001,0.0,0.0,,,18.3433,112.87700000000001,18.3433,-67.1228,,,monload-611_runway,,,,,2.4,0.963325,0.0,
6,0.0,2311.98,112.87700000000001,0.0,0.0,,,19.8621,112.87700000000001,19.8621,-67.1228,,,monload-611_runway,,,,,2.4,0.963325,0.0,
7,0.0,2311.98,112.87700000000001,0.0,0.0,,,29.8483,112.87700000000001,29.8483,-67.1228,,,monload-611_runway,,,,,2.4,0.963325,0.0,
8,0.0,2311.98,112.87700000000001,0.0,0.0,,,31.8618,112.87700000000001,31.8618,-67.1228,,,monload-611_runway,,,,,2.4,0.963325,0.0,
9,0.0,2311.98,112.87700000000001,0.0,0.0,,,44.0268,112.87700000000001,44.0268,-67.1228,,,monload-611_runway,,,,,2.4,0.963325,0.0,
10,0.0,2340.79,113.902,0.0,0.0,,,37.8158,113.90299999999999,37.8158,-66.0975,,,monload-611_runway,,,,,2.4,0.9753291666666667,0.0,
11,0.0,2360.3,114.45,0.0,0.0,,,26.7204,114.45,26.7204,-65.5505,,,monload-611_runway,,,,,2.4,0.9834583333333334,0.0,
12,0.0,2432.98,116.471,0.0,0.0,,,25.0426,116.471,25.0426,-63.5287,,,monload-611_runway,,,,,2.4,1.0137416666666668,0.0,
13,0.0,2352.01,114.21600000000001,0.0,0.0,,,24.9564,114.21700000000001,24.9564,-65.7834,,,monload-611_runway,,,,,2.4,0.9800041666666668,0.0,
14,0.0,2386.38,115.15299999999999,0.0,0.0,,,24.9959,115.15299999999999,24.9959,-64.847,,,monload-611_runway,,,,,2.4,0.994325,0.0,
15,0.0,2414.56,115.94,0.0,0.0,,,24.9268,115.941,24.9268,-64.0595,,,monload-611_runway,,,,,2.4,1.0060666666666667,0.0,
16,0.0,2419.56,116.087,0.0,0.0,,,24.7866,116.088,24.7866,-63.912,,,monload-611_runway,,,,,2.4,1.0081499999999999,0.0,
17,0.0,2368.07,114.67,0.0,0.0,,,25.989,114.67,25.989,-65.3301,,,monload-611_runway,,,,,2.4,0.9866958333333334,0.0,
18,0.0,2313.89,113.23100000000001,0.0,0.0,,,31.4301,113.23200000000001,31.4301,-66.7681,,,monload-611_runway,,,,,2.4,0.9641208333333333,0.0,
19,0.0,2298.77,112.84899999999999,0.0,0.0,,,43.1551,112.851,43.1551,-67.1495,,,monload-611_runway,,,,,2.4,0.9578208333333333,0.0,
20,0.0,2299.11,112.853,0.0,0.0,,,45.3034,112.853,45.3034,-67.1475,,,monload-611_runway,,,,,2.4,0.9579625,0.0,
21,0.0,2304.03,112.963,0.0,0.0,,,47.8087,112.963,47.8087,-67.0374,,,monload-611_runway,,,,,2.4,0.9600125,0.0,
22,0.0,2311.86,113.145,0.0,0.0,,,46.4444,113.145,46.4444,-66.8555,,,monload-611_runway,,,,,2.4,0.9632750000000001,0.0,
23,0.0,2332.92,113.65100000000001,0.0,0.0,,,35.6973,113.649,35.6973,-66.351,,,monload-611_runway,,,,,2.4,0.9720500000000001,0.0,
24,0.0,2348.76,114.046,0.0,0.0,,,22.9122,114.045,22.9122,-65.9553,,,monload-611_runway,,,,,2.4,0.9786500000000001,0.0,
25,0.0,2354.81,114.19200000000001,0.0,0.0,,,18.6667,114.204,18.6667,-65.7965,,,monload-611_runway,,,,,2.4,0.9811708333333333,0.0,
26,0.0,2355.16,114.20100000000001,0.0,0.0,,,17.8494,114.20200000000001,17.8494,-65.7978,,,monload-611_runway,,,,,2.4,0.9813166666666666,0.0,
27,0.0,2355.77,114.21700000000001,0.0,0.0,,,16.9263,114.21799999999999,16.9263,-65.7817,,,monload-611_runway,,,,,2.4,0.9815708333333333,0.0,
28,0.0,2355.74,114.21600000000001,0.0,0.0,,,17.0116,114.21600000000001,17.0116,-65.78399999999999,,,monload-611_runway,,,,,2.4,0.9815583333333332,0.0,
29,0.0,2329.56,113.59700000000001,0.0,0.0,,,17.6802,113.598,17.6802,-66.4017,,,monload-611_runway,,,,,2.4,0.97065,0.0,
30,0.0,2318.14,113.322,0.0,0.0,,,21.26,113.323,21.26,-66.6768,,,monload-611_runway,,,,,2.4,0.9658916666666666,0.0,
31,0.0,2332.83,114.00299999999999,0.0,0.0,,,33.1809,114.00299999999999,33.1809,-65.9971,,,monload-611_runway,,,,,2.4,0.9720125,0.0,
32,0.0,2277.26,112.695,0.0,0.0,,,34.808,112.695,34.808,-67.3047,,,monload-611_runway,,,,,2.4,0.9488583333333335,0.0,
33,0.0,2263.15,111.79299999999999,0.0,0.0,,,30.5346,111.791,30.5346,-68.2087,,,monload-611_runway,,,,,2.4,0.9429791666666667,0.0,
34,0.0,2255.88,111.758,0.0,0.0,,,30.7505,111.758,30.7505,-68.2424,,,monload-611_runway,,,,,2.4,0.9399500000000001,0.0,
35,0.0,2235.91,111.072,0.0,0.0,,,24.6216,111.072,24.6216,-68.928,,,monload-611_runway,,,,,2.4,0.9316291666666666,0.0,
36,0.0,2315.1,113.25399999999999,0.0,0.0,,,26.0047,113.25399999999999,26.0047,-66.7464,,,monload-611_runway,,,,,2.4,0.964625,0.0,
37,0.0,2319.13,113.255,0.0,0.0,,,26.4116,113.255,26.4116,-66.7454,,,monload-611_runway,,,,,2.4,0.9663041666666667,0.0,
38,0.0,2331.87,113.941,0.0,0.0,,,25.3752,113.941,25.3752,-66.0594,,,monload-611_runway,,,,,2.4,0.9716125,0.0,
39,0.0,2380.85,115.24600000000001,0.0,0.0,,,24.5082,115.24700000000001,24.5082,-64.7525,,,monload-611_runway,,,,,2.4,0.9920208333333332,0.0,
40,0.0,2312.31,113.37899999999999,0.0,0.0,,,24.748,113.37899999999999,24.748,-66.6207,,,monload-611_runway,,,,,2.4,0.9634625,0.0,
41,0.0,2325.88,114.206,0.0,0.0,,,25.8685,114.206,25.8685,-65.7942,,,monload-611_runway,,,,,2.4,0.9691166666666667,0.0,
42,0.0,2289.23,113.00299999999999,0.0,0.0,,,31.6633,113.00299999999999,31.6633,-66.997,,,monload-611_runway,,,,,2.4,0.9538458333333334,0.0,
43,0.0,2289.23,113.00299999999999,0.0,0.0,,,38.7986,113.00299999999999,38.7986,-66.997,,,monload-611_runway,,,,,2.4,0.9538458333333334,0.0,
44,0.0,2289.23,113.00299999999999,0.0,0.0,,,41.1781,113.00299999999999,41.1781,-66.997,,,monload-611_runway,,,,,2.4,0.9538458333333334,0.0,
45,0.0,2289.23,113.00299999999999,0.0,0.0,,,45.1231,113.00299999999999,45.1231,-66.997,,,monload-611_runway,,,,,2.4,0.9538458333333334,0.0,
46,0.0,2254.71,111.199,0.0,0.0,,,41.8047,111.196,41.8047,-68.8036,,,monload-611_runway,,,,,2.4,0.9394625,0.0,
47,0.0,2290.42,112.01100000000001,0.0,0.0,,,30.8497,112.012,30.8497,-67.9885,,,monload-611_runway,,,,,2.4,0.9543416666666666,0.0,
48,0.0,2290.42,112.01100000000001,0.0,0.0,,,21.1497,112.01100000000001,21.1497,-67.9887,,,monload-611_runway,,,,,2.4,0.9543416666666666,0.0,
49,0.0,2290.42,112.01100000000001,0.0,0.0,,,18.8942,112.01100000000001,18.8942,-67.9887,,,monload-611_runway,,,,,2.4,0.9543416666666666,0.0,
50,0.0,2290.42,112.01100000000001,0.0,0.0,,,18.3946,112.01100000000001,18.3946,-67.9887,,,monload-611_runway,,,,,2.4,0.9543416666666666,0.0,
51,0.0,2290.42,112.01100000000001,0.0,0.0,,,17.8874,112.01100000000001,17.8874,-67.9887,,,monload-611_runway,,,,,2.4,0.9543416666666666,0.0,
52,0.0,2290.42,112.01100000000001,0.0,0.0,,,18.4384,112.01100000000001,18.4384,-67.9887,,,monload-611_runway,,,,,2.4,0.9543416666666666,0.0,
53,0.0,2290.42,112.01100000000001,0.0,0.0,,,19.6598,112.01100000000001,19.6598,-67.9887,,,monload-611_runway,,,,,2.4,0.9543416666666666,0.0,
54,0.0,2290.42,112.01100000000001,0.0,0.0,,,23.9779,112.01100000000001,23.9779,-67.9887,,,monload-611_runway,,,,,2.4,0.9543416666666666,0.0,
55,0.0,2335.62,113.725,0.0,0.0,,,35.7182,113.725,35.7182,-66.2753,,,monload-611_runway,,,,,2.4,0.9731749999999999,0.0,
56,0.0,2281.38,112.45200000000001,0.0,0.0,,,35.9782,112.45200000000001,35.9782,-67.5476,,,monload-611_runway,,,,,2.4,0.9505750000000001,0.0,
57,0.0,2293.91,112.63600000000001,0.0,0.0,,,31.5574,112.62899999999999,31.5574,-67.3713,,,monload-611_runway,,,,,2.4,0.9557958333333333,0.0,
58,0.0,2323.88,113.29299999999999,0.0,0.0,,,31.2533,113.29299999999999,31.2533,-66.7067,,,monload-611_runway,,,,,2.4,0.9682833333333334,0.0,
59,0.0,2378.6,114.788,0.0,0.0,,,24.7817,114.785,24.7817,-65.2147,,,monload-611_runway,,,,,2.4,0.9910833333333333,0.0,
60,0.0,2316.02,113.24799999999999,0.0,0.0,,,25.9092,113.24799999999999,25.9092,-66.7515,,,monload-611_runway,,,,,2.4,0.9650083333333334,0.0,
61,0.0,2369.44,115.11,0.0,0.0,,,27.1001,115.11200000000001,27.1001,-64.8881,,,monload-611_runway,,,,,2.4,0.9872666666666667,0.0,
62,0.0,2359.37,114.868,0.0,0.0,,,27.5835,114.868,27.5835,-65.1322,,,monload-611_runway,,,,,2.4,0.9830708333333333,0.0,
63,0.0,2332.2,114.10700000000001,0.0,0.0,,,27.9419,114.10700000000001,27.9419,-65.893,,,monload-611_runway,,,,,2.4,0.9717499999999999,0.0,
64,0.0,2314.36,113.62100000000001,0.0,0.0,,,28.0794,113.62100000000001,28.0794,-66.3792,,,monload-611_runway,,,,,2.4,0.9643166666666667,0.0,
65,0.0,2304.79,113.574,0.0,0.0,,,28.5183,113.574,28.5183,-66.4259,,,monload-611_runway,,,,,2.4,0.9603291666666667,0.0,
66,0.0,2261.4,112.361,0.0,0.0,,,32.3185,112.36,32.3185,-67.6397,,,monload-611_runway,,,,,2.4,0.94225,0.0,
67,0.0,2261.4,112.361,0.0,0.0,,,38.3945,112.361,38.3945,-67.6394,,,monload-611_runway,,,,,2.4,0.94225,0.0,
68,0.0,2261.4,112.361,0.0,0.0,,,40.519,112.361,40.519,-67.6394,,,monload-611_runway,,,,,2.4,0.94225,0.0,
69,0.0,2248.5,111.06299999999999,0.0,0.0,,,44.1499,111.06,44.1499,-68.94,,,monload-611_runway,,,,,2.4,0.936875,0.0,
70,0.0,2261.88,111.363,0.0,0.0,,,41.5996,111.363,41.5996,-68.6368,,,monload-611_runway,,,,,2.4,0.94245,0.0,
71,0.0,2261.88,111.363,0.0,0.0,,,30.615,111.363,30.615,-68.6367,,,monload-611_runway,,,,,2.4,0.94245,0.0,
72,0.0,2261.88,111.363,0.0,0.0,,,21.0169,111.363,21.0169,-68.6367,,,monload-611_runway,,,,,2.4,0.94245,0.0,
73,0.0,2261.88,111.363,0.0,0.0,,,18.4227,111.363,18.4227,-68.6367,,,monload-611_runway,,,,,2.4,0.94245,0.0,
74,0.0,2261.88,111.363,0.0,0.0,,,17.5643,111.363,17.5643,-68.6367,,,monload-611_runway,,,,,2.4,0.94245,0.0,
75,0.0,2261.88,111.363,0.0,0.0,,,16.6018,111.363,16.6018,-68.6367,,,monload-611_runway,,,,,2.4,0.94245,0.0,
76,0.0,2261.88,111.363,0.0,0.0,,,16.6683,111.363,16.6683,-68.6367,,,monload-611_runway,,,,,2.4,0.94245,0.0,
77,0.0,2261.88,111.363,0.0,0.0,,,17.3659,111.363,17.3659,-68.6367,,,monload-611_runway,,,,,2.4,0.94245,0.0,
78,0.0,2261.88,111.363,0.0,0.0,,,20.7475,111.363,20.7475,-68.6367,,,monload-611_runway,,,,,2.4,0.94245,0.0,
79,0.0,2316.82,113.274,0.0,0.0,,,32.7171,113.274,32.7171,-66.7258,,,monload-611_runway,,,,,2.4,0.9653416666666668,0.0,
80,0.0,2290.82,112.67200000000001,0.0,0.0,,,34.9942,112.67200000000001,34.9942,-67.3277,,,monload-611_runway,,,,,2.4,0.9545083333333334,0.0,
81,0.0,2331.64,113.63799999999999,0.0,0.0,,,30.82,113.63799999999999,30.82,-66.362,,,monload-611_runway,,,,,2.4,0.9715166666666666,0.0,
82,0.0,2395.61,116.09100000000001,0.0,0.0,,,30.1071,116.09100000000001,30.1071,-63.9092,,,monload-611_runway,,,,,2.4,0.9981708333333333,0.0,
83,0.0,2466.32,118.24799999999999,0.0,0.0,,,23.08,118.244,23.08,-61.7556,,,monload-611_runway,,,,,2.4,1.0276333333333334,0.0,
84,0.0,2499.96,119.773,0.0,0.0,,,23.6213,119.773,23.6213,-60.2274,,,monload-611_runway,,,,,2.4,1.04165,0.0,
85,0.0,2569.57,122.306,0.0,0.0,,,25.2196,122.306,25.2196,-57.6937,,,monload-611_runway,,,,,2.4,1.0706541666666667,0.0,
86,0.0,2549.02,121.68700000000001,0.0,0.0,,,26.3605,121.686,26.3605,-58.3142,,,monload-611_runway,,,,,2.4,1.0620916666666667,0.0,
87,0.0,2502.14,120.16,0.0,0.0,,,26.4039,120.161,26.4039,-59.8391,,,monload-611_runway,,,,,2.4,1.0425583333333333,0.0,
88,0.0,2424.1,117.71600000000001,0.0,0.0,,,26.3335,117.71700000000001,26.3335,-62.2834,,,monload-611_runway,,,,,2.4,1.0100416666666667,0.0,
89,0.0,2318.02,114.21,0.0,0.0,,,27.5633,114.21,27.5633,-65.7898,,,monload-611_runway,,,,,2.4,0.9658416666666667,0.0,
90,0.0,2298.34,113.29299999999999,0.0,0.0,,,33.8235,113.29299999999999,33.8235,-66.7068,,,monload-611_runway,,,,,2.4,0.9576416666666667,0.0,
91,0.0,2284.59,112.82600000000001,0.0,0.0,,,41.4629,112.82700000000001,41.4629,-67.1733,,,monload-611_runway,,,,,2.4,0.9519125,0.0,
92,0.0,2284.59,112.82600000000001,0.0,0.0,,,44.545,112.82600000000001,44.545,-67.1736,,,monload-611_runway,,,,,2.4,0.9519125,0.0,
93,0.0,2284.59,112.82600000000001,0.0,0.0,,,49.2734,112.82600000000001,49.2734,-67.1736,,,monload-611_runway,,,,,2.4,0.9519125,0.0,
94,0.0,2247.42,111.036,0.0,0.0,,,45.7156,111.03299999999999,45.7156,-68.9668,,,monload-611_runway,,,,,2.4,0.9364250000000001,0.0,
95,0.0,2282.07,111.839,0.0,0.0,,,34.3923,111.838,34.3923,-68.1617,,,monload-611_runway,,,,,2.4,0.9508625,0.0,
96,0.0,2282.07,111.839,0.0,0.0,,,24.0131,111.839,24.0131,-68.1605,,,monload-611_runway,,,,,2.4,0.9508625,0.0,
97,0.0,2282.07,111.839,0.0,0.0,,,21.7964,111.839,21.7964,-68.1605,,,monload-611_runway,,,,,2.4,0.9508625,0.0,
98,0.0,2282.07,111.839,0.0,0.0,,,20.8093,111.839,20.8093,-68.1605,,,monload-611_runway,,,,,2.4,0.9508625,0.0,
99,0.0,2282.07,111.839,0.0,0.0,,,19.5335,111.839,19.5335,-68.1605,,,monload-611_runway,,,,,2.4,0.9508625,0.0,
100,0.0,2282.07,111.839,0.0,0.0,,,19.3539,111.839,19.3539,-68.1605,,,monload-611_runway,,,,,2.4,0.9508625,0.0,
101,0.0,2282.07,111.839,0.0,0.0,,,19.795,111.839,19.795,-68.1605,,,monload-611_runway,,,,,2.4,0.9508625,0.0,
102,0.0,2282.07,111.839,0.0,0.0,,,23.6849,111.839,23.6849,-68.1605,,,monload-611_runway,,,,,2.4,0.9508625,0.0,
103,0.0,2301.44,112.925,0.0,0.0,,,38.4226,112.92399999999999,38.4226,-67.0756,,,monload-611_runway,,,,,2.4,0.9589333333333333,0.0,
104,0.0,2273.34,112.275,0.0,0.0,,,42.5714,112.274,42.5714,-67.7256,,,monload-611_runway,,,,,2.4,0.9472250000000001,0.0,
105,0.0,2317.84,113.353,0.0,0.0,,,39.7651,113.352,39.7651,-66.6476,,,monload-611_runway,,,,,2.4,0.9657666666666668,0.0,
106,0.0,2408.71,116.40700000000001,0.0,0.0,,,42.458999999999996,116.40899999999999,42.458999999999996,-63.591,,,monload-611_runway,,,,,2.4,1.0036291666666666,0.0,
107,0.0,2411.36,116.561,0.0,0.0,,,36.7749,116.561,36.7749,-63.4391,,,monload-611_runway,,,,,2.4,1.0047333333333335,0.0,
108,0.0,2491.3,119.26700000000001,0.0,0.0,,,34.924,119.266,34.924,-60.7336,,,monload-611_runway,,,,,2.4,1.0380416666666668,0.0,
109,0.0,2550.8,121.81700000000001,0.0,0.0,,,35.7623,121.816,35.7623,-58.1837,,,monload-611_runway,,,,,2.4,1.0628333333333335,0.0,
110,0.0,2526.74,121.08,0.0,0.0,,,36.2477,121.081,36.2477,-58.9194,,,monload-611_runway,,,,,2.4,1.0528083333333333,0.0,
111,0.0,2478.57,119.516,0.0,0.0,,,36.556999999999995,119.51700000000001,36.556999999999995,-60.4834,,,monload-611_runway,,,,,2.4,1.0327375,0.0,
112,0.0,2402.28,117.13600000000001,0.0,0.0,,,35.8436,117.137,35.8436,-62.8631,,,monload-611_runway,,,,,2.4,1.00095,0.0,
113,0.0,2313.14,113.71799999999999,0.0,0.0,,,37.3236,113.71700000000001,37.3236,-66.2825,,,monload-611_runway,,,,,2.4,0.9638083333333333,0.0,
114,0.0,2287.11,113.00299999999999,0.0,0.0,,,42.3539,113.00299999999999,42.3539,-66.9971,,,monload-611_runway,,,,,2.4,0.9529625,0.0,
115,0.0,2282.76,112.771,0.0,0.0,,,48.2942,112.771,48.2942,-67.2286,,,monload-611_runway,,,,,2.4,0.95115,0.0,
116,0.0,2282.76,112.771,0.0,0.0,,,50.8826,112.771,50.8826,-67.2288,,,monload-611_runway,,,,,2.4,0.95115,0.0,
117,0.0,2282.76,112.771,0.0,0.0,,,55.1034,112.771,55.1034,-67.2288,,,monload-611_runway,,,,,2.4,0.95115,0.0,
118,0.0,2282.76,112.771,0.0,0.0,,,52.4571,112.771,52.4571,-67.2288,,,monload-611_runway,,,,,2.4,0.95115,0.0,
119,0.0,2282.76,112.771,0.0,0.0,,,40.733000000000004,112.771,40.733000000000004,-67.2288,,,monload-611_runway,,,,,2.4,0.95115,0.0,
120,0.0,2282.76,112.771,0.0,0.0,,,29.5798,112.771,29.5798,-67.2288,,,monload-611_runway,,,,,2.4,0.95115,0.0,
121,0.0,2282.76,112.771,0.0,0.0,,,25.8806,112.771,25.8806,-67.2288,,,monload-611_runway,,,,,2.4,0.95115,0.0,
122,0.0,2282.76,112.771,0.0,0.0,,,24.5759,112.771,24.5759,-67.2288,,,monload-611_runway,,,,,2.4,0.95115,0.0,
123,0.0,2282.76,112.771,0.0,0.0,,,22.9971,112.771,22.9971,-67.2288,,,monload-611_runway,,,,,2.4,0.95115,0.0,
124,0.0,2282.76,112.771,0.0,0.0,,,22.3842,112.771,22.3842,-67.2288,,,monload-611_runway,,,,,2.4,0.95115,0.0,
125,0.0,2282.76,112.771,0.0,0.0,,,22.8134,112.771,22.8134,-67.2288,,,monload-611_runway,,,,,2.4,0.95115,0.0,
126,0.0,2282.76,112.771,0.0,0.0,,,26.7316,112.771,26.7316,-67.2288,,,monload-611_runway,,,,,2.4,0.95115,0.0,
127,0.0,2282.76,112.771,0.0,0.0,,,41.3038,112.771,41.3038,-67.2288,,,monload-611_runway,,,,,2.4,0.95115,0.0,
128,0.0,2282.76,112.771,0.0,0.0,,,45.5509,112.771,45.5509,-67.2288,,,monload-611_runway,,,,,2.4,0.95115,0.0,
129,0.0,2282.76,112.771,0.0,0.0,,,44.0571,112.771,44.0571,-67.2288,,,monload-611_runway,,,,,2.4,0.95115,0.0,
130,0.0,2282.76,112.771,0.0,0.0,,,44.3574,112.771,44.3574,-67.2288,,,monload-611_runway,,,,,2.4,0.95115,0.0,
131,0.0,2397.8,116.073,0.0,0.0,,,38.3172,116.073,38.3172,-63.9271,,,monload-611_runway,,,,,2.4,0.9990833333333334,0.0,
132,0.0,2392.32,115.775,0.0,0.0,,,39.0492,115.77600000000001,39.0492,-64.2241,,,monload-611_runway,,,,,2.4,0.9968,0.0,
133,0.0,2461.2,118.51100000000001,0.0,0.0,,,39.7514,118.51100000000001,39.7514,-61.4894,,,monload-611_runway,,,,,2.4,1.0254999999999999,0.0,
134,0.0,2460.98,118.50200000000001,0.0,0.0,,,40.3209,118.50200000000001,40.3209,-61.4978,,,monload-611_runway,,,,,2.4,1.0254083333333333,0.0,
135,0.0,2463.58,118.57600000000001,0.0,0.0,,,40.0177,118.57700000000001,40.0177,-61.4235,,,monload-611_runway,,,,,2.4,1.0264916666666666,0.0,
136,0.0,2392.15,116.402,0.0,0.0,,,38.751,116.40299999999999,38.751,-63.5972,,,monload-611_runway,,,,,2.4,0.9967291666666667,0.0,
137,0.0,2300.1,113.369,0.0,0.0,,,37.858000000000004,113.369,37.858000000000004,-66.6311,,,monload-611_runway,,,,,2.4,0.958375,0.0,
138,0.0,2281.41,112.861,0.0,0.0,,,42.9001,112.861,42.9001,-67.1393,,,monload-611_runway,,,,,2.4,0.9505874999999999,0.0,
139,0.0,2272.2,112.523,0.0,0.0,,,49.7968,112.523,49.7968,-67.4765,,,monload-611_runway,,,,,2.4,0.9467499999999999,0.0,
140,0.0,2272.2,112.523,0.0,0.0,,,52.4877,112.523,52.4877,-67.4765,,,monload-611_runway,,,,,2.4,0.9467499999999999,0.0,
141,0.0,2272.2,112.523,0.0,0.0,,,56.9815,112.523,56.9815,-67.4765,,,monload-611_runway,,,,,2.4,0.9467499999999999,0.0,
142,0.0,2272.2,112.523,0.0,0.0,,,51.4751,112.523,51.4751,-67.4765,,,monload-611_runway,,,,,2.4,0.9467499999999999,0.0,
143,0.0,2272.2,112.523,0.0,0.0,,,36.9508,112.523,36.9508,-67.4765,,,monload-611_runway,,,,,2.4,0.9467499999999999,0.0,
144,0.0,2272.2,112.523,0.0,0.0,,,25.226,112.523,25.226,-67.4765,,,monload-611_runway,,,,,2.4,0.9467499999999999,0.0,
145,0.0,2272.2,112.523,0.0,0.0,,,23.0311,112.523,23.0311,-67.4765,,,monload-611_runway,,,,,2.4,0.9467499999999999,0.0,
146,0.0,2272.2,112.523,0.0,0.0,,,22.6335,112.523,22.6335,-67.4765,,,monload-611_runway,,,,,2.4,0.9467499999999999,0.0,
147,0.0,2272.2,112.523,0.0,0.0,,,19.4282,112.523,19.4282,-67.4765,,,monload-611_runway,,,,,2.4,0.9467499999999999,0.0,
148,0.0,2272.2,112.523,0.0,0.0,,,19.0846,112.523,19.0846,-67.4765,,,monload-611_runway,,,,,2.4,0.9467499999999999,0.0,
149,0.0,2272.2,112.523,0.0,0.0,,,19.3698,112.523,19.3698,-67.4765,,,monload-611_runway,,,,,2.4,0.9467499999999999,0.0,
150,0.0,2272.2,112.523,0.0,0.0,,,20.717,112.523,20.717,-67.4765,,,monload-611_runway,,,,,2.4,0.9467499999999999,0.0,
151,0.0,2272.2,112.523,0.0,0.0,,,30.5506,112.523,30.5506,-67.4765,,,monload-611_runway,,,,,2.4,0.9467499999999999,0.0,
152,0.0,2272.2,112.523,0.0,0.0,,,32.4402,112.523,32.4402,-67.4765,,,monload-611_runway,,,,,2.4,0.9467499999999999,0.0,
153,0.0,2272.2,112.523,0.0,0.0,,,45.3813,112.523,45.3813,-67.4765,,,monload-611_runway,,,,,2.4,0.9467499999999999,0.0,
154,0.0,2272.2,112.523,0.0,0.0,,,40.473,112.523,40.473,-67.4765,,,monload-611_runway,,,,,2.4,0.9467499999999999,0.0,
155,0.0,2470.43,118.223,0.0,0.0,,,31.8176,118.22200000000001,31.8176,-61.7779,,,monload-611_runway,,,,,2.4,1.0293458333333332,0.0,
156,0.0,2525.41,120.28399999999999,0.0,0.0,,,31.4098,120.28299999999999,31.4098,-59.717,,,monload-611_runway,,,,,2.4,1.0522541666666667,0.0,
157,0.0,2544.04,121.01700000000001,0.0,0.0,,,32.3337,121.01700000000001,32.3337,-58.9833,,,monload-611_runway,,,,,2.4,1.0600166666666666,0.0,
158,0.0,2534.56,120.696,0.0,0.0,,,31.9495,120.696,31.9495,-59.3042,,,monload-611_runway,,,,,2.4,1.0560666666666667,0.0,
159,0.0,2488.93,119.26,0.0,0.0,,,32.0361,119.26,32.0361,-60.7396,,,monload-611_runway,,,,,2.4,1.0370541666666666,0.0,
160,0.0,2380.43,115.971,0.0,0.0,,,33.0122,115.97200000000001,33.0122,-64.0282,,,monload-611_runway,,,,,2.4,0.9918458333333333,0.0,
