hour,t(sec),P1(kW),Q1(kvar),P2(kW),Q2(kvar),P3(kW),Q3(kvar),Name,P4(kW),Q4(kvar)
1,0.0,0.0,0.0,0.0,0.0,0.0,0.0,mongenerator-diesel_634,,
2,0.0,0.0,0.0,0.0,0.0,0.0,0.0,mongenerator-diesel_634,,
3,0.0,0.0,0.0,0.0,0.0,0.0,0.0,mongenerator-diesel_634,,
4,0.0,0.0,0.0,0.0,0.0,0.0,0.0,mongenerator-diesel_634,,
5,0.0,0.0,0.0,0.0,0.0,0.0,0.0,mongenerator-diesel_634,,
6,0.0,0.0,0.0,0.0,0.0,0.0,0.0,mongenerator-diesel_634,,
7,0.0,0.0,0.0,0.0,0.0,0.0,0.0,mongenerator-diesel_634,,
8,0.0,0.0,0.0,0.0,0.0,0.0,0.0,mongenerator-diesel_634,,
9,0.0,0.0,0.0,0.0,0.0,0.0,0.0,mongenerator-diesel_634,,
10,0.0,0.0,0.0,0.0,0.0,0.0,0.0,mongenerator-diesel_634,,
11,0.0,0.0,0.0,0.0,0.0,0.0,0.0,mongenerator-diesel_634,,
12,0.0,0.0,0.0,0.0,0.0,0.0,0.0,mongenerator-diesel_634,,
13,0.0,0.0,0.0,0.0,0.0,0.0,0.0,mongenerator-diesel_634,,
14,0.0,0.0,0.0,0.0,0.0,0.0,0.0,mongenerator-diesel_634,,
15,0.0,0.0,0.0,0.0,0.0,0.0,0.0,mongenerator-diesel_634,,
16,0.0,0.0,0.0,0.0,0.0,0.0,0.0,mongenerator-diesel_634,,
17,0.0,0.0,0.0,0.0,0.0,0.0,0.0,mongenerator-diesel_634,,
18,0.0,0.0,0.0,0.0,0.0,0.0,0.0,mongenerator-diesel_634,,
19,0.0,0.0,0.0,0.0,0.0,0.0,0.0,mongenerator-diesel_634,,
20,0.0,0.0,0.0,0.0,0.0,0.0,0.0,mongenerator-diesel_634,,
21,0.0,0.0,0.0,0.0,0.0,0.0,0.0,mongenerator-diesel_634,,
22,0.0,0.0,0.0,0.0,0.0,0.0,0.0,mongenerator-diesel_634,,
23,0.0,0.0,0.0,0.0,0.0,0.0,0.0,mongenerator-diesel_634,,
24,0.0,0.0,0.0,0.0,0.0,0.0,0.0,mongenerator-diesel_634,,
25,0.0,0.0,0.0,0.0,0.0,0.0,0.0,mongenerator-diesel_634,,
26,0.0,0.0,0.0,0.0,0.0,0.0,0.0,mongenerator-diesel_634,,
27,0.0,0.0,0.0,0.0,0.0,0.0,0.0,mongenerator-diesel_634,,
28,0.0,0.0,0.0,0.0,0.0,0.0,0.0,mongenerator-diesel_634,,
29,0.0,0.0,0.0,0.0,0.0,0.0,0.0,mongenerator-diesel_634,,
30,0.0,0.0,0.0,0.0,0.0,0.0,0.0,mongenerator-diesel_634,,
31,0.0,0.0,0.0,0.0,0.0,0.0,0.0,mongenerator-diesel_634,,
32,0.0,0.0,0.0,0.0,0.0,0.0,0.0,mongenerator-diesel_634,,
33,0.0,0.0,0.0,0.0,0.0,0.0,0.0,mongenerator-diesel_634,,
34,0.0,0.0,0.0,0.0,0.0,0.0,0.0,mongenerator-diesel_634,,
35,0.0,0.0,0.0,0.0,0.0,0.0,0.0,mongenerator-diesel_634,,
36,0.0,0.0,0.0,0.0,0.0,0.0,0.0,mongenerator-diesel_634,,
37,0.0,0.0,0.0,0.0,0.0,0.0,0.0,mongenerator-diesel_634,,
38,0.0,0.0,0.0,0.0,0.0,0.0,0.0,mongenerator-diesel_634,,
39,0.0,0.0,0.0,0.0,0.0,0.0,0.0,mongenerator-diesel_634,,
40,0.0,0.0,0.0,0.0,0.0,0.0,0.0,mongenerator-diesel_634,,
41,0.0,0.0,0.0,0.0,0.0,0.0,0.0,mongenerator-diesel_634,,
42,0.0,0.0,0.0,0.0,0.0,0.0,0.0,mongenerator-diesel_634,,
43,0.0,0.0,0.0,0.0,0.0,0.0,0.0,mongenerator-diesel_634,,
44,0.0,0.0,0.0,0.0,0.0,0.0,0.0,mongenerator-diesel_634,,
45,0.0,0.0,0.0,0.0,0.0,0.0,0.0,mongenerator-diesel_634,,
46,0.0,0.0,0.0,0.0,0.0,0.0,0.0,mongenerator-diesel_634,,
47,0.0,0.0,0.0,0.0,0.0,0.0,0.0,mongenerator-diesel_634,,
48,0.0,0.0,0.0,0.0,0.0,0.0,0.0,mongenerator-diesel_634,,
49,0.0,0.0,0.0,0.0,0.0,0.0,0.0,mongenerator-diesel_634,,
50,0.0,0.0,0.0,0.0,0.0,0.0,0.0,mongenerator-diesel_634,,
51,0.0,0.0,0.0,0.0,0.0,0.0,0.0,mongenerator-diesel_634,,
52,0.0,0.0,0.0,0.0,0.0,0.0,0.0,mongenerator-diesel_634,,
53,0.0,0.0,0.0,0.0,0.0,0.0,0.0,mongenerator-diesel_634,,
54,0.0,0.0,0.0,0.0,0.0,0.0,0.0,mongenerator-diesel_634,,
55,0.0,0.0,0.0,0.0,0.0,0.0,0.0,mongenerator-diesel_634,,
56,0.0,0.0,0.0,0.0,0.0,0.0,0.0,mongenerator-diesel_634,,
57,0.0,0.0,0.0,0.0,0.0,0.0,0.0,mongenerator-diesel_634,,
58,0.0,0.0,0.0,0.0,0.0,0.0,0.0,mongenerator-diesel_634,,
59,0.0,0.0,0.0,0.0,0.0,0.0,0.0,mongenerator-diesel_634,,
60,0.0,0.0,0.0,0.0,0.0,0.0,0.0,mongenerator-diesel_634,,
61,0.0,0.0,0.0,0.0,0.0,0.0,0.0,mongenerator-diesel_634,,
62,0.0,0.0,0.0,0.0,0.0,0.0,0.0,mongenerator-diesel_634,,
63,0.0,0.0,0.0,0.0,0.0,0.0,0.0,mongenerator-diesel_634,,
64,0.0,0.0,0.0,0.0,0.0,0.0,0.0,mongenerator-diesel_634,,
65,0.0,0.0,0.0,0.0,0.0,0.0,0.0,mongenerator-diesel_634,,
66,0.0,0.0,0.0,0.0,0.0,0.0,0.0,mongenerator-diesel_634,,
67,0.0,0.0,0.0,0.0,0.0,0.0,0.0,mongenerator-diesel_634,,
68,0.0,0.0,0.0,0.0,0.0,0.0,0.0,mongenerator-diesel_634,,
69,0.0,0.0,0.0,0.0,0.0,0.0,0.0,mongenerator-diesel_634,,
70,0.0,0.0,0.0,0.0,0.0,0.0,0.0,mongenerator-diesel_634,,
71,0.0,0.0,0.0,0.0,0.0,0.0,0.0,mongenerator-diesel_634,,
72,0.0,0.0,0.0,0.0,0.0,0.0,0.0,mongenerator-diesel_634,,
73,0.0,0.0,0.0,0.0,0.0,0.0,0.0,mongenerator-diesel_634,,
74,0.0,0.0,0.0,0.0,0.0,0.0,0.0,mongenerator-diesel_634,,
75,0.0,0.0,0.0,0.0,0.0,0.0,0.0,mongenerator-diesel_634,,
76,0.0,0.0,0.0,0.0,0.0,0.0,0.0,mongenerator-diesel_634,,
77,0.0,0.0,0.0,0.0,0.0,0.0,0.0,mongenerator-diesel_634,,
78,0.0,0.0,0.0,0.0,0.0,0.0,0.0,mongenerator-diesel_634,,
79,0.0,0.0,0.0,0.0,0.0,0.0,0.0,mongenerator-diesel_634,,
80,0.0,0.0,0.0,0.0,0.0,0.0,0.0,mongenerator-diesel_634,,
81,0.0,0.0,0.0,0.0,0.0,0.0,0.0,mongenerator-diesel_634,,
82,0.0,0.0,0.0,0.0,0.0,0.0,0.0,mongenerator-diesel_634,,
83,0.0,0.0,0.0,0.0,0.0,0.0,0.0,mongenerator-diesel_634,,
84,0.0,0.0,0.0,0.0,0.0,0.0,0.0,mongenerator-diesel_634,,
85,0.0,0.0,0.0,0.0,0.0,0.0,0.0,mongenerator-diesel_634,,
86,0.0,0.0,0.0,0.0,0.0,0.0,0.0,mongenerator-diesel_634,,
87,0.0,0.0,0.0,0.0,0.0,0.0,0.0,mongenerator-diesel_634,,
88,0.0,0.0,0.0,0.0,0.0,0.0,0.0,mongenerator-diesel_634,,
89,0.0,0.0,0.0,0.0,0.0,0.0,0.0,mongenerator-diesel_634,,
90,0.0,0.0,0.0,0.0,0.0,0.0,0.0,mongenerator-diesel_634,,
91,0.0,0.0,0.0,0.0,0.0,0.0,0.0,mongenerator-diesel_634,,
92,0.0,0.0,0.0,0.0,0.0,0.0,0.0,mongenerator-diesel_634,,
93,0.0,0.0,0.0,0.0,0.0,0.0,0.0,mongenerator-diesel_634,,
94,0.0,0.0,0.0,0.0,0.0,0.0,0.0,mongenerator-diesel_634,,
95,0.0,0.0,0.0,0.0,0.0,0.0,0.0,mongenerator-diesel_634,,
96,0.0,0.0,0.0,0.0,0.0,0.0,0.0,mongenerator-diesel_634,,
97,0.0,0.0,0.0,0.0,0.0,0.0,0.0,mongenerator-diesel_634,,
98,0.0,0.0,0.0,0.0,0.0,0.0,0.0,mongenerator-diesel_634,,
99,0.0,0.0,0.0,0.0,0.0,0.0,0.0,mongenerator-diesel_634,,
100,0.0,0.0,0.0,0.0,0.0,0.0,0.0,mongenerator-diesel_634,,
101,0.0,0.0,0.0,0.0,0.0,0.0,0.0,mongenerator-diesel_634,,
102,0.0,0.0,0.0,0.0,0.0,0.0,0.0,mongenerator-diesel_634,,
103,0.0,0.0,0.0,0.0,0.0,0.0,0.0,mongenerator-diesel_634,,
104,0.0,0.0,0.0,0.0,0.0,0.0,0.0,mongenerator-diesel_634,,
105,0.0,0.0,0.0,0.0,0.0,0.0,0.0,mongenerator-diesel_634,,
106,0.0,0.0,0.0,0.0,0.0,0.0,0.0,mongenerator-diesel_634,,
107,0.0,0.0,0.0,0.0,0.0,0.0,0.0,mongenerator-diesel_634,,
108,0.0,0.0,0.0,0.0,0.0,0.0,0.0,mongenerator-diesel_634,,
109,0.0,0.0,0.0,0.0,0.0,0.0,0.0,mongenerator-diesel_634,,
110,0.0,0.0,0.0,0.0,0.0,0.0,0.0,mongenerator-diesel_634,,
111,0.0,0.0,0.0,0.0,0.0,0.0,0.0,mongenerator-diesel_634,,
112,0.0,0.0,0.0,0.0,0.0,0.0,0.0,mongenerator-diesel_634,,
113,0.0,0.0,0.0,0.0,0.0,0.0,0.0,mongenerator-diesel_634,,
114,0.0,0.0,0.0,0.0,0.0,0.0,0.0,mongenerator-diesel_634,,
115,0.0,0.0,0.0,0.0,0.0,0.0,0.0,mongenerator-diesel_634,,
116,0.0,0.0,0.0,0.0,0.0,0.0,0.0,mongenerator-diesel_634,,
117,0.0,0.0,0.0,0.0,0.0,0.0,0.0,mongenerator-diesel_634,,
118,0.0,0.0,0.0,0.0,0.0,0.0,0.0,mongenerator-diesel_634,,
119,0.0,0.0,0.0,0.0,0.0,0.0,0.0,mongenerator-diesel_634,,
120,0.0,0.0,0.0,0.0,0.0,0.0,0.0,mongenerator-diesel_634,,
121,0.0,0.0,0.0,0.0,0.0,0.0,0.0,mongenerator-diesel_634,,
122,0.0,0.0,0.0,0.0,0.0,0.0,0.0,mongenerator-diesel_634,,
123,0.0,0.0,0.0,0.0,0.0,0.0,0.0,mongenerator-diesel_634,,
124,0.0,0.0,0.0,0.0,0.0,0.0,0.0,mongenerator-diesel_634,,
125,0.0,0.0,0.0,0.0,0.0,0.0,0.0,mongenerator-diesel_634,,
126,0.0,0.0,0.0,0.0,0.0,0.0,0.0,mongenerator-diesel_634,,
127,0.0,0.0,0.0,0.0,0.0,0.0,0.0,mongenerator-diesel_634,,
128,0.0,0.0,0.0,0.0,0.0,0.0,0.0,mongenerator-diesel_634,,
129,0.0,0.0,0.0,0.0,0.0,0.0,0.0,mongenerator-diesel_634,,
130,0.0,0.0,0.0,0.0,0.0,0.0,0.0,mongenerator-diesel_634,,
131,0.0,0.0,0.0,0.0,0.0,0.0,0.0,mongenerator-diesel_634,,
132,0.0,0.0,0.0,0.0,0.0,0.0,0.0,mongenerator-diesel_634,,
133,0.0,0.0,0.0,0.0,0.0,0.0,0.0,mongenerator-diesel_634,,
134,0.0,0.0,0.0,0.0,0.0,0.0,0.0,mongenerator-diesel_634,,
135,0.0,0.0,0.0,0.0,0.0,0.0,0.0,mongenerator-diesel_634,,
136,0.0,0.0,0.0,0.0,0.0,0.0,0.0,mongenerator-diesel_634,,
137,0.0,0.0,0.0,0.0,0.0,0.0,0.0,mongenerator-diesel_634,,
138,0.0,0.0,0.0,0.0,0.0,0.0,0.0,mongenerator-diesel_634,,
139,0.0,0.0,0.0,0.0,0.0,0.0,0.0,mongenerator-diesel_634,,
140,0.0,0.0,0.0,0.0,0.0,0.0,0.0,mongenerator-diesel_634,,
141,0.0,0.0,0.0,0.0,0.0,0.0,0.0,mongenerator-diesel_634,,
142,0.0,0.0,0.0,0.0,0.0,0.0,0.0,mongenerator-diesel_634,,
143,0.0,0.0,0.0,0.0,0.0,0.0,0.0,mongenerator-diesel_634,,
144,0.0,0.0,0.0,0.0,0.0,0.0,0.0,mongenerator-diesel_634,,
145,0.0,0.0,0.0,0.0,0.0,0.0,0.0,mongenerator-diesel_634,,
146,0.0,0.0,0.0,0.0,0.0,0.0,0.0,mongenerator-diesel_634,,
147,0.0,0.0,0.0,0.0,0.0,0.0,0.0,mongenerator-diesel_634,,
148,0.0,0.0,0.0,0.0,0.0,0.0,0.0,mongenerator-diesel_634,,
149,0.0,0.0,0.0,0.0,0.0,0.0,0.0,mongenerator-diesel_634,,
150,0.0,0.0,0.0,0.0,0.0,0.0,0.0,mongenerator-diesel_634,,
151,0.0,0.0,0.0,0.0,0.0,0.0,0.0,mongenerator-diesel_634,,
152,0.0,0.0,0.0,0.0,0.0,0.0,0.0,mongenerator-diesel_634,,
153,0.0,0.0,0.0,0.0,0.0,0.0,0.0,mongenerator-diesel_634,,
154,0.0,0.0,0.0,0.0,0.0,0.0,0.0,mongenerator-diesel_634,,
155,0.0,0.0,0.0,0.0,0.0,0.0,0.0,mongenerator-diesel_634,,
156,0.0,0.0,0.0,0.0,0.0,0.0,0.0,mongenerator-diesel_634,,
157,0.0,0.0,0.0,0.0,0.0,0.0,0.0,mongenerator-diesel_634,,
158,0.0,0.0,0.0,0.0,0.0,0.0,0.0,mongenerator-diesel_634,,
159,0.0,0.0,0.0,0.0,0.0,0.0,0.0,mongenerator-diesel_634,,
160,0.0,0.0,0.0,0.0,0.0,0.0,0.0,mongenerator-diesel_634,,
161,0.0,0.0,0.0,0.0,0.0,0.0,0.0,mongenerator-diesel_634,,
162,0.0,0.0,0.0,0.0,0.0,0.0,0.0,mongenerator-diesel_634,,
163,0.0,0.0,0.0,0.0,0.0,0.0,0.0,mongenerator-diesel_634,,
164,0.0,0.0,0.0,0.0,0.0,0.0,0.0,mongenerator-diesel_634,,
165,0.0,0.0,0.0,0.0,0.0,0.0,0.0,mongenerator-diesel_634,,
166,0.0,0.0,0.0,0.0,0.0,0.0,0.0,mongenerator-diesel_634,,
167,0.0,0.0,0.0,0.0,0.0,0.0,0.0,mongenerator-diesel_634,,
168,0.0,0.0,0.0,0.0,0.0,0.0,0.0,mongenerator-diesel_634,,
169,0.0,0.0,0.0,0.0,0.0,0.0,0.0,mongenerator-diesel_634,,
170,0.0,0.0,0.0,0.0,0.0,0.0,0.0,mongenerator-diesel_634,,
171,0.0,0.0,0.0,0.0,0.0,0.0,0.0,mongenerator-diesel_634,,
172,0.0,0.0,0.0,0.0,0.0,0.0,0.0,mongenerator-diesel_634,,
173,0.0,0.0,0.0,0.0,0.0,0.0,0.0,mongenerator-diesel_634,,
174,0.0,0.0,0.0,0.0,0.0,0.0,0.0,mongenerator-diesel_634,,
175,0.0,0.0,0.0,0.0,0.0,0.0,0.0,mongenerator-diesel_634,,
176,0.0,0.0,0.0,0.0,0.0,0.0,0.0,mongenerator-diesel_634,,
177,0.0,0.0,0.0,0.0,0.0,0.0,0.0,mongenerator-diesel_634,,
178,0.0,0.0,0.0,0.0,0.0,0.0,0.0,mongenerator-diesel_634,,
179,0.0,0.0,0.0,0.0,0.0,0.0,0.0,mongenerator-diesel_634,,
180,0.0,0.0,0.0,0.0,0.0,0.0,0.0,mongenerator-diesel_634,,
181,0.0,0.0,0.0,0.0,0.0,0.0,0.0,mongenerator-diesel_634,,
182,0.0,0.0,0.0,0.0,0.0,0.0,0.0,mongenerator-diesel_634,,
183,0.0,0.0,0.0,0.0,0.0,0.0,0.0,mongenerator-diesel_634,,
184,0.0,0.0,0.0,0.0,0.0,0.0,0.0,mongenerator-diesel_634,,
185,0.0,0.0,0.0,0.0,0.0,0.0,0.0,mongenerator-diesel_634,,
186,0.0,0.0,0.0,0.0,0.0,0.0,0.0,mongenerator-diesel_634,,
187,0.0,0.0,0.0,0.0,0.0,0.0,0.0,mongenerator-diesel_634,,
188,0.0,0.0,0.0,0.0,0.0,0.0,0.0,mongenerator-diesel_634,,
189,0.0,0.0,0.0,0.0,0.0,0.0,0.0,mongenerator-diesel_634,,
190,0.0,0.0,0.0,0.0,0.0,0.0,0.0,mongenerator-diesel_634,,
191,0.0,0.0,0.0,0.0,0.0,0.0,0.0,mongenerator-diesel_634,,
192,0.0,0.0,0.0,0.0,0.0,0.0,0.0,mongenerator-diesel_634,,
193,0.0,0.0,0.0,0.0,0.0,0.0,0.0,mongenerator-diesel_634,,
194,0.0,0.0,0.0,0.0,0.0,0.0,0.0,mongenerator-diesel_634,,
195,0.0,0.0,0.0,0.0,0.0,0.0,0.0,mongenerator-diesel_634,,
196,0.0,0.0,0.0,0.0,0.0,0.0,0.0,mongenerator-diesel_634,,
197,0.0,0.0,0.0,0.0,0.0,0.0,0.0,mongenerator-diesel_634,,
198,0.0,0.0,0.0,0.0,0.0,0.0,0.0,mongenerator-diesel_634,,
199,0.0,0.0,0.0,0.0,0.0,0.0,0.0,mongenerator-diesel_634,,
200,0.0,0.0,0.0,0.0,0.0,0.0,0.0,mongenerator-diesel_634,,
201,0.0,0.0,0.0,0.0,0.0,0.0,0.0,mongenerator-diesel_634,,
202,0.0,0.0,0.0,0.0,0.0,0.0,0.0,mongenerator-diesel_634,,
203,0.0,0.0,0.0,0.0,0.0,0.0,0.0,mongenerator-diesel_634,,
204,0.0,0.0,0.0,0.0,0.0,0.0,0.0,mongenerator-diesel_634,,
205,0.0,0.0,0.0,0.0,0.0,0.0,0.0,mongenerator-diesel_634,,
206,0.0,0.0,0.0,0.0,0.0,0.0,0.0,mongenerator-diesel_634,,
207,0.0,0.0,0.0,0.0,0.0,0.0,0.0,mongenerator-diesel_634,,
208,0.0,0.0,0.0,0.0,0.0,0.0,0.0,mongenerator-diesel_634,,
209,0.0,0.0,0.0,0.0,0.0,0.0,0.0,mongenerator-diesel_634,,
210,0.0,0.0,0.0,0.0,0.0,0.0,0.0,mongenerator-diesel_634,,
211,0.0,0.0,0.0,0.0,0.0,0.0,0.0,mongenerator-diesel_634,,
212,0.0,0.0,0.0,0.0,0.0,0.0,0.0,mongenerator-diesel_634,,
213,0.0,0.0,0.0,0.0,0.0,0.0,0.0,mongenerator-diesel_634,,
214,0.0,0.0,0.0,0.0,0.0,0.0,0.0,mongenerator-diesel_634,,
215,0.0,0.0,0.0,0.0,0.0,0.0,0.0,mongenerator-diesel_634,,
216,0.0,0.0,0.0,0.0,0.0,0.0,0.0,mongenerator-diesel_634,,
217,0.0,0.0,0.0,0.0,0.0,0.0,0.0,mongenerator-diesel_634,,
218,0.0,0.0,0.0,0.0,0.0,0.0,0.0,mongenerator-diesel_634,,
219,0.0,0.0,0.0,0.0,0.0,0.0,0.0,mongenerator-diesel_634,,
220,0.0,0.0,0.0,0.0,0.0,0.0,0.0,mongenerator-diesel_634,,
221,0.0,0.0,0.0,0.0,0.0,0.0,0.0,mongenerator-diesel_634,,
222,0.0,0.0,0.0,0.0,0.0,0.0,0.0,mongenerator-diesel_634,,
223,0.0,0.0,0.0,0.0,0.0,0.0,0.0,mongenerator-diesel_634,,
224,0.0,0.0,0.0,0.0,0.0,0.0,0.0,mongenerator-diesel_634,,
225,0.0,0.0,0.0,0.0,0.0,0.0,0.0,mongenerator-diesel_634,,
226,0.0,0.0,0.0,0.0,0.0,0.0,0.0,mongenerator-diesel_634,,
227,0.0,0.0,0.0,0.0,0.0,0.0,0.0,mongenerator-diesel_634,,
228,0.0,0.0,0.0,0.0,0.0,0.0,0.0,mongenerator-diesel_634,,
229,0.0,0.0,0.0,0.0,0.0,0.0,0.0,mongenerator-diesel_634,,
230,0.0,0.0,0.0,0.0,0.0,0.0,0.0,mongenerator-diesel_634,,
231,0.0,0.0,0.0,0.0,0.0,0.0,0.0,mongenerator-diesel_634,,
232,0.0,0.0,0.0,0.0,0.0,0.0,0.0,mongenerator-diesel_634,,
233,0.0,0.0,0.0,0.0,0.0,0.0,0.0,mongenerator-diesel_634,,
234,0.0,0.0,0.0,0.0,0.0,0.0,0.0,mongenerator-diesel_634,,
235,0.0,0.0,0.0,0.0,0.0,0.0,0.0,mongenerator-diesel_634,,
236,0.0,0.0,0.0,0.0,0.0,0.0,0.0,mongenerator-diesel_634,,
237,0.0,0.0,0.0,0.0,0.0,0.0,0.0,mongenerator-diesel_634,,
238,0.0,0.0,0.0,0.0,0.0,0.0,0.0,mongenerator-diesel_634,,
239,0.0,0.0,0.0,0.0,0.0,0.0,0.0,mongenerator-diesel_634,,
240,0.0,0.0,0.0,0.0,0.0,0.0,0.0,mongenerator-diesel_634,,
241,0.0,-0.322816,-0.00013445299999999998,-0.322825,0.000391633,-0.323536,-0.00025718,mongenerator-diesel_634,,
242,0.0,-0.322393,-0.000134276,-0.32240100000000005,0.000391119,-0.323112,-0.000256843,mongenerator-diesel_634,,
243,0.0,-0.487346,-0.00020297900000000002,-0.48735900000000004,0.000591237,-0.48843400000000003,-0.00038825800000000005,mongenerator-diesel_634,,
244,0.0,-0.42405600000000004,-0.000176619,-0.424067,0.000514455,-0.42500200000000005,-0.000337836,mongenerator-diesel_634,,
245,0.0,-0.508487,-0.00021178400000000002,-0.5085,0.000616884,-0.509621,-0.00040510000000000003,mongenerator-diesel_634,,
246,0.0,-0.504821,-0.00021025700000000002,-0.504834,0.000612436,-0.505947,-0.000402179,mongenerator-diesel_634,,
247,0.0,-0.710616,-0.00029597099999999996,-0.710634,0.0008621010000000001,-0.712201,-0.000566131,mongenerator-diesel_634,,
248,0.0,-0.7115279999999999,-0.000296351,-0.711546,0.0008632080000000001,-0.7131149999999999,-0.000566858,mongenerator-diesel_634,,
249,0.0,-0.700804,-0.000291884,-0.7008220000000001,0.000850198,-0.702367,-0.000558314,mongenerator-diesel_634,,
250,0.0,-0.471263,-0.00019628,-0.471275,0.000571725,-0.472314,-0.000375444,mongenerator-diesel_634,,
251,0.0,-0.322393,-0.000134276,-0.32240100000000005,0.000391119,-0.323112,-0.000256843,mongenerator-diesel_634,,
252,0.0,-0.322393,-0.000134276,-0.32240100000000005,0.000391119,-0.323112,-0.000256843,mongenerator-diesel_634,,
253,0.0,0.0,0.0,0.0,0.0,0.0,0.0,mongenerator-diesel_634,,
254,0.0,-0.322393,-0.000134276,-0.32240100000000005,0.000391119,-0.323112,-0.000256843,mongenerator-diesel_634,,
255,0.0,-0.322393,-0.000134276,-0.32240100000000005,0.000391119,-0.323112,-0.000256843,mongenerator-diesel_634,,
256,0.0,-0.464062,-0.00019328099999999998,-0.464074,0.0005629890000000001,-0.46509700000000004,-0.000369707,mongenerator-diesel_634,,
257,0.0,-0.795057,-0.00033114099999999997,-0.795078,0.0009645439999999999,-0.7968310000000001,-0.0006334040000000001,mongenerator-diesel_634,,
258,0.0,-1.07464,-0.000447585,-1.07466,0.00130372,-1.07703,-0.000856137,mongenerator-diesel_634,,
259,0.0,-1.07464,-0.000447585,-1.07466,0.00130372,-1.07703,-0.000856137,mongenerator-diesel_634,,
260,0.0,-1.07464,-0.000447585,-1.07466,0.00130372,-1.07703,-0.000856137,mongenerator-diesel_634,,
261,0.0,-1.07464,-0.000447585,-1.07466,0.00130372,-1.07703,-0.000856137,mongenerator-diesel_634,,
262,0.0,-0.7358180000000001,-0.000306467,-0.735837,0.0008926769999999999,-0.73746,-0.000586209,mongenerator-diesel_634,,
263,0.0,-0.489259,-0.000203776,-0.48927200000000004,0.000593557,-0.49035100000000004,-0.000389782,mongenerator-diesel_634,,
264,0.0,-0.5987560000000001,-0.00024938099999999996,-0.598771,0.000726396,-0.6000909999999999,-0.000477015,mongenerator-diesel_634,,
265,0.0,0.0,0.0,0.0,0.0,0.0,0.0,mongenerator-diesel_634,,
266,0.0,0.0,0.0,0.0,0.0,0.0,0.0,mongenerator-diesel_634,,
267,0.0,0.0,0.0,0.0,0.0,0.0,0.0,mongenerator-diesel_634,,
268,0.0,0.0,0.0,0.0,0.0,0.0,0.0,mongenerator-diesel_634,,
269,0.0,0.0,0.0,0.0,0.0,0.0,0.0,mongenerator-diesel_634,,
270,0.0,0.0,0.0,0.0,0.0,0.0,0.0,mongenerator-diesel_634,,
271,0.0,0.0,0.0,0.0,0.0,0.0,0.0,mongenerator-diesel_634,,
272,0.0,0.0,0.0,0.0,0.0,0.0,0.0,mongenerator-diesel_634,,
273,0.0,0.0,0.0,0.0,0.0,0.0,0.0,mongenerator-diesel_634,,
274,0.0,0.0,0.0,0.0,0.0,0.0,0.0,mongenerator-diesel_634,,
275,0.0,0.0,0.0,0.0,0.0,0.0,0.0,mongenerator-diesel_634,,
276,0.0,0.0,0.0,0.0,0.0,0.0,0.0,mongenerator-diesel_634,,
277,0.0,0.0,0.0,0.0,0.0,0.0,0.0,mongenerator-diesel_634,,
278,0.0,0.0,0.0,0.0,0.0,0.0,0.0,mongenerator-diesel_634,,
279,0.0,0.0,0.0,0.0,0.0,0.0,0.0,mongenerator-diesel_634,,
280,0.0,0.0,0.0,0.0,0.0,0.0,0.0,mongenerator-diesel_634,,
281,0.0,0.0,0.0,0.0,0.0,0.0,0.0,mongenerator-diesel_634,,
282,0.0,0.0,0.0,0.0,0.0,0.0,0.0,mongenerator-diesel_634,,
283,0.0,0.0,0.0,0.0,0.0,0.0,0.0,mongenerator-diesel_634,,
284,0.0,0.0,0.0,0.0,0.0,0.0,0.0,mongenerator-diesel_634,,
285,0.0,0.0,0.0,0.0,0.0,0.0,0.0,mongenerator-diesel_634,,
286,0.0,0.0,0.0,0.0,0.0,0.0,0.0,mongenerator-diesel_634,,
287,0.0,0.0,0.0,0.0,0.0,0.0,0.0,mongenerator-diesel_634,,
288,0.0,0.0,0.0,0.0,0.0,0.0,0.0,mongenerator-diesel_634,,
289,0.0,0.0,0.0,0.0,0.0,0.0,0.0,mongenerator-diesel_634,,
290,0.0,0.0,0.0,0.0,0.0,0.0,0.0,mongenerator-diesel_634,,
291,0.0,0.0,0.0,0.0,0.0,0.0,0.0,mongenerator-diesel_634,,
292,0.0,0.0,0.0,0.0,0.0,0.0,0.0,mongenerator-diesel_634,,
293,0.0,0.0,0.0,0.0,0.0,0.0,0.0,mongenerator-diesel_634,,
294,0.0,0.0,0.0,0.0,0.0,0.0,0.0,mongenerator-diesel_634,,
295,0.0,0.0,0.0,0.0,0.0,0.0,0.0,mongenerator-diesel_634,,
296,0.0,0.0,0.0,0.0,0.0,0.0,0.0,mongenerator-diesel_634,,
297,0.0,0.0,0.0,0.0,0.0,0.0,0.0,mongenerator-diesel_634,,
298,0.0,0.0,0.0,0.0,0.0,0.0,0.0,mongenerator-diesel_634,,
299,0.0,0.0,0.0,0.0,0.0,0.0,0.0,mongenerator-diesel_634,,
300,0.0,0.0,0.0,0.0,0.0,0.0,0.0,mongenerator-diesel_634,,
301,0.0,0.0,0.0,0.0,0.0,0.0,0.0,mongenerator-diesel_634,,
302,0.0,0.0,0.0,0.0,0.0,0.0,0.0,mongenerator-diesel_634,,
303,0.0,0.0,0.0,0.0,0.0,0.0,0.0,mongenerator-diesel_634,,
304,0.0,0.0,0.0,0.0,0.0,0.0,0.0,mongenerator-diesel_634,,
305,0.0,0.0,0.0,0.0,0.0,0.0,0.0,mongenerator-diesel_634,,
306,0.0,0.0,0.0,0.0,0.0,0.0,0.0,mongenerator-diesel_634,,
307,0.0,0.0,0.0,0.0,0.0,0.0,0.0,mongenerator-diesel_634,,
308,0.0,0.0,0.0,0.0,0.0,0.0,0.0,mongenerator-diesel_634,,
309,0.0,0.0,0.0,0.0,0.0,0.0,0.0,mongenerator-diesel_634,,
310,0.0,0.0,0.0,0.0,0.0,0.0,0.0,mongenerator-diesel_634,,
311,0.0,0.0,0.0,0.0,0.0,0.0,0.0,mongenerator-diesel_634,,
312,0.0,0.0,0.0,0.0,0.0,0.0,0.0,mongenerator-diesel_634,,
313,0.0,0.0,0.0,0.0,0.0,0.0,0.0,mongenerator-diesel_634,,
314,0.0,0.0,0.0,0.0,0.0,0.0,0.0,mongenerator-diesel_634,,
315,0.0,0.0,0.0,0.0,0.0,0.0,0.0,mongenerator-diesel_634,,
316,0.0,0.0,0.0,0.0,0.0,0.0,0.0,mongenerator-diesel_634,,
317,0.0,0.0,0.0,0.0,0.0,0.0,0.0,mongenerator-diesel_634,,
318,0.0,0.0,0.0,0.0,0.0,0.0,0.0,mongenerator-diesel_634,,
319,0.0,0.0,0.0,0.0,0.0,0.0,0.0,mongenerator-diesel_634,,
320,0.0,0.0,0.0,0.0,0.0,0.0,0.0,mongenerator-diesel_634,,
321,0.0,0.0,0.0,0.0,0.0,0.0,0.0,mongenerator-diesel_634,,
