hour, t(sec), V1, VAngle1, V2, VAngle2, V3, VAngle3, I1, IAngle1, I2, IAngle2, I3, IAngle3,Name
1,0.0,2497.8,121.75299999999999,0.0,0.0,,,16.4969,96.5552,16.4969,-83.4448,,,monload-611
2,0.0,2498.18,121.76700000000001,0.0,0.0,,,16.102,96.5668,16.102,-83.4332,,,monload-611
3,0.0,2498.14,121.772,0.0,0.0,,,16.102,96.5714,16.102,-83.4286,,,monload-611
4,0.0,2498.1,121.774,0.0,0.0,,,16.102,96.5724,16.102,-83.4276,,,monload-611
5,0.0,2496.6,121.794,0.0,0.0,,,16.102,96.5927,16.102,-83.4073,,,monload-611
6,0.0,2495.27,121.79,0.0,0.0,,,16.102,96.5848,16.102,-83.4152,,,monload-611
7,0.0,2489.96,121.86399999999999,0.0,0.0,,,16.102,96.6632,16.102,-83.3368,,,monload-611
8,0.0,2507.3,121.99799999999999,0.0,0.0,,,6.41291,96.7941,6.41291,-83.2059,,,monload-611
9,0.0,2508.68,122.08200000000001,0.0,0.0,,,4.47521,96.8799,4.47521,-83.1201,,,monload-611
10,0.0,2511.21,122.059,0.0,0.0,,,4.47521,96.8583,4.47521,-83.1417,,,monload-611
11,0.0,2508.8,122.109,0.0,0.0,,,4.47521,96.9095,4.47521,-83.0905,,,monload-611
12,0.0,2507.02,122.135,0.0,0.0,,,4.47521,96.9276,4.47521,-83.0724,,,monload-611
13,0.0,2505.09,122.161,0.0,0.0,,,4.47521,96.9517,4.47521,-83.0483,,,monload-611
14,0.0,2505.24,122.15700000000001,0.0,0.0,,,4.47521,96.9562,4.47521,-83.0438,,,monload-611
15,0.0,2505.74,122.152,0.0,0.0,,,4.47521,96.9531,4.47521,-83.0469,,,monload-611
16,0.0,2505.63,122.148,0.0,0.0,,,4.47521,96.9469,4.47521,-83.0531,,,monload-611
17,0.0,2503.61,122.135,0.0,0.0,,,4.47521,96.926,4.47521,-83.074,,,monload-611
18,0.0,2493.04,122.00399999999999,0.0,0.0,,,10.2886,96.8038,10.2886,-83.1962,,,monload-611
19,0.0,2481.3,121.90899999999999,0.0,0.0,,,16.102,96.7085,16.102,-83.2915,,,monload-611
20,0.0,2482.69,121.89200000000001,0.0,0.0,,,16.102,96.6955,16.102,-83.3045,,,monload-611
21,0.0,2484.19,121.86200000000001,0.0,0.0,,,16.102,96.66,16.102,-83.34,,,monload-611
22,0.0,2487.72,121.836,0.0,0.0,,,16.1197,96.6347,16.1197,-83.3653,,,monload-611
23,0.0,2494.27,121.751,0.0,0.0,,,16.8461,96.5503,16.8461,-83.4497,,,monload-611
24,0.0,2493.3,121.78,0.0,0.0,,,17.2271,96.5799,17.2271,-83.4201,,,monload-611
25,0.0,2493.54,121.743,0.0,0.0,,,17.4494,96.5428,17.4494,-83.4572,,,monload-611
26,0.0,2494.04,121.729,0.0,0.0,,,17.7895,96.5298,17.7895,-83.4702,,,monload-611
27,0.0,2494.08,121.723,0.0,0.0,,,17.9698,96.5216,17.9698,-83.4784,,,monload-611
28,0.0,2493.86,121.71600000000001,0.0,0.0,,,18.2776,96.5142,18.2776,-83.4858,,,monload-611
29,0.0,2491.67,121.774,0.0,0.0,,,18.3348,96.5742,18.3348,-83.4258,,,monload-611
30,0.0,2482.86,121.744,0.0,0.0,,,18.7344,96.5442,18.7344,-83.4558,,,monload-611
31,0.0,2391.11,121.52,0.0,0.0,,,21.189,96.3173,21.189,-83.6827,,,monload-611
32,0.0,2405.85,121.611,0.0,0.0,,,25.9988,96.4075,25.9988,-83.5925,,,monload-611
33,0.0,2387.43,121.47399999999999,0.0,0.0,,,37.4866,96.2745,37.4866,-83.7255,,,monload-611
34,0.0,2392.03,121.52600000000001,0.0,0.0,,,45.3636,96.3259,45.3636,-83.6741,,,monload-611
35,0.0,2396.92,121.54700000000001,0.0,0.0,,,45.3636,96.3468,45.3636,-83.6532,,,monload-611
36,0.0,2392.79,121.587,0.0,0.0,,,45.3636,96.3859,45.3636,-83.6141,,,monload-611
37,0.0,2397.84,121.60600000000001,0.0,0.0,,,40.8885,96.4048,40.8885,-83.5952,,,monload-611
38,0.0,2396.15,121.587,0.0,0.0,,,45.3636,96.3851,45.3636,-83.6149,,,monload-611
39,0.0,2398.65,121.59299999999999,0.0,0.0,,,45.3636,96.3996,45.3636,-83.6004,,,monload-611
40,0.0,2399.26,121.594,0.0,0.0,,,45.3636,96.3947,45.3636,-83.6053,,,monload-611
41,0.0,2395.12,121.58200000000001,0.0,0.0,,,45.3636,96.3803,45.3636,-83.6197,,,monload-611
42,0.0,2418.28,121.844,0.0,0.0,,,20.3124,96.6439,20.3124,-83.3561,,,monload-611
43,0.0,2434.07,121.79299999999999,0.0,0.0,,,16.4524,96.5911,16.4524,-83.4089,,,monload-611
44,0.0,2433.75,121.765,0.0,0.0,,,16.8204,96.5638,16.8204,-83.4362,,,monload-611
45,0.0,2442.91,121.68299999999999,0.0,0.0,,,17.2516,96.4818,17.2516,-83.5182,,,monload-611
46,0.0,2448.95,121.581,0.0,0.0,,,17.4742,96.3819,17.4742,-83.6181,,,monload-611
47,0.0,2489.01,121.735,0.0,0.0,,,17.9135,96.5372,17.9135,-83.4628,,,monload-611
48,0.0,2489.85,121.77600000000001,0.0,0.0,,,18.1885,96.57700000000001,18.1885,-83.42299999999999,,,monload-611
49,0.0,2492.56,121.74,0.0,0.0,,,18.6246,96.5478,18.6246,-83.4522,,,monload-611
50,0.0,2493.13,121.729,0.0,0.0,,,18.6476,96.5291,18.6476,-83.4709,,,monload-611
51,0.0,2492.57,121.71799999999999,0.0,0.0,,,19.2063,96.5143,19.2063,-83.4857,,,monload-611
52,0.0,2489.23,121.70299999999999,0.0,0.0,,,18.9529,96.5023,18.9529,-83.4977,,,monload-611
53,0.0,2483.53,121.765,0.0,0.0,,,19.5554,96.5648,19.5554,-83.4352,,,monload-611
54,0.0,2480.34,121.766,0.0,0.0,,,19.1026,96.5651,19.1026,-83.4349,,,monload-611
55,0.0,2389.06,121.545,0.0,0.0,,,21.189,96.3433,21.189,-83.6567,,,monload-611
56,0.0,2408.7,121.649,0.0,0.0,,,25.9725,96.4454,25.9725,-83.5546,,,monload-611
57,0.0,2394.62,121.51700000000001,0.0,0.0,,,37.4866,96.3168,37.4866,-83.6832,,,monload-611
58,0.0,2393.98,121.538,0.0,0.0,,,45.3636,96.3368,45.3636,-83.6632,,,monload-611
59,0.0,2397.75,121.542,0.0,0.0,,,45.3636,96.34200000000001,45.3636,-83.65799999999999,,,monload-611
60,0.0,2393.16,121.56200000000001,0.0,0.0,,,45.3636,96.3606,45.3636,-83.6394,,,monload-611
61,0.0,2396.13,121.56200000000001,0.0,0.0,,,40.8885,96.3605,40.8885,-83.6395,,,monload-611
62,0.0,2393.1,121.538,0.0,0.0,,,45.3636,96.3373,45.3636,-83.6627,,,monload-611
63,0.0,2396.61,121.551,0.0,0.0,,,45.3636,96.3611,45.3636,-83.6389,,,monload-611
64,0.0,2395.55,121.546,0.0,0.0,,,45.3636,96.3416,45.3636,-83.6584,,,monload-611
65,0.0,2393.01,121.546,0.0,0.0,,,45.3636,96.3445,45.3636,-83.6555,,,monload-611
66,0.0,2423.28,121.83200000000001,0.0,0.0,,,20.3124,96.6328,20.3124,-83.3672,,,monload-611
67,0.0,2440.89,121.78399999999999,0.0,0.0,,,16.5282,96.58200000000001,16.5282,-83.41799999999999,,,monload-611
68,0.0,2440.08,121.745,0.0,0.0,,,17.0328,96.5416,17.0328,-83.4584,,,monload-611
69,0.0,2449.32,121.67,0.0,0.0,,,17.3598,96.4686,17.3598,-83.5314,,,monload-611
70,0.0,2454.69,121.571,0.0,0.0,,,17.611,96.3719,17.611,-83.6281,,,monload-611
71,0.0,2490.03,121.711,0.0,0.0,,,17.9378,96.5125,17.9378,-83.4875,,,monload-611
72,0.0,2491.34,121.757,0.0,0.0,,,17.8666,96.5596,17.8666,-83.4404,,,monload-611
73,0.0,2494.52,121.72200000000001,0.0,0.0,,,18.0094,96.5206,18.0094,-83.4794,,,monload-611
74,0.0,2495.23,121.714,0.0,0.0,,,17.9768,96.5157,17.9768,-83.4843,,,monload-611
75,0.0,2495.28,121.71600000000001,0.0,0.0,,,17.9765,96.5149,17.9765,-83.4851,,,monload-611
76,0.0,2495.26,121.71799999999999,0.0,0.0,,,17.9022,96.51700000000001,17.9022,-83.48299999999999,,,monload-611
77,0.0,2492.7,121.777,0.0,0.0,,,18.1673,96.5767,18.1673,-83.4233,,,monload-611
78,0.0,2489.45,121.771,0.0,0.0,,,18.006,96.5696,18.006,-83.4304,,,monload-611
79,0.0,2420.72,121.65100000000001,0.0,0.0,,,21.189,96.449,21.189,-83.551,,,monload-611
80,0.0,2422.69,121.689,0.0,0.0,,,25.9988,96.4889,25.9988,-83.5111,,,monload-611
81,0.0,2394.27,121.51299999999999,0.0,0.0,,,37.4866,96.3128,37.4866,-83.6872,,,monload-611
82,0.0,2391.9,121.535,0.0,0.0,,,45.3636,96.3343,45.3636,-83.6657,,,monload-611
83,0.0,2397.0,121.555,0.0,0.0,,,45.3636,96.3555,45.3636,-83.6445,,,monload-611
84,0.0,2394.66,121.601,0.0,0.0,,,45.3636,96.4,45.3636,-83.6,,,monload-611
85,0.0,2400.29,121.62899999999999,0.0,0.0,,,40.8885,96.4283,40.8885,-83.5717,,,monload-611
86,0.0,2395.13,121.605,0.0,0.0,,,45.3636,96.4038,45.3636,-83.5962,,,monload-611
87,0.0,2396.82,121.62200000000001,0.0,0.0,,,45.3636,96.4268,45.3636,-83.5732,,,monload-611
88,0.0,2396.08,121.624,0.0,0.0,,,45.3636,96.42200000000001,45.3636,-83.57799999999999,,,monload-611
89,0.0,2391.69,121.618,0.0,0.0,,,45.3636,96.416,45.3636,-83.584,,,monload-611
90,0.0,2416.26,121.891,0.0,0.0,,,20.3124,96.6911,20.3124,-83.3089,,,monload-611
91,0.0,2436.29,121.855,0.0,0.0,,,16.102,96.6536,16.102,-83.3464,,,monload-611
92,0.0,2437.61,121.84200000000001,0.0,0.0,,,16.102,96.6444,16.102,-83.3556,,,monload-611
93,0.0,2449.16,121.779,0.0,0.0,,,16.102,96.5781,16.102,-83.4219,,,monload-611
94,0.0,2454.63,121.671,0.0,0.0,,,16.102,96.4714,16.102,-83.5286,,,monload-611
95,0.0,2489.22,121.804,0.0,0.0,,,16.102,96.6056,16.102,-83.3944,,,monload-611
96,0.0,2490.79,121.84700000000001,0.0,0.0,,,16.102,96.6504,16.102,-83.3496,,,monload-611
97,0.0,2493.54,121.822,0.0,0.0,,,16.102,96.6206,16.102,-83.3794,,,monload-611
98,0.0,2494.5,121.811,0.0,0.0,,,16.102,96.6129,16.102,-83.3871,,,monload-611
99,0.0,2494.62,121.81,0.0,0.0,,,16.102,96.6095,16.102,-83.3905,,,monload-611
100,0.0,2494.72,121.806,0.0,0.0,,,16.102,96.605,16.102,-83.395,,,monload-611
101,0.0,2492.62,121.863,0.0,0.0,,,16.102,96.6628,16.102,-83.3372,,,monload-611
102,0.0,2489.14,121.86,0.0,0.0,,,16.102,96.65899999999999,16.102,-83.34100000000001,,,monload-611
103,0.0,2443.02,121.836,0.0,0.0,,,21.189,96.6338,21.189,-83.3662,,,monload-611
104,0.0,2432.73,121.834,0.0,0.0,,,25.9988,96.6354,25.9988,-83.3646,,,monload-611
105,0.0,2392.87,121.609,0.0,0.0,,,37.4866,96.4092,37.4866,-83.5908,,,monload-611
106,0.0,2380.03,121.60600000000001,0.0,0.0,,,45.3636,96.4039,45.3636,-83.5961,,,monload-611
107,0.0,2375.46,121.6,0.0,0.0,,,45.3636,96.3989,45.3636,-83.6011,,,monload-611
108,0.0,2376.44,121.617,0.0,0.0,,,45.3636,96.41799999999999,45.3636,-83.58200000000001,,,monload-611
109,0.0,2381.23,121.632,0.0,0.0,,,40.8885,96.4307,40.8885,-83.5693,,,monload-611
110,0.0,2372.51,121.59100000000001,0.0,0.0,,,45.3636,96.3886,45.3636,-83.6114,,,monload-611
111,0.0,2374.02,121.59200000000001,0.0,0.0,,,45.3636,96.3955,45.3636,-83.6045,,,monload-611
112,0.0,2375.22,121.589,0.0,0.0,,,45.3636,96.3913,45.3636,-83.6087,,,monload-611
113,0.0,2369.97,121.56299999999999,0.0,0.0,,,45.3636,96.3605,45.3636,-83.6395,,,monload-611
114,0.0,2402.37,121.84899999999999,0.0,0.0,,,20.3124,96.6506,20.3124,-83.3494,,,monload-611
115,0.0,2429.92,121.829,0.0,0.0,,,16.102,96.6286,16.102,-83.3714,,,monload-611
116,0.0,2431.7,121.816,0.0,0.0,,,16.102,96.6153,16.102,-83.3847,,,monload-611
117,0.0,2444.68,121.76100000000001,0.0,0.0,,,16.102,96.5613,16.102,-83.4387,,,monload-611
118,0.0,2454.14,121.65799999999999,0.0,0.0,,,16.102,96.4593,16.102,-83.5407,,,monload-611
119,0.0,2487.38,121.773,0.0,0.0,,,16.102,96.5745,16.102,-83.4255,,,monload-611
120,0.0,2489.6,121.81299999999999,0.0,0.0,,,16.102,96.6125,16.102,-83.3875,,,monload-611
121,0.0,2492.99,121.79,0.0,0.0,,,16.102,96.5894,16.102,-83.4106,,,monload-611
122,0.0,2493.98,121.781,0.0,0.0,,,16.102,96.583,16.102,-83.417,,,monload-611
123,0.0,2494.24,121.78,0.0,0.0,,,16.102,96.5794,16.102,-83.4206,,,monload-611
124,0.0,2494.53,121.78,0.0,0.0,,,16.102,96.5804,16.102,-83.4196,,,monload-611
125,0.0,2490.78,121.86399999999999,0.0,0.0,,,16.102,96.6636,16.102,-83.3364,,,monload-611
126,0.0,2487.23,121.85600000000001,0.0,0.0,,,16.102,96.6549,16.102,-83.3451,,,monload-611
127,0.0,2444.05,121.84700000000001,0.0,0.0,,,21.189,96.6454,21.189,-83.3546,,,monload-611
128,0.0,2433.84,121.836,0.0,0.0,,,25.9988,96.6376,25.9988,-83.3624,,,monload-611
129,0.0,2384.85,121.569,0.0,0.0,,,37.4866,96.3689,37.4866,-83.6311,,,monload-611
130,0.0,2373.61,121.566,0.0,0.0,,,45.3636,96.3636,45.3636,-83.6364,,,monload-611
131,0.0,2368.73,121.553,0.0,0.0,,,45.3636,96.352,45.3636,-83.648,,,monload-611
132,0.0,2361.94,121.557,0.0,0.0,,,45.4865,96.3543,45.4865,-83.6457,,,monload-611
133,0.0,2364.78,121.57799999999999,0.0,0.0,,,41.5303,96.3766,41.5303,-83.6234,,,monload-611
134,0.0,2354.89,121.52799999999999,0.0,0.0,,,46.605,96.3261,46.605,-83.6739,,,monload-611
135,0.0,2358.73,121.53200000000001,0.0,0.0,,,46.5702,96.3313,46.5702,-83.6687,,,monload-611
136,0.0,2361.63,121.535,0.0,0.0,,,46.2669,96.3348,46.2669,-83.6652,,,monload-611
137,0.0,2364.08,121.54799999999999,0.0,0.0,,,45.5198,96.3544,45.5198,-83.6456,,,monload-611
138,0.0,2402.16,121.87200000000001,0.0,0.0,,,18.3746,96.6748,18.3746,-83.3252,,,monload-611
139,0.0,2426.64,121.833,0.0,0.0,,,16.102,96.6321,16.102,-83.3679,,,monload-611
140,0.0,2430.01,121.815,0.0,0.0,,,16.102,96.6143,16.102,-83.3857,,,monload-611
141,0.0,2442.65,121.76100000000001,0.0,0.0,,,16.102,96.561,16.102,-83.439,,,monload-611
142,0.0,2458.89,121.666,0.0,0.0,,,16.102,96.4692,16.102,-83.5308,,,monload-611
143,0.0,2489.6,121.76700000000001,0.0,0.0,,,16.102,96.5693,16.102,-83.4307,,,monload-611
144,0.0,2491.55,121.80799999999999,0.0,0.0,,,16.102,96.60799999999999,16.102,-83.39200000000001,,,monload-611
145,0.0,2497.11,121.791,0.0,0.0,,,16.102,96.59,16.102,-83.41,,,monload-611
146,0.0,2497.99,121.785,0.0,0.0,,,16.102,96.5871,16.102,-83.4129,,,monload-611
147,0.0,2498.12,121.786,0.0,0.0,,,16.102,96.5853,16.102,-83.4147,,,monload-611
148,0.0,2498.16,121.785,0.0,0.0,,,16.102,96.5841,16.102,-83.4159,,,monload-611
149,0.0,2496.72,121.804,0.0,0.0,,,16.102,96.6032,16.102,-83.3968,,,monload-611
150,0.0,2495.35,121.802,0.0,0.0,,,16.102,96.5962,16.102,-83.4038,,,monload-611
151,0.0,2454.21,121.715,0.0,0.0,,,16.102,96.5138,16.102,-83.4862,,,monload-611
152,0.0,2466.15,121.85,0.0,0.0,,,11.4999,96.6478,11.4999,-83.3522,,,monload-611
153,0.0,2449.95,121.87100000000001,0.0,0.0,,,10.6355,96.6705,10.6355,-83.3295,,,monload-611
154,0.0,2441.1,121.89399999999999,0.0,0.0,,,17.5447,96.6952,17.5447,-83.3048,,,monload-611
155,0.0,2441.56,121.95200000000001,0.0,0.0,,,17.5447,96.751,17.5447,-83.249,,,monload-611
156,0.0,2437.84,121.97399999999999,0.0,0.0,,,17.5447,96.7738,17.5447,-83.2262,,,monload-611
157,0.0,2446.42,122.03200000000001,0.0,0.0,,,9.56215,96.829,9.56215,-83.171,,,monload-611
158,0.0,2448.39,122.035,0.0,0.0,,,9.56215,96.8412,9.56215,-83.1588,,,monload-611
159,0.0,2466.47,122.111,0.0,0.0,,,9.56215,96.9065,9.56215,-83.0935,,,monload-611
160,0.0,2465.07,122.07,0.0,0.0,,,9.56215,96.868,9.56215,-83.132,,,monload-611
161,0.0,2467.89,122.12200000000001,0.0,0.0,,,4.47521,96.9201,4.47521,-83.0799,,,monload-611
162,0.0,2462.15,122.073,0.0,0.0,,,8.35085,96.8719,8.35085,-83.1281,,,monload-611
163,0.0,2474.47,122.02600000000001,0.0,0.0,,,16.102,96.8206,16.102,-83.1794,,,monload-611
164,0.0,2478.56,121.97399999999999,0.0,0.0,,,16.102,96.7723,16.102,-83.2277,,,monload-611
165,0.0,2480.75,121.905,0.0,0.0,,,16.102,96.7028,16.102,-83.2972,,,monload-611
166,0.0,2487.38,121.84200000000001,0.0,0.0,,,16.102,96.6408,16.102,-83.3592,,,monload-611
167,0.0,2493.84,121.78399999999999,0.0,0.0,,,16.102,96.5835,16.102,-83.4165,,,monload-611
168,0.0,2493.85,121.81700000000001,0.0,0.0,,,16.102,96.617,16.102,-83.383,,,monload-611
169,0.0,2497.03,121.78399999999999,0.0,0.0,,,16.102,96.5835,16.102,-83.4165,,,monload-611
170,0.0,2498.03,121.774,0.0,0.0,,,16.102,96.5766,16.102,-83.4234,,,monload-611
171,0.0,2498.2,121.774,0.0,0.0,,,16.102,96.5732,16.102,-83.4268,,,monload-611
172,0.0,2498.21,121.774,0.0,0.0,,,16.102,96.573,16.102,-83.427,,,monload-611
173,0.0,2496.72,121.795,0.0,0.0,,,16.102,96.5942,16.102,-83.4058,,,monload-611
174,0.0,2495.32,121.794,0.0,0.0,,,16.102,96.5887,16.102,-83.4113,,,monload-611
175,0.0,2490.02,121.869,0.0,0.0,,,16.102,96.6678,16.102,-83.3322,,,monload-611
176,0.0,2507.41,121.999,0.0,0.0,,,6.41291,96.7953,6.41291,-83.2047,,,monload-611
177,0.0,2498.39,122.052,0.0,0.0,,,4.47521,96.8504,4.47521,-83.1496,,,monload-611
178,0.0,2491.36,122.007,0.0,0.0,,,4.47521,96.8069,4.47521,-83.1931,,,monload-611
179,0.0,2481.48,122.039,0.0,0.0,,,4.47521,96.84,4.47521,-83.16,,,monload-611
180,0.0,2482.5,122.08,0.0,0.0,,,4.47521,96.8789,4.47521,-83.1211,,,monload-611
181,0.0,2475.72,122.09299999999999,0.0,0.0,,,4.47521,96.8929,4.47521,-83.1071,,,monload-611
182,0.0,2477.7,122.105,0.0,0.0,,,4.47521,96.912,4.47521,-83.088,,,monload-611
183,0.0,2472.02,122.07700000000001,0.0,0.0,,,4.47521,96.8764,4.47521,-83.1236,,,monload-611
184,0.0,2476.32,122.094,0.0,0.0,,,4.47521,96.89200000000001,4.47521,-83.10799999999999,,,monload-611
185,0.0,2473.09,122.069,0.0,0.0,,,4.47521,96.8679,4.47521,-83.1321,,,monload-611
186,0.0,2476.15,121.995,0.0,0.0,,,8.35085,96.7933,8.35085,-83.2067,,,monload-611
187,0.0,2475.9,121.92399999999999,0.0,0.0,,,16.102,96.7217,16.102,-83.2783,,,monload-611
188,0.0,2479.28,121.906,0.0,0.0,,,16.102,96.7044,16.102,-83.2956,,,monload-611
189,0.0,2482.14,121.87700000000001,0.0,0.0,,,16.102,96.675,16.102,-83.325,,,monload-611
190,0.0,2486.46,121.851,0.0,0.0,,,16.102,96.6501,16.102,-83.3499,,,monload-611
191,0.0,2494.6,121.772,0.0,0.0,,,16.102,96.572,16.102,-83.428,,,monload-611
192,0.0,2494.66,121.803,0.0,0.0,,,16.102,96.6033,16.102,-83.3967,,,monload-611
193,0.0,2495.52,121.766,0.0,0.0,,,16.1219,96.5663,16.1219,-83.4337,,,monload-611
194,0.0,2496.18,121.744,0.0,0.0,,,16.7556,96.5459,16.7556,-83.4541,,,monload-611
195,0.0,2496.2,121.735,0.0,0.0,,,17.1579,96.5344,17.1579,-83.4656,,,monload-611
196,0.0,2496.07,121.73,0.0,0.0,,,17.4326,96.529,17.4326,-83.471,,,monload-611
197,0.0,2493.74,121.786,0.0,0.0,,,17.6713,96.5856,17.6713,-83.4144,,,monload-611
198,0.0,2490.27,121.775,0.0,0.0,,,17.7242,96.5742,17.7242,-83.4258,,,monload-611
199,0.0,2430.73,121.696,0.0,0.0,,,21.189,96.4939,21.189,-83.5061,,,monload-611
200,0.0,2431.25,121.73100000000001,0.0,0.0,,,25.9988,96.5306,25.9988,-83.4694,,,monload-611
201,0.0,2387.22,121.61,0.0,0.0,,,37.4866,96.4085,37.4866,-83.5915,,,monload-611
202,0.0,2394.9,121.572,0.0,0.0,,,45.3636,96.3711,45.3636,-83.6289,,,monload-611
203,0.0,2391.73,121.571,0.0,0.0,,,45.3636,96.3704,45.3636,-83.6296,,,monload-611
204,0.0,2381.39,121.585,0.0,0.0,,,45.3636,96.3828,45.3636,-83.6172,,,monload-611
205,0.0,2380.81,121.59200000000001,0.0,0.0,,,40.8885,96.3848,40.8885,-83.6152,,,monload-611
206,0.0,2370.79,121.555,0.0,0.0,,,45.3636,96.3537,45.3636,-83.6463,,,monload-611
207,0.0,2368.22,121.552,0.0,0.0,,,45.6714,96.3505,45.6714,-83.6495,,,monload-611
208,0.0,2373.53,121.57,0.0,0.0,,,45.478,96.3701,45.478,-83.6299,,,monload-611
209,0.0,2374.56,121.568,0.0,0.0,,,45.3636,96.3704,45.3636,-83.6296,,,monload-611
210,0.0,2411.77,121.884,0.0,0.0,,,18.3746,96.6872,18.3746,-83.3128,,,monload-611
211,0.0,2434.61,121.845,0.0,0.0,,,16.102,96.6445,16.102,-83.3555,,,monload-611
212,0.0,2437.51,121.837,0.0,0.0,,,16.102,96.6368,16.102,-83.3632,,,monload-611
213,0.0,2450.48,121.786,0.0,0.0,,,16.102,96.5857,16.102,-83.4143,,,monload-611
214,0.0,2458.63,121.68799999999999,0.0,0.0,,,16.102,96.4891,16.102,-83.5109,,,monload-611
215,0.0,2488.63,121.79700000000001,0.0,0.0,,,16.102,96.5992,16.102,-83.4008,,,monload-611
216,0.0,2490.39,121.839,0.0,0.0,,,16.102,96.6386,16.102,-83.3614,,,monload-611
217,0.0,2493.17,121.81,0.0,0.0,,,16.102,96.6092,16.102,-83.3908,,,monload-611
218,0.0,2494.23,121.796,0.0,0.0,,,16.102,96.5975,16.102,-83.4025,,,monload-611
219,0.0,2494.56,121.792,0.0,0.0,,,16.102,96.5914,16.102,-83.4086,,,monload-611
220,0.0,2494.65,121.791,0.0,0.0,,,16.102,96.5898,16.102,-83.4102,,,monload-611
221,0.0,2490.92,121.874,0.0,0.0,,,16.102,96.6745,16.102,-83.3255,,,monload-611
222,0.0,2487.46,121.87,0.0,0.0,,,16.102,96.6692,16.102,-83.3308,,,monload-611
223,0.0,2444.72,121.85700000000001,0.0,0.0,,,21.189,96.6545,21.189,-83.3455,,,monload-611
224,0.0,2435.33,121.845,0.0,0.0,,,25.9988,96.6468,25.9988,-83.3532,,,monload-611
225,0.0,2392.04,121.59299999999999,0.0,0.0,,,37.4866,96.3926,37.4866,-83.6074,,,monload-611
226,0.0,2381.91,121.601,0.0,0.0,,,45.3636,96.3993,45.3636,-83.6007,,,monload-611
227,0.0,2377.78,121.60600000000001,0.0,0.0,,,45.3636,96.4043,45.3636,-83.5957,,,monload-611
228,0.0,2371.74,121.619,0.0,0.0,,,45.3636,96.4169,45.3636,-83.5831,,,monload-611
229,0.0,2379.81,121.648,0.0,0.0,,,40.8885,96.4478,40.8885,-83.5522,,,monload-611
230,0.0,2372.79,121.61399999999999,0.0,0.0,,,45.3636,96.4121,45.3636,-83.5879,,,monload-611
231,0.0,2374.75,121.617,0.0,0.0,,,45.3636,96.4221,45.3636,-83.5779,,,monload-611
232,0.0,2376.92,121.615,0.0,0.0,,,45.3636,96.4203,45.3636,-83.5797,,,monload-611
233,0.0,2374.72,121.611,0.0,0.0,,,45.3636,96.4099,45.3636,-83.5901,,,monload-611
234,0.0,2408.56,121.925,0.0,0.0,,,18.3746,96.7271,18.3746,-83.2729,,,monload-611
235,0.0,2431.82,121.87899999999999,0.0,0.0,,,16.102,96.6785,16.102,-83.3215,,,monload-611
236,0.0,2434.87,121.853,0.0,0.0,,,16.102,96.6525,16.102,-83.3475,,,monload-611
237,0.0,2448.04,121.786,0.0,0.0,,,16.102,96.5855,16.102,-83.4145,,,monload-611
