hour,t(sec),V1,VAngle1,V2,VAngle2,V3,VAngle3,I1,IAngle1,I2,IAngle2,I3,IAngle3,Name,V4,VAngle4,I4,IAngle4,kv,V1(PU),V2(PU),V3(PU)
1,0.0,2353.95,113.731,0.0,0.0,,,20.2518,113.731,20.2518,-66.2692,,,monload-611_runway,,,,,2.4,0.9808125,0.0,
2,0.0,2388.22,114.504,0.0,0.0,,,21.49,114.504,21.49,-65.496,,,monload-611_runway,,,,,2.4,0.9950916666666666,0.0,
3,0.0,2389.49,114.539,0.0,0.0,,,18.735,114.538,18.735,-65.4618,,,monload-611_runway,,,,,2.4,0.9956208333333333,0.0,
4,0.0,2389.76,114.546,0.0,0.0,,,18.1696,114.546,18.1696,-65.4542,,,monload-611_runway,,,,,2.4,0.9957333333333335,0.0,
5,0.0,2381.77,114.358,0.0,0.0,,,18.3433,114.36,18.3433,-65.64,,,monload-611_runway,,,,,2.4,0.9924041666666666,0.0,
6,0.0,2375.81,114.215,0.0,0.0,,,19.8621,114.216,19.8621,-65.7837,,,monload-611_runway,,,,,2.4,0.9899208333333334,0.0,
7,0.0,2345.77,113.499,0.0,0.0,,,29.8483,113.499,29.8483,-66.5008,,,monload-611_runway,,,,,2.4,0.9774041666666666,0.0,
8,0.0,2351.03,113.621,0.0,0.0,,,31.8618,113.622,31.8618,-66.3777,,,monload-611_runway,,,,,2.4,0.9795958333333334,0.0,
9,0.0,2337.7,113.291,0.0,0.0,,,44.0268,113.291,44.0268,-66.7091,,,monload-611_runway,,,,,2.4,0.9740416666666666,0.0,
10,0.0,2355.27,113.702,0.0,0.0,,,37.8158,113.702,37.8158,-66.2978,,,monload-611_runway,,,,,2.4,0.9813625,0.0,
11,0.0,2371.23,114.095,0.0,0.0,,,26.7204,114.095,26.7204,-65.9052,,,monload-611_runway,,,,,2.4,0.9880125,0.0,
12,0.0,2406.84,114.918,0.0,0.0,,,25.0426,114.917,25.0426,-65.0829,,,monload-611_runway,,,,,2.4,1.00285,0.0,
13,0.0,2367.91,114.028,0.0,0.0,,,24.9564,114.028,24.9564,-65.972,,,monload-611_runway,,,,,2.4,0.9866291666666666,0.0,
14,0.0,2385.63,114.434,0.0,0.0,,,24.9959,114.434,24.9959,-65.5663,,,monload-611_runway,,,,,2.4,0.9940125000000001,0.0,
15,0.0,2399.28,114.747,0.0,0.0,,,24.9268,114.747,24.9268,-65.2533,,,monload-611_runway,,,,,2.4,0.9997,0.0,
16,0.0,2400.9,114.783,0.0,0.0,,,24.7866,114.782,24.7866,-65.2179,,,monload-611_runway,,,,,2.4,1.000375,0.0,
17,0.0,2372.95,114.136,0.0,0.0,,,25.989,114.136,25.989,-65.8641,,,monload-611_runway,,,,,2.4,0.9887291666666665,0.0,
18,0.0,2340.53,113.381,0.0,0.0,,,31.4301,113.381,31.4301,-66.619,,,monload-611_runway,,,,,2.4,0.9752208333333334,0.0,
19,0.0,2326.91,113.046,0.0,0.0,,,43.1551,113.046,43.1551,-66.9536,,,monload-611_runway,,,,,2.4,0.9695458333333332,0.0,
20,0.0,2327.29,113.051,0.0,0.0,,,45.3034,113.051,45.3034,-66.9495,,,monload-611_runway,,,,,2.4,0.9697041666666667,0.0,
21,0.0,2332.36,113.163,0.0,0.0,,,47.8087,113.163,47.8087,-66.8367,,,monload-611_runway,,,,,2.4,0.9718166666666668,0.0,
22,0.0,2340.28,113.347,0.0,0.0,,,46.4444,113.347,46.4444,-66.6529,,,monload-611_runway,,,,,2.4,0.9751166666666667,0.0,
23,0.0,2361.54,113.855,0.0,0.0,,,35.6973,113.855,35.6973,-66.1453,,,monload-611_runway,,,,,2.4,0.9839749999999999,0.0,
24,0.0,2377.45,114.25,0.0,0.0,,,22.9122,114.247,22.9122,-65.7534,,,monload-611_runway,,,,,2.4,0.9906041666666666,0.0,
25,0.0,2383.48,114.396,0.0,0.0,,,18.6667,114.395,18.6667,-65.6054,,,monload-611_runway,,,,,2.4,0.9931166666666666,0.0,
26,0.0,2383.85,114.405,0.0,0.0,,,17.8494,114.405,17.8494,-65.5947,,,monload-611_runway,,,,,2.4,0.9932708333333333,0.0,
27,0.0,2384.46,114.421,0.0,0.0,,,16.9263,114.421,16.9263,-65.5791,,,monload-611_runway,,,,,2.4,0.993525,0.0,
28,0.0,2384.43,114.42,0.0,0.0,,,17.0116,114.42,17.0116,-65.58,,,monload-611_runway,,,,,2.4,0.9935124999999999,0.0,
29,0.0,2357.74,113.792,0.0,0.0,,,17.6802,113.792,17.6802,-66.2076,,,monload-611_runway,,,,,2.4,0.9823916666666666,0.0,
30,0.0,2346.16,113.516,0.0,0.0,,,21.26,113.512,21.26,-66.4878,,,monload-611_runway,,,,,2.4,0.9775666666666666,0.0,
31,0.0,2316.55,112.789,0.0,0.0,,,33.1809,112.788,33.1809,-67.2117,,,monload-611_runway,,,,,2.4,0.9652291666666667,0.0,
32,0.0,2291.74,112.215,0.0,0.0,,,34.8528,112.215,34.8528,-67.7847,,,monload-611_runway,,,,,2.4,0.9548916666666666,0.0,
33,0.0,2264.56,111.631,0.0,0.0,,,30.5555,111.631,30.5555,-68.3686,,,monload-611_runway,,,,,2.4,0.9435666666666667,0.0,
34,0.0,2255.45,111.117,0.0,0.0,,,30.743,111.114,30.743,-68.8856,,,monload-611_runway,,,,,2.4,0.9397708333333332,0.0,
35,0.0,2269.72,111.442,0.0,0.0,,,25.015,111.433,25.015,-68.567,,,monload-611_runway,,,,,2.4,0.9457166666666665,0.0,
36,0.0,2295.67,111.978,0.0,0.0,,,26.0047,111.977,26.0047,-68.0225,,,monload-611_runway,,,,,2.4,0.9565291666666667,0.0,
37,0.0,2308.79,112.299,0.0,0.0,,,26.4116,112.299,26.4116,-67.7013,,,monload-611_runway,,,,,2.4,0.9619958333333333,0.0,
38,0.0,2288.0,111.845,0.0,0.0,,,25.3752,111.845,25.3752,-68.155,,,monload-611_runway,,,,,2.4,0.9533333333333334,0.0,
39,0.0,2361.74,113.484,0.0,0.0,,,24.5082,113.477,24.5082,-66.5231,,,monload-611_runway,,,,,2.4,0.9840583333333333,0.0,
40,0.0,2328.21,112.732,0.0,0.0,,,24.748,112.733,24.748,-67.2667,,,monload-611_runway,,,,,2.4,0.9700875,0.0,
41,0.0,2287.23,111.818,0.0,0.0,,,25.8685,111.818,25.8685,-68.1817,,,monload-611_runway,,,,,2.4,0.9530125,0.0,
42,0.0,2285.17,111.731,0.0,0.0,,,31.6633,111.731,31.6633,-68.2693,,,monload-611_runway,,,,,2.4,0.9521541666666667,0.0,
43,0.0,2321.84,112.589,0.0,0.0,,,38.7986,112.589,38.7986,-67.4114,,,monload-611_runway,,,,,2.4,0.9674333333333334,0.0,
44,0.0,2288.04,111.832,0.0,0.0,,,41.1781,111.832,41.1781,-68.1679,,,monload-611_runway,,,,,2.4,0.95335,0.0,
45,0.0,2279.65,111.652,0.0,0.0,,,45.1158,111.648,45.1158,-68.3523,,,monload-611_runway,,,,,2.4,0.9498541666666667,0.0,
46,0.0,2295.0,111.997,0.0,0.0,,,42.3023,111.996,42.3023,-68.0037,,,monload-611_runway,,,,,2.4,0.95625,0.0,
47,0.0,2365.08,113.601,0.0,0.0,,,30.8497,113.601,30.8497,-66.3991,,,monload-611_runway,,,,,2.4,0.9854499999999999,0.0,
48,0.0,2379.06,113.944,0.0,0.0,,,21.1497,113.934,21.1497,-66.0656,,,monload-611_runway,,,,,2.4,0.991275,0.0,
49,0.0,2370.09,114.084,0.0,0.0,,,18.8942,114.084,18.8942,-65.9163,,,monload-611_runway,,,,,2.4,0.9875375000000001,0.0,
50,0.0,2371.58,114.119,0.0,0.0,,,18.3946,114.118,18.3946,-65.882,,,monload-611_runway,,,,,2.4,0.9881583333333332,0.0,
51,0.0,2373.27,114.159,0.0,0.0,,,17.8874,114.158,17.8874,-65.8417,,,monload-611_runway,,,,,2.4,0.9888625,0.0,
52,0.0,2372.98,114.151,0.0,0.0,,,18.4384,114.151,18.4384,-65.8487,,,monload-611_runway,,,,,2.4,0.9887416666666666,0.0,
53,0.0,2345.63,113.512,0.0,0.0,,,19.6598,113.512,19.6598,-66.488,,,monload-611_runway,,,,,2.4,0.9773458333333334,0.0,
54,0.0,2333.34,113.219,0.0,0.0,,,23.9779,113.217,23.9779,-66.7828,,,monload-611_runway,,,,,2.4,0.972225,0.0,
55,0.0,2304.46,112.514,0.0,0.0,,,35.7182,112.514,35.7182,-67.4862,,,monload-611_runway,,,,,2.4,0.9601916666666667,0.0,
56,0.0,2280.84,111.973,0.0,0.0,,,35.9782,111.973,35.9782,-68.0266,,,monload-611_runway,,,,,2.4,0.95035,0.0,
57,0.0,2275.2,111.858,0.0,0.0,,,31.4871,111.861,31.4871,-68.139,,,monload-611_runway,,,,,2.4,0.948,0.0,
58,0.0,2309.57,112.626,0.0,0.0,,,31.2533,112.625,31.2533,-67.3755,,,monload-611_runway,,,,,2.4,0.9623208333333334,0.0,
59,0.0,2340.73,113.345,0.0,0.0,,,24.7817,113.342,24.7817,-66.6575,,,monload-611_runway,,,,,2.4,0.9753041666666666,0.0,
60,0.0,2287.67,112.159,0.0,0.0,,,25.9092,112.16,25.9092,-67.8401,,,monload-611_runway,,,,,2.4,0.9531958333333334,0.0,
61,0.0,2324.7,112.984,0.0,0.0,,,27.1001,112.982,27.1001,-67.0183,,,monload-611_runway,,,,,2.4,0.968625,0.0,
62,0.0,2314.99,112.759,0.0,0.0,,,27.5835,112.76,27.5835,-67.2405,,,monload-611_runway,,,,,2.4,0.9645791666666665,0.0,
63,0.0,2300.83,112.441,0.0,0.0,,,27.9419,112.441,27.9419,-67.5586,,,monload-611_runway,,,,,2.4,0.9586791666666666,0.0,
64,0.0,2290.61,112.211,0.0,0.0,,,28.0794,112.22,28.0794,-67.78,,,monload-611_runway,,,,,2.4,0.9544208333333334,0.0,
65,0.0,2260.36,111.537,0.0,0.0,,,28.259,111.537,28.259,-68.4635,,,monload-611_runway,,,,,2.4,0.9418166666666667,0.0,
66,0.0,2255.33,111.114,0.0,0.0,,,32.2267,111.112,32.2267,-68.8884,,,monload-611_runway,,,,,2.4,0.9397208333333333,0.0,
67,0.0,2296.99,112.039,0.0,0.0,,,38.728,112.037,38.728,-67.9629,,,monload-611_runway,,,,,2.4,0.9570791666666666,0.0,
68,0.0,2297.09,112.035,0.0,0.0,,,40.8709,112.034,40.8709,-67.9658,,,monload-611_runway,,,,,2.4,0.9571208333333334,0.0,
69,0.0,2322.14,112.597,0.0,0.0,,,44.806,112.594,44.806,-67.4061,,,monload-611_runway,,,,,2.4,0.9675583333333333,0.0,
70,0.0,2336.29,112.919,0.0,0.0,,,41.9513,112.918,41.9513,-67.0823,,,monload-611_runway,,,,,2.4,0.9734541666666666,0.0,
71,0.0,2372.03,113.767,0.0,0.0,,,30.874,113.767,30.874,-66.233,,,monload-611_runway,,,,,2.4,0.9883458333333334,0.0,
72,0.0,2371.67,114.115,0.0,0.0,,,21.1947,114.12,21.1947,-65.8799,,,monload-611_runway,,,,,2.4,0.9881958333333334,0.0,
73,0.0,2380.04,114.313,0.0,0.0,,,18.5785,114.309,18.5785,-65.6912,,,monload-611_runway,,,,,2.4,0.9916833333333334,0.0,
74,0.0,2381.18,114.341,0.0,0.0,,,17.7129,114.341,17.7129,-65.6595,,,monload-611_runway,,,,,2.4,0.9921583333333333,0.0,
75,0.0,2382.4,114.372,0.0,0.0,,,16.7422,114.371,16.7422,-65.6291,,,monload-611_runway,,,,,2.4,0.9926666666666667,0.0,
76,0.0,2382.3,114.369,0.0,0.0,,,16.8093,114.369,16.8093,-65.6309,,,monload-611_runway,,,,,2.4,0.9926250000000001,0.0,
77,0.0,2355.59,113.742,0.0,0.0,,,17.5128,113.742,17.5128,-66.2581,,,monload-611_runway,,,,,2.4,0.9814958333333333,0.0,
78,0.0,2347.56,113.549,0.0,0.0,,,20.9229,113.549,20.9229,-66.4508,,,monload-611_runway,,,,,2.4,0.97815,0.0,
79,0.0,2283.44,112.05,0.0,0.0,,,32.7171,112.053,32.7171,-67.9473,,,monload-611_runway,,,,,2.4,0.9514333333333334,0.0,
80,0.0,2258.15,111.471,0.0,0.0,,,34.6388,111.474,34.6388,-68.5259,,,monload-611_runway,,,,,2.4,0.9408958333333334,0.0,
81,0.0,2296.97,112.337,0.0,0.0,,,30.82,112.335,30.82,-67.6645,,,monload-611_runway,,,,,2.4,0.9570708333333332,0.0,
82,0.0,2315.28,112.789,0.0,0.0,,,30.1071,112.789,30.1071,-67.2106,,,monload-611_runway,,,,,2.4,0.9647000000000001,0.0,
83,0.0,2365.32,113.949,0.0,0.0,,,23.08,113.947,23.08,-66.0533,,,monload-611_runway,,,,,2.4,0.98555,0.0,
84,0.0,2425.34,115.293,0.0,0.0,,,23.6213,115.293,23.6213,-64.7068,,,monload-611_runway,,,,,2.4,1.0105583333333334,0.0,
85,0.0,2426.33,115.668,0.0,0.0,,,24.733,115.668,24.733,-64.3318,,,monload-611_runway,,,,,2.4,1.0109708333333334,0.0,
86,0.0,2410.64,115.29,0.0,0.0,,,26.0612,115.29,26.0612,-64.7102,,,monload-611_runway,,,,,2.4,1.0044333333333333,0.0,
87,0.0,2384.35,114.671,0.0,0.0,,,26.4039,114.672,26.4039,-65.3283,,,monload-611_runway,,,,,2.4,0.9934791666666666,0.0,
88,0.0,2342.64,113.705,0.0,0.0,,,26.3335,113.708,26.3335,-66.292,,,monload-611_runway,,,,,2.4,0.9761,0.0,
89,0.0,2292.25,112.235,0.0,0.0,,,27.5633,112.231,27.5633,-67.7685,,,monload-611_runway,,,,,2.4,0.9551041666666666,0.0,
90,0.0,2269.9,111.695,0.0,0.0,,,33.6652,111.695,33.6652,-68.3049,,,monload-611_runway,,,,,2.4,0.9457916666666667,0.0,
91,0.0,2298.99,112.358,0.0,0.0,,,41.4629,112.357,41.4629,-67.6428,,,monload-611_runway,,,,,2.4,0.9579125,0.0,
92,0.0,2266.03,111.65,0.0,0.0,,,44.2568,111.65,44.2568,-68.3499,,,monload-611_runway,,,,,2.4,0.9441791666666668,0.0,
93,0.0,2290.98,112.208,0.0,0.0,,,49.2734,112.207,49.2734,-67.793,,,monload-611_runway,,,,,2.4,0.9545750000000001,0.0,
94,0.0,2306.21,112.554,0.0,0.0,,,46.4184,112.553,46.4184,-67.4466,,,monload-611_runway,,,,,2.4,0.9609208333333333,0.0,
95,0.0,2342.56,113.413,0.0,0.0,,,34.3923,113.409,34.3923,-66.5909,,,monload-611_runway,,,,,2.4,0.9760666666666666,0.0,
96,0.0,2357.6,113.783,0.0,0.0,,,24.0131,113.781,24.0131,-66.2186,,,monload-611_runway,,,,,2.4,0.9823333333333333,0.0,
97,0.0,2365.9,113.979,0.0,0.0,,,21.7964,113.978,21.7964,-66.0218,,,monload-611_runway,,,,,2.4,0.9857916666666667,0.0,
98,0.0,2367.87,114.026,0.0,0.0,,,20.8093,114.022,20.8093,-65.9785,,,monload-611_runway,,,,,2.4,0.9866125,0.0,
99,0.0,2369.49,114.066,0.0,0.0,,,19.5335,114.063,19.5335,-65.9373,,,monload-611_runway,,,,,2.4,0.9872874999999999,0.0,
100,0.0,2371.48,114.113,0.0,0.0,,,19.3539,114.108,19.3539,-65.8918,,,monload-611_runway,,,,,2.4,0.9881166666666666,0.0,
101,0.0,2347.9,113.563,0.0,0.0,,,19.795,113.565,19.795,-66.4351,,,monload-611_runway,,,,,2.4,0.9782916666666667,0.0,
102,0.0,2336.74,113.298,0.0,0.0,,,23.6849,113.317,23.6849,-66.6829,,,monload-611_runway,,,,,2.4,0.9736416666666666,0.0,
103,0.0,2268.51,111.707,0.0,0.0,,,38.2182,111.708,38.2182,-68.2923,,,monload-611_runway,,,,,2.4,0.9452125000000001,0.0,
104,0.0,2255.04,111.09,0.0,0.0,,,42.208,111.088,42.208,-68.9121,,,monload-611_runway,,,,,2.4,0.9396,0.0,
105,0.0,2293.69,111.938,0.0,0.0,,,39.7651,111.936,39.7651,-68.0639,,,monload-611_runway,,,,,2.4,0.9557041666666667,0.0,
106,0.0,2334.33,112.828,0.0,0.0,,,42.459,112.822,42.459,-67.1779,,,monload-611_runway,,,,,2.4,0.9726374999999999,0.0,
107,0.0,2339.2,112.996,0.0,0.0,,,36.7749,112.997,36.7749,-67.0034,,,monload-611_runway,,,,,2.4,0.9746666666666666,0.0,
108,0.0,2393.51,114.572,0.0,0.0,,,34.924,114.575,34.924,-65.4254,,,monload-611_runway,,,,,2.4,0.9972958333333334,0.0,
109,0.0,2415.38,115.022,0.0,0.0,,,35.3309,115.022,35.3309,-64.9785,,,monload-611_runway,,,,,2.4,1.0064083333333333,0.0,
110,0.0,2397.66,114.602,0.0,0.0,,,36.1511,114.602,36.1511,-65.3983,,,monload-611_runway,,,,,2.4,0.9990249999999999,0.0,
111,0.0,2371.68,113.999,0.0,0.0,,,36.557,114.0,36.557,-66.0002,,,monload-611_runway,,,,,2.4,0.9882,0.0,
112,0.0,2333.29,113.127,0.0,0.0,,,35.8436,113.13,35.8436,-66.8705,,,monload-611_runway,,,,,2.4,0.9722041666666666,0.0,
113,0.0,2271.34,111.736,0.0,0.0,,,37.1756,111.737,37.1756,-68.2634,,,monload-611_runway,,,,,2.4,0.9463916666666667,0.0,
114,0.0,2258.87,111.431,0.0,0.0,,,41.9397,111.431,41.9397,-68.5692,,,monload-611_runway,,,,,2.4,0.9411958333333333,0.0,
115,0.0,2297.15,112.308,0.0,0.0,,,48.2942,112.307,48.2942,-67.6932,,,monload-611_runway,,,,,2.4,0.9571458333333334,0.0,
116,0.0,2266.18,111.644,0.0,0.0,,,50.5569,111.644,50.5569,-68.3559,,,monload-611_runway,,,,,2.4,0.9442416666666666,0.0,
117,0.0,2291.42,112.211,0.0,0.0,,,55.1034,112.21,55.1034,-67.7897,,,monload-611_runway,,,,,2.4,0.9547583333333334,0.0,
118,0.0,2307.49,112.577,0.0,0.0,,,52.4571,112.576,52.4571,-67.4242,,,monload-611_runway,,,,,2.4,0.9614541666666666,0.0,
119,0.0,2346.09,113.487,0.0,0.0,,,40.733,113.483,40.733,-66.5172,,,monload-611_runway,,,,,2.4,0.9775375000000001,0.0,
120,0.0,2363.68,113.917,0.0,0.0,,,29.5798,113.915,29.5798,-66.0849,,,monload-611_runway,,,,,2.4,0.9848666666666666,0.0,
121,0.0,2375.63,114.202,0.0,0.0,,,25.8806,114.2,25.8806,-65.7999,,,monload-611_runway,,,,,2.4,0.9898458333333334,0.0,
122,0.0,2377.66,114.25,0.0,0.0,,,24.5759,114.246,24.5759,-65.7542,,,monload-611_runway,,,,,2.4,0.9906916666666666,0.0,
123,0.0,2379.55,114.297,0.0,0.0,,,22.9971,114.293,22.9971,-65.7068,,,monload-611_runway,,,,,2.4,0.9914791666666667,0.0,
124,0.0,2380.57,114.322,0.0,0.0,,,22.3842,114.32,22.3842,-65.6798,,,monload-611_runway,,,,,2.4,0.9919041666666667,0.0,
125,0.0,2353.77,113.696,0.0,0.0,,,22.8134,113.699,22.8134,-66.3011,,,monload-611_runway,,,,,2.4,0.9807375,0.0,
126,0.0,2343.93,113.461,0.0,0.0,,,26.7316,113.48,26.7316,-66.5202,,,monload-611_runway,,,,,2.4,0.9766374999999999,0.0,
127,0.0,2275.14,111.855,0.0,0.0,,,41.2107,111.856,41.2107,-68.1442,,,monload-611_runway,,,,,2.4,0.9479749999999999,0.0,
128,0.0,2245.76,111.181,0.0,0.0,,,44.8265,111.176,44.8265,-68.8242,,,monload-611_runway,,,,,2.4,0.9357333333333334,0.0,
129,0.0,2262.36,111.533,0.0,0.0,,,43.6955,111.527,43.6955,-68.4729,,,monload-611_runway,,,,,2.4,0.9426500000000001,0.0,
130,0.0,2302.71,112.423,0.0,0.0,,,44.3574,112.421,44.3574,-67.5791,,,monload-611_runway,,,,,2.4,0.9594625,0.0,
131,0.0,2317.2,112.803,0.0,0.0,,,38.3172,112.803,38.3172,-67.1967,,,monload-611_runway,,,,,2.4,0.9654999999999999,0.0,
132,0.0,2297.05,112.304,0.0,0.0,,,39.0492,112.303,39.0492,-67.6965,,,monload-611_runway,,,,,2.4,0.9571041666666668,0.0,
133,0.0,2352.35,113.6,0.0,0.0,,,39.7514,113.599,39.7514,-66.4007,,,monload-611_runway,,,,,2.4,0.9801458333333333,0.0,
134,0.0,2347.79,113.437,0.0,0.0,,,40.3209,113.438,40.3209,-66.5625,,,monload-611_runway,,,,,2.4,0.9782458333333334,0.0,
135,0.0,2349.85,113.485,0.0,0.0,,,40.0177,113.484,40.0177,-66.5162,,,monload-611_runway,,,,,2.4,0.9791041666666667,0.0,
136,0.0,2315.52,112.713,0.0,0.0,,,38.751,112.714,38.751,-67.2863,,,monload-611_runway,,,,,2.4,0.9648,0.0,
137,0.0,2263.09,111.551,0.0,0.0,,,37.5619,111.551,37.5619,-68.449,,,monload-611_runway,,,,,2.4,0.9429541666666668,0.0,
138,0.0,2254.33,111.33,0.0,0.0,,,42.3904,111.33,42.3904,-68.6705,,,monload-611_runway,,,,,2.4,0.9393041666666666,0.0,
139,0.0,2286.24,112.057,0.0,0.0,,,49.9773,112.056,49.9773,-67.9442,,,monload-611_runway,,,,,2.4,0.9525999999999999,0.0,
140,0.0,2255.31,111.395,0.0,0.0,,,52.0758,111.395,52.0758,-68.605,,,monload-611_runway,,,,,2.4,0.9397125,0.0,
141,0.0,2279.05,111.926,0.0,0.0,,,57.1633,111.926,57.1633,-68.0743,,,monload-611_runway,,,,,2.4,0.9496041666666667,0.0,
142,0.0,2306.97,112.565,0.0,0.0,,,51.6617,112.563,51.6617,-67.4367,,,monload-611_runway,,,,,2.4,0.9612375,0.0,
143,0.0,2354.22,113.681,0.0,0.0,,,37.0848,113.674,37.0848,-66.3257,,,monload-611_runway,,,,,2.4,0.9809249999999999,0.0,
144,0.0,2371.27,114.101,0.0,0.0,,,25.3175,114.098,25.3175,-65.9016,,,monload-611_runway,,,,,2.4,0.9880291666666666,0.0,
145,0.0,2379.18,114.289,0.0,0.0,,,23.1146,114.287,23.1146,-65.7128,,,monload-611_runway,,,,,2.4,0.9913249999999999,0.0,
146,0.0,2379.05,114.286,0.0,0.0,,,22.7156,114.286,22.7156,-65.7139,,,monload-611_runway,,,,,2.4,0.9912708333333334,0.0,
147,0.0,2381.53,114.349,0.0,0.0,,,19.4987,114.343,19.4987,-65.657,,,monload-611_runway,,,,,2.4,0.9923041666666668,0.0,
148,0.0,2382.06,114.362,0.0,0.0,,,19.1538,114.361,19.1538,-65.6393,,,monload-611_runway,,,,,2.4,0.992525,0.0,
149,0.0,2374.21,114.178,0.0,0.0,,,19.44,114.179,19.44,-65.8209,,,monload-611_runway,,,,,2.4,0.9892541666666667,0.0,
150,0.0,2368.14,114.035,0.0,0.0,,,20.7921,114.049,20.7921,-65.9509,,,monload-611_runway,,,,,2.4,0.986725,0.0,
151,0.0,2338.22,113.319,0.0,0.0,,,30.6613,113.322,30.6613,-66.6777,,,monload-611_runway,,,,,2.4,0.9742583333333332,0.0,
152,0.0,2318.94,112.871,0.0,0.0,,,32.5578,112.873,32.5578,-67.1275,,,monload-611_runway,,,,,2.4,0.966225,0.0,
153,0.0,2353.55,113.628,0.0,0.0,,,45.5458,113.623,45.5458,-66.3775,,,monload-611_runway,,,,,2.4,0.9806458333333334,0.0,
154,0.0,2336.76,113.25,0.0,0.0,,,40.6198,113.252,40.6198,-66.7479,,,monload-611_runway,,,,,2.4,0.9736500000000001,0.0,
155,0.0,2409.31,114.97,0.0,0.0,,,31.8176,114.97,31.8176,-65.0301,,,monload-611_runway,,,,,2.4,1.0038791666666667,0.0,
156,0.0,2447.05,116.217,0.0,0.0,,,31.3428,116.218,31.3428,-63.7816,,,monload-611_runway,,,,,2.4,1.0196041666666666,0.0,
157,0.0,2436.9,115.94,0.0,0.0,,,32.0281,115.94,32.0281,-64.0596,,,monload-611_runway,,,,,2.4,1.0153750000000001,0.0,
158,0.0,2433.55,115.863,0.0,0.0,,,31.7662,115.863,31.7662,-64.137,,,monload-611_runway,,,,,2.4,1.0139791666666667,0.0,
159,0.0,2410.0,115.306,0.0,0.0,,,32.0361,115.306,32.0361,-64.6938,,,monload-611_runway,,,,,2.4,1.0041666666666667,0.0,
160,0.0,2360.48,114.156,0.0,0.0,,,33.0122,114.159,33.0122,-65.8408,,,monload-611_runway,,,,,2.4,0.9835333333333334,0.0,
161,0.0,2326.48,113.376,0.0,0.0,,,33.2851,113.376,33.2851,-66.624,,,monload-611_runway,,,,,2.4,0.9693666666666667,0.0,
162,0.0,2310.07,112.651,0.0,0.0,,,36.5459,112.65,36.5459,-67.3497,,,monload-611_runway,,,,,2.4,0.9625291666666668,0.0,
163,0.0,2298.06,112.356,0.0,0.0,,,47.5561,112.357,47.5561,-67.6434,,,monload-611_runway,,,,,2.4,0.957525,0.0,
164,0.0,2298.89,112.407,0.0,0.0,,,49.2997,112.406,49.2997,-67.5935,,,monload-611_runway,,,,,2.4,0.9578708333333332,0.0,
165,0.0,2320.4,112.897,0.0,0.0,,,51.8892,112.896,51.8892,-67.104,,,monload-611_runway,,,,,2.4,0.9668333333333333,0.0,
166,0.0,2328.4,113.059,0.0,0.0,,,51.0972,113.059,51.0972,-66.9408,,,monload-611_runway,,,,,2.4,0.9701666666666667,0.0,
167,0.0,2351.52,113.609,0.0,0.0,,,40.8171,113.608,40.8171,-66.3916,,,monload-611_runway,,,,,2.4,0.9798,0.0,
168,0.0,2369.75,114.058,0.0,0.0,,,27.8677,114.057,27.8677,-65.943,,,monload-611_runway,,,,,2.4,0.9873958333333334,0.0,
169,0.0,2383.11,114.377,0.0,0.0,,,23.6005,114.376,23.6005,-65.6235,,,monload-611_runway,,,,,2.4,0.9929625000000001,0.0,
170,0.0,2384.42,114.408,0.0,0.0,,,23.0303,114.406,23.0303,-65.5938,,,monload-611_runway,,,,,2.4,0.9935083333333333,0.0,
