hour,t(sec),V1,VAngle1,V2,VAngle2,V3,VAngle3,I1,IAngle1,I2,IAngle2,I3,IAngle3,Name
1,0.0,2394.75,119.56700000000001,0.0,0.0,,,43.1367,119.56700000000001,43.1367,-60.4328,,,monload-611_hotel
2,0.0,2394.45,119.552,0.0,0.0,,,45.7742,119.552,45.7742,-60.4479,,,monload-611_hotel
3,0.0,2395.62,119.59200000000001,0.0,0.0,,,39.9058,119.59200000000001,39.9058,-60.4081,,,monload-611_hotel
4,0.0,2395.87,119.6,0.0,0.0,,,38.7017,119.6,38.7017,-60.3997,,,monload-611_hotel
5,0.0,2395.39,119.587,0.0,0.0,,,39.0717,119.588,39.0717,-60.4125,,,monload-611_hotel
6,0.0,2394.1,119.555,0.0,0.0,,,42.3067,119.555,42.3067,-60.4448,,,monload-611_hotel
7,0.0,2388.88,119.37899999999999,0.0,0.0,,,63.5775,119.38,63.5775,-60.6203,,,monload-611_hotel
8,0.0,2388.35,119.37100000000001,0.0,0.0,,,67.8662,119.37100000000001,67.8662,-60.6292,,,monload-611_hotel
9,0.0,2383.74,119.20200000000001,0.0,0.0,,,93.7779,119.20200000000001,93.7779,-60.7984,,,monload-611_hotel
10,0.0,2387.3,119.32600000000001,0.0,0.0,,,80.5483,119.325,80.5483,-60.6746,,,monload-611_hotel
11,0.0,2392.66,119.508,0.0,0.0,,,56.915,119.507,56.915,-60.4925,,,monload-611_hotel
12,0.0,2395.53,119.637,0.0,0.0,,,53.3413,119.637,53.3413,-60.3635,,,monload-611_hotel
13,0.0,2393.08,119.51799999999999,0.0,0.0,,,53.1575,119.51799999999999,53.1575,-60.4816,,,monload-611_hotel
14,0.0,2394.16,119.568,0.0,0.0,,,53.2417,119.56700000000001,53.2417,-60.4325,,,monload-611_hotel
15,0.0,2395.07,119.611,0.0,0.0,,,53.0946,119.61,53.0946,-60.3896,,,monload-611_hotel
16,0.0,2395.13,119.619,0.0,0.0,,,52.7958,119.619,52.7958,-60.3808,,,monload-611_hotel
17,0.0,2392.18,119.52,0.0,0.0,,,55.3571,119.521,55.3571,-60.4791,,,monload-611_hotel
18,0.0,2387.2,119.351,0.0,0.0,,,66.9467,119.352,66.9467,-60.6481,,,monload-611_hotel
19,0.0,2381.49,119.15700000000001,0.0,0.0,,,91.9212,119.15799999999999,91.9212,-60.8423,,,monload-611_hotel
20,0.0,2380.76,119.13,0.0,0.0,,,96.4971,119.13,96.4971,-60.8704,,,monload-611_hotel
21,0.0,2379.88,119.101,0.0,0.0,,,101.833,119.101,101.833,-60.8995,,,monload-611_hotel
22,0.0,2381.25,119.134,0.0,0.0,,,98.9275,119.134,98.9275,-60.8656,,,monload-611_hotel
23,0.0,2386.81,119.314,0.0,0.0,,,76.0358,119.31299999999999,76.0358,-60.6865,,,monload-611_hotel
24,0.0,2392.91,119.512,0.0,0.0,,,48.8033,119.512,48.8033,-60.4885,,,monload-611_hotel
25,0.0,2395.06,119.581,0.0,0.0,,,39.7604,119.58,39.7604,-60.4197,,,monload-611_hotel
26,0.0,2395.41,119.59299999999999,0.0,0.0,,,38.0196,119.59200000000001,38.0196,-60.4075,,,monload-611_hotel
27,0.0,2395.76,119.60600000000001,0.0,0.0,,,36.0533,119.60600000000001,36.0533,-60.3945,,,monload-611_hotel
28,0.0,2395.71,119.604,0.0,0.0,,,36.235,119.604,36.235,-60.3961,,,monload-611_hotel
29,0.0,2394.69,119.566,0.0,0.0,,,37.6592,119.566,37.6592,-60.4342,,,monload-611_hotel
30,0.0,2392.25,119.495,0.0,0.0,,,45.2842,119.495,45.2842,-60.5045,,,monload-611_hotel
31,0.0,2383.68,119.221,0.0,0.0,,,70.6758,119.22200000000001,70.6758,-60.7782,,,monload-611_hotel
32,0.0,2383.58,119.181,0.0,0.0,,,74.2371,119.181,74.2371,-60.8195,,,monload-611_hotel
33,0.0,2386.07,119.24799999999999,0.0,0.0,,,65.5525,119.24799999999999,65.5525,-60.7524,,,monload-611_hotel
34,0.0,2388.02,119.289,0.0,0.0,,,66.2387,119.289,66.2387,-60.7115,,,monload-611_hotel
35,0.0,2391.73,119.414,0.0,0.0,,,53.5379,119.414,53.5379,-60.5863,,,monload-611_hotel
36,0.0,2388.86,119.286,0.0,0.0,,,55.3904,119.286,55.3904,-60.7143,,,monload-611_hotel
37,0.0,2393.61,119.525,0.0,0.0,,,56.2571,119.525,56.2571,-60.4746,,,monload-611_hotel
38,0.0,2391.13,119.38,0.0,0.0,,,54.0496,119.38,54.0496,-60.6197,,,monload-611_hotel
39,0.0,2396.28,119.62,0.0,0.0,,,52.2029,119.62,52.2029,-60.38,,,monload-611_hotel
40,0.0,2394.02,119.51700000000001,0.0,0.0,,,52.7137,119.51700000000001,52.7137,-60.4829,,,monload-611_hotel
41,0.0,2390.32,119.382,0.0,0.0,,,55.1004,119.382,55.1004,-60.6178,,,monload-611_hotel
42,0.0,2383.9,119.206,0.0,0.0,,,67.4433,119.20700000000001,67.4433,-60.7928,,,monload-611_hotel
43,0.0,2380.9,119.139,0.0,0.0,,,82.6417,119.139,82.6417,-60.861000000000004,,,monload-611_hotel
44,0.0,2379.99,119.10600000000001,0.0,0.0,,,87.71,119.10600000000001,87.71,-60.8944,,,monload-611_hotel
45,0.0,2378.96,119.07799999999999,0.0,0.0,,,96.1129,119.07799999999999,96.1129,-60.9215,,,monload-611_hotel
46,0.0,2381.01,119.141,0.0,0.0,,,90.1046,119.141,90.1046,-60.8593,,,monload-611_hotel
47,0.0,2388.34,119.366,0.0,0.0,,,65.7104,119.365,65.7104,-60.6346,,,monload-611_hotel
48,0.0,2393.18,119.521,0.0,0.0,,,45.0492,119.52,45.0492,-60.48,,,monload-611_hotel
49,0.0,2394.58,119.56200000000001,0.0,0.0,,,40.245,119.56200000000001,40.245,-60.4381,,,monload-611_hotel
50,0.0,2394.79,119.571,0.0,0.0,,,39.1808,119.571,39.1808,-60.4294,,,monload-611_hotel
51,0.0,2395.0,119.57799999999999,0.0,0.0,,,38.1004,119.57799999999999,38.1004,-60.4216,,,monload-611_hotel
52,0.0,2394.62,119.569,0.0,0.0,,,39.2742,119.569,39.2742,-60.4312,,,monload-611_hotel
53,0.0,2393.32,119.52,0.0,0.0,,,41.8758,119.52,41.8758,-60.4797,,,monload-611_hotel
54,0.0,2390.66,119.441,0.0,0.0,,,51.0733,119.44200000000001,51.0733,-60.5583,,,monload-611_hotel
55,0.0,2382.11,119.17,0.0,0.0,,,76.0804,119.171,76.0804,-60.82899999999999,,,monload-611_hotel
56,0.0,2382.8,119.154,0.0,0.0,,,76.6342,119.15299999999999,76.6342,-60.8466,,,monload-611_hotel
57,0.0,2387.01,119.292,0.0,0.0,,,67.2179,119.292,67.2179,-60.7084,,,monload-611_hotel
58,0.0,2390.64,119.416,0.0,0.0,,,66.57,119.415,66.57,-60.5848,,,monload-611_hotel
59,0.0,2395.29,119.589,0.0,0.0,,,52.7854,119.589,52.7854,-60.4114,,,monload-611_hotel
60,0.0,2391.22,119.406,0.0,0.0,,,55.1871,119.406,55.1871,-60.5942,,,monload-611_hotel
61,0.0,2392.46,119.492,0.0,0.0,,,57.7238,119.492,57.7238,-60.5082,,,monload-611_hotel
62,0.0,2392.19,119.471,0.0,0.0,,,58.7533,119.471,58.7533,-60.5285,,,monload-611_hotel
63,0.0,2391.19,119.426,0.0,0.0,,,59.5167,119.426,59.5167,-60.5735,,,monload-611_hotel
64,0.0,2390.32,119.396,0.0,0.0,,,59.8096,119.396,59.8096,-60.6042,,,monload-611_hotel
65,0.0,2387.74,119.302,0.0,0.0,,,60.7446,119.302,60.7446,-60.6975,,,monload-611_hotel
66,0.0,2383.49,119.195,0.0,0.0,,,69.4392,119.196,69.4392,-60.8043,,,monload-611_hotel
67,0.0,2381.23,119.15100000000001,0.0,0.0,,,82.4912,119.15100000000001,82.4912,-60.8487,,,monload-611_hotel
68,0.0,2380.4,119.12100000000001,0.0,0.0,,,87.0558,119.12100000000001,87.0558,-60.8786,,,monload-611_hotel
69,0.0,2379.4,119.095,0.0,0.0,,,95.4375,119.095,95.4375,-60.9054,,,monload-611_hotel
70,0.0,2381.43,119.156,0.0,0.0,,,89.3571,119.156,89.3571,-60.8445,,,monload-611_hotel
71,0.0,2388.48,119.37299999999999,0.0,0.0,,,65.7621,119.37200000000001,65.7621,-60.6276,,,monload-611_hotel
72,0.0,2393.4,119.529,0.0,0.0,,,45.145,119.52799999999999,45.145,-60.4717,,,monload-611_hotel
73,0.0,2395.05,119.579,0.0,0.0,,,39.5725,119.57799999999999,39.5725,-60.4216,,,monload-611_hotel
74,0.0,2395.46,119.59299999999999,0.0,0.0,,,37.7287,119.59200000000001,37.7287,-60.4076,,,monload-611_hotel
75,0.0,2395.92,119.60799999999999,0.0,0.0,,,35.6613,119.60799999999999,35.6613,-60.3924,,,monload-611_hotel
76,0.0,2395.9,119.60700000000001,0.0,0.0,,,35.8042,119.60700000000001,35.8042,-60.3933,,,monload-611_hotel
77,0.0,2394.87,119.568,0.0,0.0,,,37.3025,119.568,37.3025,-60.4321,,,monload-611_hotel
78,0.0,2392.75,119.506,0.0,0.0,,,44.5662,119.507,44.5662,-60.4934,,,monload-611_hotel
79,0.0,2384.88,119.243,0.0,0.0,,,69.6879,119.244,69.6879,-60.7565,,,monload-611_hotel
80,0.0,2384.21,119.18700000000001,0.0,0.0,,,74.5383,119.18700000000001,74.5383,-60.8127,,,monload-611_hotel
81,0.0,2388.7,119.359,0.0,0.0,,,65.6471,119.35799999999999,65.6471,-60.6415,,,monload-611_hotel
82,0.0,2393.52,119.544,0.0,0.0,,,64.1288,119.544,64.1288,-60.4558,,,monload-611_hotel
83,0.0,2399.68,119.788,0.0,0.0,,,49.1608,119.788,49.1608,-60.2117,,,monload-611_hotel
84,0.0,2401.06,119.86,0.0,0.0,,,50.3138,119.86,50.3138,-60.1404,,,monload-611_hotel
85,0.0,2401.25,119.887,0.0,0.0,,,52.6817,119.88600000000001,52.6817,-60.1135,,,monload-611_hotel
86,0.0,2400.41,119.839,0.0,0.0,,,55.5108,119.839,55.5108,-60.1606,,,monload-611_hotel
87,0.0,2398.96,119.765,0.0,0.0,,,56.2408,119.765,56.2408,-60.2347,,,monload-611_hotel
88,0.0,2396.47,119.646,0.0,0.0,,,56.0908,119.647,56.0908,-60.3531,,,monload-611_hotel
89,0.0,2391.33,119.439,0.0,0.0,,,58.7104,119.44,58.7104,-60.5604,,,monload-611_hotel
90,0.0,2383.53,119.196,0.0,0.0,,,72.0446,119.196,72.0446,-60.8044,,,monload-611_hotel
91,0.0,2379.83,119.095,0.0,0.0,,,88.3167,119.095,88.3167,-60.9049,,,monload-611_hotel
92,0.0,2378.72,119.054,0.0,0.0,,,94.8817,119.054,94.8817,-60.9461,,,monload-611_hotel
93,0.0,2377.5,119.01799999999999,0.0,0.0,,,104.95299999999999,119.01799999999999,104.95299999999999,-60.9817,,,monload-611_hotel
94,0.0,2379.58,119.081,0.0,0.0,,,98.8721,119.081,98.8721,-60.9188,,,monload-611_hotel
95,0.0,2387.07,119.314,0.0,0.0,,,73.2562,119.31299999999999,73.2562,-60.6872,,,monload-611_hotel
96,0.0,2392.32,119.48,0.0,0.0,,,51.1483,119.479,51.1483,-60.5207,,,monload-611_hotel
97,0.0,2393.84,119.524,0.0,0.0,,,46.4267,119.524,46.4267,-60.4761,,,monload-611_hotel
98,0.0,2394.35,119.541,0.0,0.0,,,44.3242,119.541,44.3242,-60.4592,,,monload-611_hotel
99,0.0,2394.93,119.561,0.0,0.0,,,41.6067,119.561,41.6067,-60.4395,,,monload-611_hotel
100,0.0,2395.05,119.565,0.0,0.0,,,41.2242,119.565,41.2242,-60.4348,,,monload-611_hotel
101,0.0,2394.21,119.53299999999999,0.0,0.0,,,42.1637,119.53399999999999,42.1637,-60.4664,,,monload-611_hotel
102,0.0,2391.82,119.462,0.0,0.0,,,50.4492,119.462,50.4492,-60.5377,,,monload-611_hotel
103,0.0,2383.32,119.161,0.0,0.0,,,81.8408,119.162,81.8408,-60.8382,,,monload-611_hotel
104,0.0,2381.44,119.07,0.0,0.0,,,90.9583,119.07,90.9583,-60.9302,,,monload-611_hotel
105,0.0,2385.0,119.225,0.0,0.0,,,84.7004,119.225,84.7004,-60.7754,,,monload-611_hotel
106,0.0,2386.93,119.34,0.0,0.0,,,90.4383,119.34,90.4383,-60.6597,,,monload-611_hotel
107,0.0,2391.1,119.544,0.0,0.0,,,78.3313,119.544,78.3313,-60.4557,,,monload-611_hotel
108,0.0,2394.1,119.665,0.0,0.0,,,74.3887,119.665,74.3887,-60.3354,,,monload-611_hotel
109,0.0,2394.36,119.70100000000001,0.0,0.0,,,75.2554,119.70100000000001,75.2554,-60.2987,,,monload-611_hotel
110,0.0,2393.21,119.65100000000001,0.0,0.0,,,77.0025,119.65100000000001,77.0025,-60.3492,,,monload-611_hotel
111,0.0,2391.48,119.571,0.0,0.0,,,77.8671,119.571,77.8671,-60.4289,,,monload-611_hotel
112,0.0,2389.39,119.463,0.0,0.0,,,76.3475,119.463,76.3475,-60.5366,,,monload-611_hotel
113,0.0,2383.89,119.25,0.0,0.0,,,79.5,119.25,79.5,-60.7501,,,monload-611_hotel
114,0.0,2377.51,119.04,0.0,0.0,,,90.2146,119.04,90.2146,-60.9595,,,monload-611_hotel
115,0.0,2375.57,118.98299999999999,0.0,0.0,,,102.868,118.98299999999999,102.868,-61.016999999999996,,,monload-611_hotel
116,0.0,2374.92,118.95299999999999,0.0,0.0,,,108.381,118.95299999999999,108.381,-61.047,,,monload-611_hotel
117,0.0,2374.01,118.926,0.0,0.0,,,117.37100000000001,118.926,117.37100000000001,-61.0739,,,monload-611_hotel
118,0.0,2376.22,118.99,0.0,0.0,,,111.735,118.99,111.735,-61.0103,,,monload-611_hotel
119,0.0,2383.78,119.221,0.0,0.0,,,86.7621,119.221,86.7621,-60.7795,,,monload-611_hotel
120,0.0,2392.04,119.465,0.0,0.0,,,63.0054,119.465,63.0054,-60.5346,,,monload-611_hotel
121,0.0,2393.92,119.527,0.0,0.0,,,55.1263,119.52600000000001,55.1263,-60.4737,,,monload-611_hotel
122,0.0,2394.5,119.54700000000001,0.0,0.0,,,52.3471,119.54700000000001,52.3471,-60.4532,,,monload-611_hotel
123,0.0,2395.19,119.571,0.0,0.0,,,48.9842,119.57,48.9842,-60.4296,,,monload-611_hotel
124,0.0,2395.48,119.58,0.0,0.0,,,47.6787,119.58,47.6787,-60.4203,,,monload-611_hotel
125,0.0,2394.79,119.54799999999999,0.0,0.0,,,48.5929,119.54799999999999,48.5929,-60.4519,,,monload-611_hotel
126,0.0,2392.84,119.485,0.0,0.0,,,56.9388,119.485,56.9388,-60.5148,,,monload-611_hotel
127,0.0,2384.94,119.20299999999999,0.0,0.0,,,87.9779,119.204,87.9779,-60.7956,,,monload-611_hotel
128,0.0,2382.71,119.113,0.0,0.0,,,97.0242,119.11399999999999,97.0242,-60.8863,,,monload-611_hotel
129,0.0,2384.38,119.22200000000001,0.0,0.0,,,93.8425,119.22200000000001,93.8425,-60.7784,,,monload-611_hotel
130,0.0,2387.64,119.374,0.0,0.0,,,94.4821,119.374,94.4821,-60.6264,,,monload-611_hotel
131,0.0,2393.04,119.618,0.0,0.0,,,81.6162,119.618,81.6162,-60.3821,,,monload-611_hotel
132,0.0,2391.5,119.555,0.0,0.0,,,83.1754,119.555,83.1754,-60.4447,,,monload-611_hotel
133,0.0,2392.17,119.602,0.0,0.0,,,84.6712,119.602,84.6712,-60.3983,,,monload-611_hotel
134,0.0,2392.05,119.59899999999999,0.0,0.0,,,85.8842,119.59899999999999,85.8842,-60.4012,,,monload-611_hotel
135,0.0,2392.33,119.60700000000001,0.0,0.0,,,85.2383,119.60700000000001,85.2383,-60.3929,,,monload-611_hotel
136,0.0,2390.69,119.515,0.0,0.0,,,82.5404,119.515,82.5404,-60.485,,,monload-611_hotel
137,0.0,2387.7,119.36399999999999,0.0,0.0,,,80.6383,119.36399999999999,80.6383,-60.6356,,,monload-611_hotel
138,0.0,2382.04,119.137,0.0,0.0,,,91.3779,119.13799999999999,91.3779,-60.8618,,,monload-611_hotel
139,0.0,2379.47,119.057,0.0,0.0,,,106.45200000000001,119.057,106.45200000000001,-60.9432,,,monload-611_hotel
140,0.0,2378.51,119.021,0.0,0.0,,,112.205,119.021,112.205,-60.9789,,,monload-611_hotel
141,0.0,2377.34,118.988,0.0,0.0,,,121.81200000000001,118.988,121.81200000000001,-61.0123,,,monload-611_hotel
142,0.0,2380.64,119.09100000000001,0.0,0.0,,,110.04,119.09100000000001,110.04,-60.9089,,,monload-611_hotel
143,0.0,2388.73,119.353,0.0,0.0,,,78.9912,119.351,78.9912,-60.6486,,,monload-611_hotel
144,0.0,2394.02,119.531,0.0,0.0,,,53.9267,119.529,53.9267,-60.4706,,,monload-611_hotel
145,0.0,2395.23,119.569,0.0,0.0,,,49.2346,119.569,49.2346,-60.4309,,,monload-611_hotel
146,0.0,2395.41,119.575,0.0,0.0,,,48.3846,119.575,48.3846,-60.4252,,,monload-611_hotel
147,0.0,2396.76,119.62200000000001,0.0,0.0,,,41.5325,119.62200000000001,41.5325,-60.3784,,,monload-611_hotel
148,0.0,2396.91,119.62700000000001,0.0,0.0,,,40.7979,119.62700000000001,40.7979,-60.3728,,,monload-611_hotel
149,0.0,2396.59,119.616,0.0,0.0,,,41.4075,119.616,41.4075,-60.3836,,,monload-611_hotel
150,0.0,2395.81,119.59299999999999,0.0,0.0,,,44.2875,119.594,44.2875,-60.4064,,,monload-611_hotel
151,0.0,2390.23,119.412,0.0,0.0,,,65.3092,119.413,65.3092,-60.586999999999996,,,monload-611_hotel
152,0.0,2389.3,119.367,0.0,0.0,,,69.3487,119.367,69.3487,-60.6329,,,monload-611_hotel
153,0.0,2386.26,119.294,0.0,0.0,,,97.0133,119.294,97.0133,-60.7057,,,monload-611_hotel
154,0.0,2388.24,119.34700000000001,0.0,0.0,,,86.5208,119.34700000000001,86.5208,-60.6535,,,monload-611_hotel
155,0.0,2398.25,119.786,0.0,0.0,,,67.7721,119.786,67.7721,-60.2141,,,monload-611_hotel
156,0.0,2399.51,119.853,0.0,0.0,,,66.7608,119.852,66.7608,-60.1478,,,monload-611_hotel
157,0.0,2398.07,119.796,0.0,0.0,,,68.2204,119.796,68.2204,-60.20399999999999,,,monload-611_hotel
158,0.0,2397.93,119.78299999999999,0.0,0.0,,,67.6625,119.78299999999999,67.6625,-60.2165,,,monload-611_hotel
159,0.0,2396.91,119.72,0.0,0.0,,,68.2375,119.721,68.2375,-60.2793,,,monload-611_hotel
160,0.0,2392.93,119.542,0.0,0.0,,,70.3167,119.54299999999999,70.3167,-60.4571,,,monload-611_hotel
161,0.0,2390.61,119.446,0.0,0.0,,,70.8979,119.447,70.8979,-60.5535,,,monload-611_hotel
162,0.0,2387.36,119.31299999999999,0.0,0.0,,,77.8433,119.314,77.8433,-60.6865,,,monload-611_hotel
163,0.0,2383.08,119.155,0.0,0.0,,,101.295,119.155,101.295,-60.845,,,monload-611_hotel
164,0.0,2382.45,119.133,0.0,0.0,,,105.009,119.133,105.009,-60.867,,,monload-611_hotel
165,0.0,2381.78,119.118,0.0,0.0,,,110.525,119.118,110.525,-60.8817,,,monload-611_hotel
166,0.0,2382.43,119.137,0.0,0.0,,,108.838,119.13600000000001,108.838,-60.8635,,,monload-611_hotel
167,0.0,2387.26,119.3,0.0,0.0,,,86.9413,119.3,86.9413,-60.7002,,,monload-611_hotel
168,0.0,2393.01,119.495,0.0,0.0,,,59.3587,119.494,59.3587,-60.5064,,,monload-611_hotel
169,0.0,2395.09,119.566,0.0,0.0,,,50.2696,119.566,50.2696,-60.4342,,,monload-611_hotel
170,0.0,2395.37,119.57600000000001,0.0,0.0,,,49.055,119.575,49.055,-60.4245,,,monload-611_hotel
171,0.0,2396.73,119.62299999999999,0.0,0.0,,,42.1954,119.62299999999999,42.1954,-60.376999999999995,,,monload-611_hotel
172,0.0,2396.8,119.626,0.0,0.0,,,41.8475,119.626,41.8475,-60.3742,,,monload-611_hotel
173,0.0,2396.38,119.611,0.0,0.0,,,42.9613,119.611,42.9613,-60.3891,,,monload-611_hotel
174,0.0,2395.57,119.587,0.0,0.0,,,45.9196,119.587,45.9196,-60.4131,,,monload-611_hotel
175,0.0,2391.0,119.42399999999999,0.0,0.0,,,66.4571,119.425,66.4571,-60.5754,,,monload-611_hotel
176,0.0,2390.21,119.397,0.0,0.0,,,71.1221,119.397,71.1221,-60.6032,,,monload-611_hotel
177,0.0,2385.48,119.265,0.0,0.0,,,105.635,119.265,105.635,-60.7346,,,monload-611_hotel
178,0.0,2388.84,119.441,0.0,0.0,,,103.148,119.44,103.148,-60.5597,,,monload-611_hotel
179,0.0,2387.72,119.348,0.0,0.0,,,84.5004,119.34899999999999,84.5004,-60.6514,,,monload-611_hotel
180,0.0,2388.86,119.39399999999999,0.0,0.0,,,81.26,119.39399999999999,81.26,-60.6064,,,monload-611_hotel
181,0.0,2391.16,119.51100000000001,0.0,0.0,,,81.8363,119.51,81.8363,-60.4895,,,monload-611_hotel
182,0.0,2391.23,119.52600000000001,0.0,0.0,,,84.8196,119.52600000000001,84.8196,-60.4738,,,monload-611_hotel
183,0.0,2389.37,119.455,0.0,0.0,,,87.6263,119.455,87.6263,-60.5451,,,monload-611_hotel
184,0.0,2388.24,119.39299999999999,0.0,0.0,,,85.7421,119.39399999999999,85.7421,-60.6063,,,monload-611_hotel
185,0.0,2387.07,119.34100000000001,0.0,0.0,,,83.9721,119.34200000000001,83.9721,-60.6584,,,monload-611_hotel
186,0.0,2385.06,119.25299999999999,0.0,0.0,,,88.63,119.25399999999999,88.63,-60.7461,,,monload-611_hotel
187,0.0,2381.63,119.12299999999999,0.0,0.0,,,107.90899999999999,119.124,107.90899999999999,-60.8765,,,monload-611_hotel
188,0.0,2381.88,119.126,0.0,0.0,,,108.495,119.126,108.495,-60.8739,,,monload-611_hotel
189,0.0,2381.58,119.11399999999999,0.0,0.0,,,111.51100000000001,119.11399999999999,111.51100000000001,-60.886,,,monload-611_hotel
190,0.0,2382.71,119.147,0.0,0.0,,,107.713,119.146,107.713,-60.8536,,,monload-611_hotel
191,0.0,2387.81,119.32,0.0,0.0,,,84.55,119.319,84.55,-60.6806,,,monload-611_hotel
192,0.0,1365.7,119.583,0.0,0.0,,,32.4959,119.583,32.4959,-60.4172,,,monload-611_hotel
193,0.0,1366.86,119.647,0.0,0.0,,,25.9416,119.647,25.9416,-60.3527,,,monload-611_hotel
194,0.0,1367.3,119.67299999999999,0.0,0.0,,,23.3842,119.67299999999999,23.3842,-60.3266,,,monload-611_hotel
195,0.0,1367.68,119.697,0.0,0.0,,,21.1136,119.696,21.1136,-60.3035,,,monload-611_hotel
196,0.0,1367.75,119.70100000000001,0.0,0.0,,,20.6822,119.70100000000001,20.6822,-60.2994,,,monload-611_hotel
197,0.0,1367.5,119.681,0.0,0.0,,,21.256999999999998,119.681,21.256999999999998,-60.3188,,,monload-611_hotel
198,0.0,1366.73,119.641,0.0,0.0,,,25.4322,119.641,25.4322,-60.3588,,,monload-611_hotel
199,0.0,1363.78,119.455,0.0,0.0,,,40.7903,119.455,40.7903,-60.5453,,,monload-611_hotel
200,0.0,1363.02,119.398,0.0,0.0,,,44.5639,119.398,44.5639,-60.6022,,,monload-611_hotel
201,0.0,1363.67,119.434,0.0,0.0,,,40.6878,119.434,40.6878,-60.5657,,,monload-611_hotel
202,0.0,1363.23,119.405,0.0,0.0,,,43.1413,119.405,43.1413,-60.5947,,,monload-611_hotel
203,0.0,1364.07,119.459,0.0,0.0,,,37.9861,119.459,37.9861,-60.5407,,,monload-611_hotel
204,0.0,1363.35,119.425,0.0,0.0,,,41.7086,119.425,41.7086,-60.5748,,,monload-611_hotel
205,0.0,1362.79,119.402,0.0,0.0,,,44.7607,119.402,44.7607,-60.5979,,,monload-611_hotel
206,0.0,1362.41,119.383,0.0,0.0,,,46.516999999999996,119.383,46.516999999999996,-60.6174,,,monload-611_hotel
207,0.0,1362.14,119.37200000000001,0.0,0.0,,,47.7475,119.37200000000001,47.7475,-60.628,,,monload-611_hotel
208,0.0,1362.67,119.398,0.0,0.0,,,44.8262,119.399,44.8262,-60.6015,,,monload-611_hotel
209,0.0,1362.72,119.404,0.0,0.0,,,44.3897,119.404,44.3897,-60.5958,,,monload-611_hotel
210,0.0,1361.76,119.346,0.0,0.0,,,49.958999999999996,119.346,49.958999999999996,-60.653999999999996,,,monload-611_hotel
211,0.0,1360.85,119.30799999999999,0.0,0.0,,,56.9427,119.30799999999999,56.9427,-60.6922,,,monload-611_hotel
212,0.0,1360.5,119.281,0.0,0.0,,,59.2043,119.281,59.2043,-60.7192,,,monload-611_hotel
