hour,t(sec),V1,VAngle1,V2,VAngle2,I1,IAngle1,I2,IAngle2,Name,V3,VAngle3,I3,IAngle3,V4,VAngle4,I4,IAngle4,kv,V1(PU),V2(PU),V3(PU)
1,0.0,2365.79,113.852,0.0,0.0,20.2518,113.855,20.2518,-66.1453,monload-611_runway,,,,,,,,,2.4,0.9857458333333333,0.0,
2,0.0,2365.43,113.84,0.0,0.0,21.49,113.84100000000001,21.49,-66.1592,monload-611_runway,,,,,,,,,2.4,0.9855958333333332,0.0,
3,0.0,2366.49,113.866,0.0,0.0,18.735,113.865,18.735,-66.1354,monload-611_runway,,,,,,,,,2.4,0.9860374999999999,0.0,
4,0.0,2366.71,113.87200000000001,0.0,0.0,18.1696,113.87100000000001,18.1696,-66.1285,monload-611_runway,,,,,,,,,2.4,0.9861291666666667,0.0,
5,0.0,2356.86,113.63600000000001,0.0,0.0,18.3433,113.637,18.3433,-66.3627,monload-611_runway,,,,,,,,,2.4,0.982025,0.0,
6,0.0,2350.52,113.488,0.0,0.0,19.8621,113.49,19.8621,-66.5105,monload-611_runway,,,,,,,,,2.4,0.9793833333333333,0.0,
7,0.0,2313.7,112.60799999999999,0.0,0.0,29.8483,112.609,29.8483,-67.3911,monload-611_runway,,,,,,,,,2.4,0.9640416666666666,0.0,
8,0.0,2319.29,112.74,0.0,0.0,31.8618,112.73899999999999,31.8618,-67.2614,monload-611_runway,,,,,,,,,2.4,0.9663708333333333,0.0,
9,0.0,2297.78,112.219,0.0,0.0,44.0268,112.219,44.0268,-67.7805,monload-611_runway,,,,,,,,,2.4,0.9574083333333334,0.0,
10,0.0,2310.36,112.514,0.0,0.0,37.8158,112.51100000000001,37.8158,-67.48899999999999,monload-611_runway,,,,,,,,,2.4,0.96265,0.0,
11,0.0,2323.42,112.822,0.0,0.0,26.7204,112.819,26.7204,-67.1806,monload-611_runway,,,,,,,,,2.4,0.9680916666666667,0.0,
12,0.0,2330.74,112.98899999999999,0.0,0.0,25.0426,112.98700000000001,25.0426,-67.0129,monload-611_runway,,,,,,,,,2.4,0.9711416666666666,0.0,
13,0.0,2324.5,112.84899999999999,0.0,0.0,24.9564,112.851,24.9564,-67.1494,monload-611_runway,,,,,,,,,2.4,0.9685416666666666,0.0,
14,0.0,2330.0,112.976,0.0,0.0,24.9959,112.975,24.9959,-67.0254,monload-611_runway,,,,,,,,,2.4,0.9708333333333333,0.0,
15,0.0,2332.36,113.02799999999999,0.0,0.0,24.9268,113.02799999999999,24.9268,-66.9723,monload-611_runway,,,,,,,,,2.4,0.9718166666666668,0.0,
16,0.0,2331.22,113.00200000000001,0.0,0.0,24.7866,113.00399999999999,24.7866,-66.9958,monload-611_runway,,,,,,,,,2.4,0.9713416666666665,0.0,
17,0.0,2321.87,112.795,0.0,0.0,25.989,112.79700000000001,25.989,-67.2032,monload-611_runway,,,,,,,,,2.4,0.9674458333333333,0.0,
18,0.0,2306.86,112.456,0.0,0.0,31.4301,112.458,31.4301,-67.5416,monload-611_runway,,,,,,,,,2.4,0.9611916666666667,0.0,
19,0.0,2295.05,112.178,0.0,0.0,43.1551,112.18,43.1551,-67.8199,monload-611_runway,,,,,,,,,2.4,0.9562708333333334,0.0,
20,0.0,2295.69,112.191,0.0,0.0,45.3034,112.191,45.3034,-67.8087,monload-611_runway,,,,,,,,,2.4,0.9565375,0.0,
21,0.0,2303.03,112.365,0.0,0.0,47.8087,112.363,47.8087,-67.6367,monload-611_runway,,,,,,,,,2.4,0.9595958333333334,0.0,
22,0.0,2311.8,112.566,0.0,0.0,46.4444,112.565,46.4444,-67.4352,monload-611_runway,,,,,,,,,2.4,0.96325,0.0,
23,0.0,2336.19,113.145,0.0,0.0,35.6973,113.14200000000001,35.6973,-66.8585,monload-611_runway,,,,,,,,,2.4,0.9734125,0.0,
24,0.0,2353.46,113.559,0.0,0.0,22.9122,113.556,22.9122,-66.444,monload-611_runway,,,,,,,,,2.4,0.9806083333333333,0.0,
25,0.0,2359.73,113.708,0.0,0.0,18.6667,113.70700000000001,18.6667,-66.2934,monload-611_runway,,,,,,,,,2.4,0.9832208333333333,0.0,
26,0.0,2360.08,113.71600000000001,0.0,0.0,17.8494,113.71600000000001,17.8494,-66.2844,monload-611_runway,,,,,,,,,2.4,0.9833666666666666,0.0,
27,0.0,2360.79,113.734,0.0,0.0,16.9263,113.73299999999999,16.9263,-66.2671,monload-611_runway,,,,,,,,,2.4,0.9836625,0.0,
28,0.0,2360.87,113.736,0.0,0.0,17.0116,113.736,17.0116,-66.2638,monload-611_runway,,,,,,,,,2.4,0.9836958333333333,0.0,
29,0.0,2325.97,112.898,0.0,0.0,17.6802,112.898,17.6802,-67.1015,monload-611_runway,,,,,,,,,2.4,0.9691541666666665,0.0,
30,0.0,2312.42,112.58,0.0,0.0,21.26,112.58200000000001,21.26,-67.4179,monload-611_runway,,,,,,,,,2.4,0.9635083333333334,0.0,
31,0.0,2234.93,110.762,0.0,0.0,32.489000000000004,110.76299999999999,32.489000000000004,-69.2372,monload-611_runway,,,,,,,,,2.4,0.9312208333333333,0.0,
32,0.0,2218.84,110.071,0.0,0.0,33.8692,110.07600000000001,33.8692,-69.9237,monload-611_runway,,,,,,,,,2.4,0.9245166666666668,0.0,
33,0.0,2215.36,109.986,0.0,0.0,29.8546,109.986,29.8546,-70.0144,monload-611_runway,,,,,,,,,2.4,0.9230666666666667,0.0,
34,0.0,2210.27,109.859,0.0,0.0,30.0931,109.85600000000001,30.0931,-70.1443,monload-611_runway,,,,,,,,,2.4,0.9209458333333334,0.0,
35,0.0,2215.16,109.96799999999999,0.0,0.0,24.3804,109.96799999999999,24.3804,-70.0323,monload-611_runway,,,,,,,,,2.4,0.9229833333333333,0.0,
36,0.0,2201.76,109.66799999999999,0.0,0.0,25.0628,109.66799999999999,25.0628,-70.3319,monload-611_runway,,,,,,,,,2.4,0.9174000000000001,0.0,
37,0.0,2220.59,110.09299999999999,0.0,0.0,25.685,110.09299999999999,25.685,-69.907,monload-611_runway,,,,,,,,,2.4,0.9252458333333334,0.0,
38,0.0,2206.11,109.762,0.0,0.0,24.5071,109.762,24.5071,-70.2377,monload-611_runway,,,,,,,,,2.4,0.9192125000000001,0.0,
39,0.0,2219.26,110.06200000000001,0.0,0.0,23.819000000000003,110.06200000000001,23.819000000000003,-69.9381,monload-611_runway,,,,,,,,,2.4,0.9246916666666668,0.0,
40,0.0,2212.14,109.899,0.0,0.0,23.9705,109.9,23.9705,-70.1004,monload-611_runway,,,,,,,,,2.4,0.9217249999999999,0.0,
41,0.0,2198.8,109.60799999999999,0.0,0.0,24.896,109.60799999999999,24.896,-70.392,monload-611_runway,,,,,,,,,2.4,0.9161666666666668,0.0,
42,0.0,2190.05,109.43799999999999,0.0,0.0,30.3447,109.43799999999999,30.3447,-70.5618,monload-611_runway,,,,,,,,,2.4,0.9125208333333334,0.0,
43,0.0,2240.65,110.59,0.0,0.0,38.0922,110.59,38.0922,-69.4101,monload-611_runway,,,,,,,,,2.4,0.9336041666666667,0.0,
44,0.0,2240.81,110.589,0.0,0.0,40.431,110.589,40.431,-69.411,monload-611_runway,,,,,,,,,2.4,0.9336708333333333,0.0,
45,0.0,2272.19,111.31,0.0,0.0,44.96,111.31,44.96,-68.6898,monload-611_runway,,,,,,,,,2.4,0.9467458333333334,0.0,
46,0.0,2290.49,111.73100000000001,0.0,0.0,42.3023,111.726,42.3023,-68.2743,monload-611_runway,,,,,,,,,2.4,0.9543708333333333,0.0,
47,0.0,2336.45,112.811,0.0,0.0,30.8497,112.809,30.8497,-67.1908,monload-611_runway,,,,,,,,,2.4,0.9735208333333333,0.0,
48,0.0,2351.95,113.177,0.0,0.0,21.1497,113.17,21.1497,-66.8303,monload-611_runway,,,,,,,,,2.4,0.9799791666666666,0.0,
49,0.0,2358.68,113.334,0.0,0.0,18.8942,113.331,18.8942,-66.6689,monload-611_runway,,,,,,,,,2.4,0.9827833333333332,0.0,
50,0.0,2360.56,113.37899999999999,0.0,0.0,18.3946,113.37200000000001,18.3946,-66.6276,monload-611_runway,,,,,,,,,2.4,0.9835666666666666,0.0,
51,0.0,2362.87,113.435,0.0,0.0,17.8874,113.427,17.8874,-66.5734,monload-611_runway,,,,,,,,,2.4,0.9845291666666666,0.0,
52,0.0,2362.65,113.431,0.0,0.0,18.4384,113.432,18.4384,-66.5682,monload-611_runway,,,,,,,,,2.4,0.9844375000000001,0.0,
53,0.0,2326.76,112.57799999999999,0.0,0.0,19.6598,112.58,19.6598,-67.4197,monload-611_runway,,,,,,,,,2.4,0.9694833333333335,0.0,
54,0.0,2312.21,112.241,0.0,0.0,23.9779,112.24700000000001,23.9779,-67.7527,monload-611_runway,,,,,,,,,2.4,0.9634208333333334,0.0,
55,0.0,2235.52,110.462,0.0,0.0,34.9818,110.46,34.9818,-69.5399,monload-611_runway,,,,,,,,,2.4,0.9314666666666667,0.0,
56,0.0,2206.75,109.802,0.0,0.0,34.7579,109.803,34.7579,-70.1967,monload-611_runway,,,,,,,,,2.4,0.9194791666666666,0.0,
57,0.0,2208.94,109.839,0.0,0.0,30.5195,109.84,30.5195,-70.1603,monload-611_runway,,,,,,,,,2.4,0.9203916666666667,0.0,
58,0.0,2210.08,109.85600000000001,0.0,0.0,30.2416,109.855,30.2416,-70.1446,monload-611_runway,,,,,,,,,2.4,0.9208666666666666,0.0,
59,0.0,2221.59,110.116,0.0,0.0,24.1129,110.12,24.1129,-69.8801,monload-611_runway,,,,,,,,,2.4,0.9256625,0.0,
60,0.0,2212.83,109.917,0.0,0.0,25.1035,109.917,25.1035,-70.0833,monload-611_runway,,,,,,,,,2.4,0.9220125,0.0,
61,0.0,2226.51,110.23,0.0,0.0,26.429000000000002,110.23,26.429000000000002,-69.7697,monload-611_runway,,,,,,,,,2.4,0.9277125,0.0,
62,0.0,2215.98,109.991,0.0,0.0,26.7642,109.98299999999999,26.7642,-70.0171,monload-611_runway,,,,,,,,,2.4,0.9233250000000001,0.0,
63,0.0,2212.13,109.904,0.0,0.0,27.0639,109.904,27.0639,-70.0961,monload-611_runway,,,,,,,,,2.4,0.9217208333333334,0.0,
64,0.0,2208.1,109.816,0.0,0.0,27.1447,109.816,27.1447,-70.1843,monload-611_runway,,,,,,,,,2.4,0.9200416666666666,0.0,
65,0.0,2196.59,109.564,0.0,0.0,27.4171,109.564,27.4171,-70.4356,monload-611_runway,,,,,,,,,2.4,0.9152458333333334,0.0,
66,0.0,2195.47,109.561,0.0,0.0,31.3245,109.561,31.3245,-70.439,monload-611_runway,,,,,,,,,2.4,0.9147791666666666,0.0,
67,0.0,2251.12,110.83,0.0,0.0,38.2106,110.829,38.2106,-69.1706,monload-611_runway,,,,,,,,,2.4,0.9379666666666666,0.0,
68,0.0,2251.77,110.84100000000001,0.0,0.0,40.3368,110.84100000000001,40.3368,-69.1593,monload-611_runway,,,,,,,,,2.4,0.9382375,0.0,
69,0.0,2283.86,111.581,0.0,0.0,44.806000000000004,111.58,44.806000000000004,-68.4202,monload-611_runway,,,,,,,,,2.4,0.9516083333333334,0.0,
70,0.0,2301.13,111.98,0.0,0.0,41.9513,111.973,41.9513,-68.0271,monload-611_runway,,,,,,,,,2.4,0.9588041666666667,0.0,
71,0.0,2345.64,113.03,0.0,0.0,30.874000000000002,113.02799999999999,30.874000000000002,-66.972,monload-611_runway,,,,,,,,,2.4,0.9773499999999999,0.0,
72,0.0,2361.59,113.406,0.0,0.0,21.1947,113.399,21.1947,-66.6006,monload-611_runway,,,,,,,,,2.4,0.9839958333333334,0.0,
73,0.0,2355.16,113.598,0.0,0.0,18.5785,113.601,18.5785,-66.3989,monload-611_runway,,,,,,,,,2.4,0.9813166666666666,0.0,
74,0.0,2356.37,113.62700000000001,0.0,0.0,17.7129,113.625,17.7129,-66.3751,monload-611_runway,,,,,,,,,2.4,0.9818208333333333,0.0,
75,0.0,2357.68,113.65899999999999,0.0,0.0,16.7422,113.656,16.7422,-66.3437,monload-611_runway,,,,,,,,,2.4,0.9823666666666666,0.0,
76,0.0,2357.55,113.656,0.0,0.0,16.8093,113.656,16.8093,-66.3441,monload-611_runway,,,,,,,,,2.4,0.9823125,0.0,
77,0.0,2322.49,112.815,0.0,0.0,17.5128,112.815,17.5128,-67.1847,monload-611_runway,,,,,,,,,2.4,0.9677041666666666,0.0,
78,0.0,2313.52,112.60600000000001,0.0,0.0,20.9229,112.60700000000001,20.9229,-67.3925,monload-611_runway,,,,,,,,,2.4,0.9639666666666666,0.0,
79,0.0,2234.52,110.75299999999999,0.0,0.0,32.0285,110.75299999999999,32.0285,-69.2466,monload-611_runway,,,,,,,,,2.4,0.93105,0.0,
80,0.0,2216.85,110.02600000000001,0.0,0.0,33.9745,110.031,33.9745,-69.969,monload-611_runway,,,,,,,,,2.4,0.9236875,0.0,
81,0.0,2218.36,110.04899999999999,0.0,0.0,29.9404,110.04899999999999,29.9404,-69.95100000000001,monload-611_runway,,,,,,,,,2.4,0.9243166666666667,0.0,
82,0.0,2221.8,110.12200000000001,0.0,0.0,29.2948,110.11399999999999,29.2948,-69.8862,monload-611_runway,,,,,,,,,2.4,0.9257500000000001,0.0,
83,0.0,2234.33,110.412,0.0,0.0,22.592,110.412,22.592,-69.5882,monload-611_runway,,,,,,,,,2.4,0.9309708333333333,0.0,
84,0.0,2234.16,110.414,0.0,0.0,23.12,110.414,23.12,-69.5862,monload-611_runway,,,,,,,,,2.4,0.9309,0.0,
85,0.0,2241.91,110.594,0.0,0.0,24.2968,110.594,24.2968,-69.4063,monload-611_runway,,,,,,,,,2.4,0.9341291666666666,0.0,
86,0.0,2229.63,110.31200000000001,0.0,0.0,25.4535,110.31200000000001,25.4535,-69.6882,monload-611_runway,,,,,,,,,2.4,0.9290125,0.0,
87,0.0,2221.65,110.126,0.0,0.0,25.6895,110.118,25.6895,-69.8824,monload-611_runway,,,,,,,,,2.4,0.9256875,0.0,
88,0.0,2211.27,109.88600000000001,0.0,0.0,25.4955,109.88600000000001,25.4955,-70.1137,monload-611_runway,,,,,,,,,2.4,0.9213625,0.0,
89,0.0,2192.55,109.46799999999999,0.0,0.0,26.4475,109.46799999999999,26.4475,-70.5322,monload-611_runway,,,,,,,,,2.4,0.9135625,0.0,
90,0.0,2179.24,109.195,0.0,0.0,32.2456,109.195,32.2456,-70.8053,monload-611_runway,,,,,,,,,2.4,0.9080166666666666,0.0,
91,0.0,2230.38,110.354,0.0,0.0,40.5109,110.353,40.5109,-69.6466,monload-611_runway,,,,,,,,,2.4,0.9293250000000001,0.0,
92,0.0,2231.57,110.375,0.0,0.0,43.5462,110.375,43.5462,-69.6249,monload-611_runway,,,,,,,,,2.4,0.9298208333333334,0.0,
93,0.0,2263.42,111.104,0.0,0.0,48.8953,111.104,48.8953,-68.8961,monload-611_runway,,,,,,,,,2.4,0.9430916666666667,0.0,
94,0.0,2279.73,111.476,0.0,0.0,46.4125,111.475,46.4125,-68.5248,monload-611_runway,,,,,,,,,2.4,0.9498875,0.0,
95,0.0,2325.69,112.551,0.0,0.0,34.3923,112.54799999999999,34.3923,-67.4517,monload-611_runway,,,,,,,,,2.4,0.9690375,0.0,
96,0.0,2342.32,112.94,0.0,0.0,24.0131,112.932,24.0131,-67.0676,monload-611_runway,,,,,,,,,2.4,0.9759666666666668,0.0,
97,0.0,2351.98,113.166,0.0,0.0,21.7964,113.162,21.7964,-66.8384,monload-611_runway,,,,,,,,,2.4,0.9799916666666667,0.0,
98,0.0,2354.22,113.219,0.0,0.0,20.8093,113.211,20.8093,-66.7894,monload-611_runway,,,,,,,,,2.4,0.9809249999999999,0.0,
99,0.0,2356.08,113.264,0.0,0.0,19.5335,113.257,19.5335,-66.7434,monload-611_runway,,,,,,,,,2.4,0.9817,0.0,
100,0.0,2358.67,113.32600000000001,0.0,0.0,19.3539,113.325,19.3539,-66.6751,monload-611_runway,,,,,,,,,2.4,0.9827791666666666,0.0,
101,0.0,2327.27,112.58200000000001,0.0,0.0,19.795,112.583,19.795,-67.4166,monload-611_runway,,,,,,,,,2.4,0.9696958333333333,0.0,
102,0.0,2314.03,112.274,0.0,0.0,23.6849,112.281,23.6849,-67.7193,monload-611_runway,,,,,,,,,2.4,0.9641791666666667,0.0,
103,0.0,2230.22,110.331,0.0,0.0,37.5362,110.329,37.5362,-69.6712,monload-611_runway,,,,,,,,,2.4,0.9292583333333333,0.0,
104,0.0,2196.84,109.56700000000001,0.0,0.0,41.0588,109.568,41.0588,-70.4315,monload-611_runway,,,,,,,,,2.4,0.9153500000000001,0.0,
105,0.0,2195.31,109.52600000000001,0.0,0.0,38.2059,109.52600000000001,38.2059,-70.47399999999999,monload-611_runway,,,,,,,,,2.4,0.9147124999999999,0.0,
106,0.0,2185.49,109.314,0.0,0.0,40.601,109.314,40.601,-70.686,monload-611_runway,,,,,,,,,2.4,0.9106208333333332,0.0,
107,0.0,2187.47,109.381,0.0,0.0,35.1995,109.381,35.1995,-70.6187,monload-611_runway,,,,,,,,,2.4,0.9114458333333333,0.0,
108,0.0,2198.4,109.631,0.0,0.0,33.6047,109.631,33.6047,-70.3694,monload-611_runway,,,,,,,,,2.4,0.916,0.0,
109,0.0,2211.11,109.92299999999999,0.0,0.0,34.2041,109.92299999999999,34.2041,-70.0771,monload-611_runway,,,,,,,,,2.4,0.9212958333333334,0.0,
110,0.0,2199.33,109.65700000000001,0.0,0.0,34.801,109.65700000000001,34.801,-70.3433,monload-611_runway,,,,,,,,,2.4,0.9163875,0.0,
111,0.0,2193.86,109.52799999999999,0.0,0.0,35.0981,109.522,35.0981,-70.4778,monload-611_runway,,,,,,,,,2.4,0.9141083333333334,0.0,
112,0.0,2188.63,109.40100000000001,0.0,0.0,34.3272,109.40100000000001,34.3272,-70.5991,monload-611_runway,,,,,,,,,2.4,0.9119291666666667,0.0,
113,0.0,2175.57,109.11,0.0,0.0,35.5191,109.11,35.5191,-70.8901,monload-611_runway,,,,,,,,,2.4,0.9064875000000001,0.0,
114,0.0,2173.02,109.071,0.0,0.0,40.2562,109.071,40.2562,-70.9291,monload-611_runway,,,,,,,,,2.4,0.905425,0.0,
115,0.0,2232.95,110.42299999999999,0.0,0.0,47.2431,110.42200000000001,47.2431,-69.5778,monload-611_runway,,,,,,,,,2.4,0.9303958333333333,0.0,
116,0.0,2235.9,110.48299999999999,0.0,0.0,49.8436,110.48299999999999,49.8436,-69.5175,monload-611_runway,,,,,,,,,2.4,0.931625,0.0,
117,0.0,2267.85,111.215,0.0,0.0,54.7936,111.215,54.7936,-68.7846,monload-611_runway,,,,,,,,,2.4,0.9449375,0.0,
118,0.0,2285.8,111.626,0.0,0.0,52.4571,111.62200000000001,52.4571,-68.3776,monload-611_runway,,,,,,,,,2.4,0.9524166666666667,0.0,
119,0.0,2333.71,112.74799999999999,0.0,0.0,40.733000000000004,112.745,40.733000000000004,-67.2545,monload-611_runway,,,,,,,,,2.4,0.9723791666666667,0.0,
120,0.0,2352.93,113.198,0.0,0.0,29.5798,113.189,29.5798,-66.8105,monload-611_runway,,,,,,,,,2.4,0.9803875,0.0,
121,0.0,2366.41,113.514,0.0,0.0,25.8806,113.508,25.8806,-66.4924,monload-611_runway,,,,,,,,,2.4,0.9860041666666666,0.0,
122,0.0,2368.58,113.566,0.0,0.0,24.5759,113.557,24.5759,-66.4426,monload-611_runway,,,,,,,,,2.4,0.9869083333333333,0.0,
123,0.0,2354.63,113.581,0.0,0.0,22.9971,113.584,22.9971,-66.4159,monload-611_runway,,,,,,,,,2.4,0.9810958333333334,0.0,
124,0.0,2355.6,113.604,0.0,0.0,22.3842,113.602,22.3842,-66.3984,monload-611_runway,,,,,,,,,2.4,0.9814999999999999,0.0,
125,0.0,2320.29,112.757,0.0,0.0,22.8134,112.758,22.8134,-67.2422,monload-611_runway,,,,,,,,,2.4,0.9667875,0.0,
126,0.0,2309.17,112.49799999999999,0.0,0.0,26.7316,112.5,26.7316,-67.5001,monload-611_runway,,,,,,,,,2.4,0.9621541666666666,0.0,
127,0.0,2240.04,110.557,0.0,0.0,40.5433,110.561,40.5433,-69.4386,monload-611_runway,,,,,,,,,2.4,0.93335,0.0,
128,0.0,2204.67,109.74799999999999,0.0,0.0,43.9618,109.749,43.9618,-70.251,monload-611_runway,,,,,,,,,2.4,0.9186125,0.0,
129,0.0,2190.08,109.42299999999999,0.0,0.0,42.2227,109.42399999999999,42.2227,-70.5761,monload-611_runway,,,,,,,,,2.4,0.9125333333333333,0.0,
130,0.0,2186.82,109.351,0.0,0.0,42.4437,109.351,42.4437,-70.6492,monload-611_runway,,,,,,,,,2.4,0.9111750000000001,0.0,
131,0.0,2192.19,109.494,0.0,0.0,36.7595,109.494,36.7595,-70.506,monload-611_runway,,,,,,,,,2.4,0.9134125000000001,0.0,
132,0.0,2183.86,109.309,0.0,0.0,37.3111,109.309,37.3111,-70.6906,monload-611_runway,,,,,,,,,2.4,0.9099416666666668,0.0,
133,0.0,2193.12,109.52600000000001,0.0,0.0,38.1545,109.53,38.1545,-70.4704,monload-611_runway,,,,,,,,,2.4,0.9138,0.0,
134,0.0,2182.86,109.296,0.0,0.0,38.5049,109.29,38.5049,-70.7096,monload-611_runway,,,,,,,,,2.4,0.909525,0.0,
135,0.0,2184.16,109.324,0.0,0.0,38.2424,109.325,38.2424,-70.6752,monload-611_runway,,,,,,,,,2.4,0.9100666666666666,0.0,
136,0.0,2180.84,109.23899999999999,0.0,0.0,36.9721,109.23899999999999,36.9721,-70.7606,monload-611_runway,,,,,,,,,2.4,0.9086833333333334,0.0,
137,0.0,2171.62,109.027,0.0,0.0,35.9584,109.027,35.9584,-70.9728,monload-611_runway,,,,,,,,,2.4,0.9048416666666667,0.0,
138,0.0,2182.59,108.99,0.0,0.0,40.9698,108.995,40.9698,-71.0047,monload-611_runway,,,,,,,,,2.4,0.9094125000000001,0.0,
139,0.0,2236.09,110.191,0.0,0.0,48.961999999999996,110.191,48.961999999999996,-69.8093,monload-611_runway,,,,,,,,,2.4,0.9317041666666668,0.0,
140,0.0,2238.6,110.24,0.0,0.0,51.6682,110.24,51.6682,-69.7599,monload-611_runway,,,,,,,,,2.4,0.93275,0.0,
141,0.0,2269.62,110.946,0.0,0.0,56.9135,110.946,56.9135,-69.0544,monload-611_runway,,,,,,,,,2.4,0.9456749999999999,0.0,
142,0.0,2301.17,111.65700000000001,0.0,0.0,51.6617,111.656,51.6617,-68.3444,monload-611_runway,,,,,,,,,2.4,0.9588208333333333,0.0,
143,0.0,2342.37,112.948,0.0,0.0,37.0848,112.95100000000001,37.0848,-67.0489,monload-611_runway,,,,,,,,,2.4,0.9759875,0.0,
144,0.0,2360.95,113.38600000000001,0.0,0.0,25.3175,113.382,25.3175,-66.618,monload-611_runway,,,,,,,,,2.4,0.9837291666666665,0.0,
145,0.0,2369.93,113.59700000000001,0.0,0.0,23.1146,113.595,23.1146,-66.4049,monload-611_runway,,,,,,,,,2.4,0.9874708333333333,0.0,
146,0.0,2369.52,113.587,0.0,0.0,22.7156,113.588,22.7156,-66.4124,monload-611_runway,,,,,,,,,2.4,0.9873,0.0,
147,0.0,2356.05,113.61399999999999,0.0,0.0,19.4987,113.617,19.4987,-66.3829,monload-611_runway,,,,,,,,,2.4,0.9816875,0.0,
148,0.0,2356.65,113.62799999999999,0.0,0.0,19.1538,113.62700000000001,19.1538,-66.3727,monload-611_runway,,,,,,,,,2.4,0.9819375,0.0,
149,0.0,2346.91,113.396,0.0,0.0,19.44,113.398,19.44,-66.6022,monload-611_runway,,,,,,,,,2.4,0.9778791666666666,0.0,
150,0.0,2340.4,113.245,0.0,0.0,20.7921,113.24700000000001,20.7921,-66.7535,monload-611_runway,,,,,,,,,2.4,0.9751666666666667,0.0,
151,0.0,2303.12,112.35700000000001,0.0,0.0,30.6613,112.35799999999999,30.6613,-67.6423,monload-611_runway,,,,,,,,,2.4,0.9596333333333333,0.0,
152,0.0,2275.53,111.704,0.0,0.0,32.4894,111.699,32.4894,-68.3006,monload-611_runway,,,,,,,,,2.4,0.9481375000000001,0.0,
153,0.0,2277.53,111.73200000000001,0.0,0.0,45.4937,111.73200000000001,45.4937,-68.2682,monload-611_runway,,,,,,,,,2.4,0.9489708333333334,0.0,
154,0.0,2256.85,111.24600000000001,0.0,0.0,40.1828,111.24799999999999,40.1828,-68.7517,monload-611_runway,,,,,,,,,2.4,0.9403541666666666,0.0,
155,0.0,2278.62,111.755,0.0,0.0,31.7972,111.755,31.7972,-68.2451,monload-611_runway,,,,,,,,,2.4,0.949425,0.0,
156,0.0,2278.74,111.766,0.0,0.0,31.3245,111.766,31.3245,-68.2339,monload-611_runway,,,,,,,,,2.4,0.949475,0.0,
157,0.0,2283.36,111.87899999999999,0.0,0.0,32.0281,111.87799999999999,32.0281,-68.1218,monload-611_runway,,,,,,,,,2.4,0.9514,0.0,
158,0.0,2285.92,111.936,0.0,0.0,31.7662,111.935,31.7662,-68.0648,monload-611_runway,,,,,,,,,2.4,0.9524666666666667,0.0,
159,0.0,2280.75,111.815,0.0,0.0,32.0361,111.81700000000001,32.0361,-68.1832,monload-611_runway,,,,,,,,,2.4,0.9503125,0.0,
