hour,t(sec),V1,VAngle1,V2,VAngle2,V3,VAngle3,I1,IAngle1,I2,IAngle2,I3,IAngle3,Name,P1(kW),P2(kW),P3(kW)
1,0.0,66395.3,30,66395.3,-90,66395.3,150,3.16918,-94.4595,4.39827,163.141,4.837619999999999,22.9205,monvsource-source,210.418656854,292.024456131,321.195231186
2,0.0,66395.3,30,66395.3,-90,66395.3,150,3.17341,-93.4549,4.40605,162.935,4.7857400000000005,23.0613,monvsource-source,210.699508973,292.541011565,317.750643022
3,0.0,66395.3,30,66395.3,-90,66395.3,150,3.18437,-93.5574,4.31979,164.05700000000002,4.7853699999999995,24.5948,monvsource-source,211.42720146099998,286.81375298700004,317.726076761
4,0.0,66395.3,30,66395.3,-90,66395.3,150,3.18742,-93.5687,4.30134,164.291,4.78481,24.927,monvsource-source,211.629707126,285.588759702,317.68889539300005
5,0.0,66395.3,30,66395.3,-90,66395.3,150,3.27276,-97.3638,4.36266,161.858,4.94,22.461,monvsource-source,217.295882028,289.66011949800003,327.9927820000001
6,0.0,66395.3,30,66395.3,-90,66395.3,150,2.8873,-91.3616,4.23568,171.735,4.8309,28.1294,monvsource-source,191.70314969000003,281.2292443040001,320.74905477
7,0.0,66395.3,30,66395.3,-90,66395.3,150,2.29201,-37.9947,4.98088,-147.528,4.73585,59.6086,monvsource-source,152.17869155300002,330.707021864,314.43818150500005
8,0.0,66395.3,30,66395.3,-90,66395.3,150,3.8621199999999996,0.5655600000000001,7.1899,-123.37899999999999,5.9665,89.0991,monvsource-source,256.426616036,477.37556747,396.14755745
9,0.0,66395.3,30,66395.3,-90,66395.3,150,4.9961400000000005,9.64692,8.40098,-118.131,6.64175,98.3498,monvsource-source,331.7202141420001,557.785587394,440.980983775
10,0.0,66395.3,30,66395.3,-90,66395.3,150,4.04493,0.7284579999999999,7.1167,-124.287,5.82866,90.3486,monvsource-source,268.564340829,472.51543151000004,386.99562929800004
11,0.0,66395.3,30,66395.3,-90,66395.3,150,5.18766,9.27947,8.89431,-113.344,7.501360000000001,102.28,monvsource-source,344.436241998,590.5403807430001,498.0550476080001
12,0.0,66395.3,30,66395.3,-90,66395.3,150,4.4729,4.43061,8.02932,-116.397,6.90415,97.4043,monvsource-source,296.97953737000006,533.1091101960001,458.40311049499996
13,0.0,66395.3,30,66395.3,-90,66395.3,150,4.97749,8.39793,8.78792,-113.05799999999999,7.506639999999999,101.38799999999999,monvsource-source,330.48194179700005,583.476584776,498.405614792
14,0.0,66395.3,30,66395.3,-90,66395.3,150,5.01585,8.489519999999999,8.81528,-112.95200000000001,7.53252,101.667,monvsource-source,333.02886550500006,585.293160184,500.123925156
15,0.0,66395.3,30,66395.3,-90,66395.3,150,4.44474,4.11676,8.008989999999999,-116.24,6.92232,97.4056,monvsource-source,295.10984572200005,531.7592937469999,459.609513096
16,0.0,66395.3,30,66395.3,-90,66395.3,150,3.8130800000000002,-1.8087,7.178439999999999,-120.51899999999999,6.30649,91.5067,monvsource-source,253.17059052400003,476.614677332,418.721295497
17,0.0,66395.3,30,66395.3,-90,66395.3,150,2.51135,-23.7203,5.55471,-134.507,5.2211300000000005,72.2164,monvsource-source,166.74183665500001,368.806636863,346.658492689
18,0.0,66395.3,30,66395.3,-90,66395.3,150,2.8132099999999998,-102.916,4.40868,168.824,5.30129,20.8577,monvsource-source,186.783921913,292.71563120400003,351.98073993699995
19,0.0,66395.3,30,66395.3,-90,66395.3,150,4.23169,-121.509,5.9789699999999995,140.602,6.834460000000001,-1.5689799999999998,monvsource-source,280.964327057,396.97550684099997,453.77602203800006
20,0.0,66395.3,30,66395.3,-90,66395.3,150,4.12844,-120.23700000000001,6.0120000000000005,140.942,6.75097,-1.8795,monvsource-source,274.109012332,399.1685436,448.232678441
21,0.0,66395.3,30,66395.3,-90,66395.3,150,3.9762699999999995,-118.552,6.0307699999999995,141.72799999999998,6.639539999999999,-2.09556,monvsource-source,264.005639531,400.414783381,440.83425016199993
22,0.0,66395.3,30,66395.3,-90,66395.3,150,3.72395,-113.649,5.79108,144.389,6.20202,0.361836,monvsource-source,247.25277743499998,384.500493924,411.784978506
23,0.0,66395.3,30,66395.3,-90,66395.3,150,3.3069,-104.07,5.1414599999999995,152.559,5.43197,8.877839999999999,monvsource-source,219.56261757000004,341.368779138,360.657277741
24,0.0,66395.3,30,66395.3,-90,66395.3,150,3.31949,-101.652,4.59361,158.002,5.1617,17.2475,monvsource-source,220.39853439700002,304.994114033,342.71262001
25,0.0,66395.3,30,66395.3,-90,66395.3,150,3.23413,-97.2755,4.4111400000000005,161.474,4.93469,21.4746,monvsource-source,214.73103158900003,292.87896364200003,327.640222957
26,0.0,66395.3,30,66395.3,-90,66395.3,150,3.20883,-96.5963,4.3884,162.224,4.90857,22.1138,monvsource-source,213.05123049899998,291.36913452000005,325.90597772100006
27,0.0,66395.3,30,66395.3,-90,66395.3,150,3.20211,-96.5823,4.3651599999999995,162.69,4.90966,22.5427,monvsource-source,212.605054083,289.82610774799997,325.978348598
28,0.0,66395.3,30,66395.3,-90,66395.3,150,3.19905,-96.6469,4.3725,162.64,4.91451,22.4019,monvsource-source,212.40188446500002,290.31344925,326.300365803
29,0.0,66395.3,30,66395.3,-90,66395.3,150,3.4522699999999995,-103.934,4.54015,156.817,5.24339,17.3474,monvsource-source,229.21450233099998,301.44462129500005,348.136452067
30,0.0,66395.3,30,66395.3,-90,66395.3,150,3.13416,-100.126,4.4577599999999995,162.67,5.1176900000000005,20.0855,monvsource-source,208.09349344800003,295.974312528,339.79056285700005
31,0.0,66395.3,30,66395.3,-90,66395.3,150,2.76372,-72.4948,4.24869,177.93900000000002,4.22192,36.0224,monvsource-source,183.498018516,282.093047157,280.315644976
32,0.0,66395.3,30,66395.3,-90,66395.3,150,2.83787,-29.0372,5.01981,-144.815,4.56744,69.2054,monvsource-source,188.421230011,333.291790893,303.25654903200007
33,0.0,66395.3,30,66395.3,-90,66395.3,150,3.3324300000000004,-17.4104,5.68636,-131.705,5.27703,83.4345,monvsource-source,221.25768957900002,377.547578108,350.369989959
34,0.0,66395.3,30,66395.3,-90,66395.3,150,2.57585,-46.5275,4.48232,-149.063,4.65987,63.5933,monvsource-source,171.02433350500002,297.604981096,309.393466611
35,0.0,66395.3,30,66395.3,-90,66395.3,150,3.30139,-17.3894,5.83742,-127.164,5.65109,86.1865,monvsource-source,219.19677946700003,387.577252126,375.20581587699996
36,0.0,66395.3,30,66395.3,-90,66395.3,150,2.76571,-33.5163,4.96491,-136.25,5.1231,75.5243,monvsource-source,183.630145163,329.646688923,340.14976143
37,0.0,66395.3,30,66395.3,-90,66395.3,150,3.2764,-18.1675,5.7711,-127.73,5.6016,85.7153,monvsource-source,217.53756092,383.17391583,371.91991248000005
38,0.0,66395.3,30,66395.3,-90,66395.3,150,3.22185,-19.2361,5.73115,-127.665,5.61709,85.3023,monvsource-source,213.915697305,380.52142359500004,372.94837567700006
39,0.0,66395.3,30,66395.3,-90,66395.3,150,2.87825,-30.2251,5.10738,-134.119,5.22588,78.2015,monvsource-source,191.102272225,339.106027314,346.97387036400005
40,0.0,66395.3,30,66395.3,-90,66395.3,150,2.59963,-45.7994,4.49939,-143.942,4.86716,67.9781,monvsource-source,172.603213739,298.738348867,323.15654834800006
41,0.0,66395.3,30,66395.3,-90,66395.3,150,2.77786,-86.6174,3.82239,-176.294,4.737830000000001,39.6013,monvsource-source,184.436848058,253.788730767,314.56964419900004
42,0.0,66395.3,30,66395.3,-90,66395.3,150,4.93826,-120.34,5.801069999999999,134.74200000000002,6.579460000000001,1.23299,monvsource-source,327.877254178,385.16378297099993,436.8452205380001
43,0.0,66395.3,30,66395.3,-90,66395.3,150,5.6433,-125.65299999999999,7.15533,127.139,7.691160000000001,-8.36196,monvsource-source,374.68859649,475.08028194900004,510.6568755480001
44,0.0,66395.3,30,66395.3,-90,66395.3,150,5.56055,-124.904,7.22567,127.24700000000001,7.648569999999999,-8.96283,monvsource-source,369.194385415,479.750527351,507.82909972100003
45,0.0,66395.3,30,66395.3,-90,66395.3,150,5.01127,-121.697,6.9651,130.672,7.2444,-8.08561,monvsource-source,332.724775031,462.44990402999997,480.99411132
46,0.0,66395.3,30,66395.3,-90,66395.3,150,4.48071,-115.287,6.498819999999999,134.635,6.50522,-5.05526,monvsource-source,297.49808466300004,431.491103546,431.916033466
47,0.0,66395.3,30,66395.3,-90,66395.3,150,3.4667,-106.919,5.11546,151.17600000000002,5.55604,8.804260000000001,monvsource-source,230.17258651,339.642501338,368.894942612
48,0.0,66395.3,30,66395.3,-90,66395.3,150,3.4578699999999998,-104.76899999999999,4.647419999999999,155.659,5.31137,15.5978,monvsource-source,229.58631601099998,308.566845126,352.65000456100006
49,0.0,66395.3,30,66395.3,-90,66395.3,150,3.31405,-100.259,4.50075,159.106,5.07289,19.0515,monvsource-source,220.03734396500002,298.828646475,336.81605341700003
50,0.0,66395.3,30,66395.3,-90,66395.3,150,3.2835400000000003,-99.6207,4.48121,159.805,5.04605,19.5721,monvsource-source,218.01162336200005,297.531282313,335.03400356500003
51,0.0,66395.3,30,66395.3,-90,66395.3,150,3.2776400000000003,-99.6756,4.46767,160.099,5.05013,19.7945,monvsource-source,217.61989109200005,296.632289951,335.304896389
52,0.0,66395.3,30,66395.3,-90,66395.3,150,3.30893,-99.7296,4.51054,159.03,5.04732,19.0464,monvsource-source,219.69740002900002,299.478656462,335.11832559600003
53,0.0,66395.3,30,66395.3,-90,66395.3,150,3.66108,-107.60600000000001,4.75164,152.138,5.45771,13.4446,monvsource-source,243.07850492400001,315.486563292,362.366292763
54,0.0,66395.3,30,66395.3,-90,66395.3,150,3.2782400000000003,-104.486,4.62277,158.555,5.33335,16.1542,monvsource-source,217.65972827200002,306.93020098100004,354.10937325500004
55,0.0,66395.3,30,66395.3,-90,66395.3,150,2.77502,-78.4012,4.3238900000000005,173.52900000000002,4.35353,30.8285,monvsource-source,184.248285406,287.08597371700006,289.05393040900003
56,0.0,66395.3,30,66395.3,-90,66395.3,150,2.6813,-31.7013,4.962619999999999,-146.455,4.54686,65.9248,monvsource-source,178.02571789,329.49464368599996,301.890133758
57,0.0,66395.3,30,66395.3,-90,66395.3,150,3.24167,-17.3952,5.70597,-131.885,5.26609,82.1848,monvsource-source,215.23165215100002,378.849589941,349.64362537700003
58,0.0,66395.3,30,66395.3,-90,66395.3,150,2.54009,-47.5509,4.47315,-149.65,4.65811,62.5712,monvsource-source,168.650037577,296.996136195,309.276610883
59,0.0,66395.3,30,66395.3,-90,66395.3,150,3.2734099999999997,-17.4255,5.84061,-127.273,5.64321,85.7934,monvsource-source,217.339038973,387.789053133,374.682620913
60,0.0,66395.3,30,66395.3,-90,66395.3,150,2.76364,-32.4398,5.01791,-136.005,5.12948,75.5784,monvsource-source,183.49270689200003,333.165639823,340.573363444
61,0.0,66395.3,30,66395.3,-90,66395.3,150,3.25601,-17.5023,5.7964,-128.20600000000002,5.55473,85.045,monvsource-source,216.183760753,384.85371692,368.807964769
62,0.0,66395.3,30,66395.3,-90,66395.3,150,3.10143,-19.6541,5.6748199999999995,-129.45600000000002,5.467890000000001,82.79799999999999,monvsource-source,205.92037527900004,376.781376346,363.04219691700007
63,0.0,66395.3,30,66395.3,-90,66395.3,150,2.69944,-31.9305,5.04716,-137.075,5.06379,73.8942,monvsource-source,179.230128632,335.10770234800003,336.211856187
64,0.0,66395.3,30,66395.3,-90,66395.3,150,2.43502,-49.8405,4.45585,-148.048,4.763,62.3502,monvsource-source,161.67388340600002,295.847497505,316.24081390000003
65,0.0,66395.3,30,66395.3,-90,66395.3,150,2.7539599999999997,-90.2758,3.9258699999999997,-179.56,4.82359,35.2528,monvsource-source,182.85000038799998,260.659316411,320.26370512700004
66,0.0,66395.3,30,66395.3,-90,66395.3,150,4.80565,-119.99,5.74803,136.04,6.5419599999999996,1.5085899999999999,monvsource-source,319.072573445,381.64217625900005,434.355396788
67,0.0,66395.3,30,66395.3,-90,66395.3,150,5.43271,-124.85700000000001,6.95786,128.77,7.52435,-7.382619999999999,monvsource-source,360.706410263,461.969202058,499.581475555
68,0.0,66395.3,30,66395.3,-90,66395.3,150,5.33174,-123.875,7.0187800000000005,128.964,7.45702,-7.944889999999999,monvsource-source,354.002476822,466.014003734,495.111080006
69,0.0,66395.3,30,66395.3,-90,66395.3,150,4.80195,-120.536,6.77003,132.47299999999998,7.06342,-6.97346,monvsource-source,318.826910835,449.498172859,468.97788992600005
70,0.0,66395.3,30,66395.3,-90,66395.3,150,4.31246,-114.00399999999999,6.34002,136.388,6.35947,-3.9102900000000003,monvsource-source,286.32707543799995,420.947529906,422.238918491
71,0.0,66395.3,30,66395.3,-90,66395.3,150,3.36807,-104.93,5.06612,152.612,5.44496,9.76912,monvsource-source,223.624018071,336.366557236,361.51975268800004
72,0.0,66395.3,30,66395.3,-90,66395.3,150,3.3542300000000003,-102.15100000000001,4.59281,157.524,5.17905,17.1051,monvsource-source,222.70510711900002,304.940997793,343.864578465
73,0.0,66395.3,30,66395.3,-90,66395.3,150,3.20531,-96.5992,4.42658,161.734,4.91224,21.4536,monvsource-source,212.817519043,293.9041070740001,326.14964847199997
74,0.0,66395.3,30,66395.3,-90,66395.3,150,3.18071,-95.7184,4.39308,162.621,4.8752,22.3352,monvsource-source,211.184194663,291.67986452400004,323.69036656000003
75,0.0,66395.3,30,66395.3,-90,66395.3,150,3.1796599999999997,-95.4156,4.35527,163.2,4.85919,23.1031,monvsource-source,211.11447959799997,289.169458231,322.627377807
76,0.0,66395.3,30,66395.3,-90,66395.3,150,3.18286,-95.4816,4.35636,163.124,4.86104,23.0546,monvsource-source,211.32694455799998,289.241829108,322.750209112
77,0.0,66395.3,30,66395.3,-90,66395.3,150,3.4371,-103.041,4.52219,157.123,5.19169,17.8393,monvsource-source,228.20728563,300.252161707,344.70381505700004
78,0.0,66395.3,30,66395.3,-90,66395.3,150,3.04693,-98.0857,4.39418,165.05900000000003,5.03948,21.9495,monvsource-source,202.301831429,291.7528993540001,334.597786444
79,0.0,66395.3,30,66395.3,-90,66395.3,150,2.55068,-68.3424,4.2622599999999995,-174.043,4.33462,40.463,monvsource-source,169.35316380400002,282.994031378,287.798395286
80,0.0,66395.3,30,66395.3,-90,66395.3,150,2.84904,-25.5781,5.204940000000001,-141.83,4.699990000000001,71.1025,monvsource-source,189.16286551200002,345.583552782,312.05724604700004
81,0.0,66395.3,30,66395.3,-90,66395.3,150,3.35797,-16.427,5.76716,-130.828,5.34185,84.0949,monvsource-source,222.953425541,382.912318348,354.673733305
82,0.0,66395.3,30,66395.3,-90,66395.3,150,2.5926,-46.6864,4.4690900000000005,-148.569,4.6822,64.2411,monvsource-source,172.13645478,296.72657127700006,310.87607366
83,0.0,66395.3,30,66395.3,-90,66395.3,150,3.31511,-17.4755,5.86845,-126.292,5.73401,86.8865,monvsource-source,220.10772298299997,389.63749828500005,380.711314153
84,0.0,66395.3,30,66395.3,-90,66395.3,150,2.81733,-32.3796,5.03518,-134.309,5.2369699999999995,77.4503,monvsource-source,187.05747054900002,334.31228665400005,347.710194241
85,0.0,66395.3,30,66395.3,-90,66395.3,150,3.3203400000000003,-17.567,5.851,-126.38799999999999,5.72045,86.9372,monvsource-source,220.45497040200004,388.4789003,379.810993885
86,0.0,66395.3,30,66395.3,-90,66395.3,150,3.18565,-20.1173,5.67619,-128.01,5.5907599999999995,84.8271,monvsource-source,211.512187445,376.87233790700003,371.200187428
87,0.0,66395.3,30,66395.3,-90,66395.3,150,2.79924,-32.8678,4.9847,-135.793,5.14205,76.2518,monvsource-source,185.856379572,330.96065191,341.407952365
88,0.0,66395.3,30,66395.3,-90,66395.3,150,2.55695,-50.2014,4.36603,-146.593,4.80776,65.3129,monvsource-source,169.76946233500001,289.8838716590001,319.212667528
89,0.0,66395.3,30,66395.3,-90,66395.3,150,2.88517,-90.8597,3.81556,179.465,4.7966,36.4418,monvsource-source,191.561727701,253.335250868,318.47169598
90,0.0,66395.3,30,66395.3,-90,66395.3,150,5.14142,-121.87200000000001,6.01061,132.679,6.78954,-0.44334300000000004,monvsource-source,341.366123326,399.07625413299996,450.793545162
91,0.0,66395.3,30,66395.3,-90,66395.3,150,5.78833,-126.697,7.3228100000000005,126.155,7.88245,-9.28293,monvsource-source,384.317906849,486.20016679300005,523.3576324850001
92,0.0,66395.3,30,66395.3,-90,66395.3,150,5.68636,-125.929,7.3849,126.37100000000001,7.831760000000001,-9.86454,monvsource-source,377.547578108,490.32265097000004,519.9920547280001
93,0.0,66395.3,30,66395.3,-90,66395.3,150,5.11032,-122.848,7.10302,129.85399999999998,7.41498,-8.997069999999999,monvsource-source,339.30122949599996,471.607143806,492.319821594
94,0.0,66395.3,30,66395.3,-90,66395.3,150,4.549930000000001,-116.18,6.62673,133.747,6.62712,-6.09845,monvsource-source,302.09396732900007,439.98372636900007,440.009620536
95,0.0,66395.3,30,66395.3,-90,66395.3,150,3.56541,-107.352,5.23043,149.01,5.59246,7.29447,monvsource-source,236.726466573,347.27596897899997,371.31305943800004
96,0.0,66395.3,30,66395.3,-90,66395.3,150,3.5324800000000005,-104.389,4.70224,153.862,5.2749,14.8306,monvsource-source,234.54006934400005,312.206635472,350.22856797
97,0.0,66395.3,30,66395.3,-90,66395.3,150,3.38956,-99.4904,4.52426,157.466,5.0036,18.7619,monvsource-source,225.050853068,300.389599978,332.21552308
98,0.0,66395.3,30,66395.3,-90,66395.3,150,3.34901,-98.1935,4.4746,158.642,4.94086,19.9423,monvsource-source,222.35852365300002,297.09240938,328.049881958
99,0.0,66395.3,30,66395.3,-90,66395.3,150,3.3431699999999998,-97.8781,4.42526,159.361,4.92181,20.8506,monvsource-source,221.97077510100002,293.816465278,326.785051493
100,0.0,66395.3,30,66395.3,-90,66395.3,150,3.32809,-97.4032,4.40945,159.805,4.90112,21.2722,monvsource-source,220.96953397700003,292.766755585,325.411332736
101,0.0,66395.3,30,66395.3,-90,66395.3,150,3.5640400000000003,-103.787,4.56794,154.69299999999998,5.20247,16.8575,monvsource-source,236.63550501200004,303.289746682,345.419556391
102,0.0,66395.3,30,66395.3,-90,66395.3,150,3.19194,-99.7756,4.44222,161.756,5.07399,20.2339,monvsource-source,211.92981388200002,294.94252956599996,336.889088247
103,0.0,66395.3,30,66395.3,-90,66395.3,150,2.41417,-71.5795,4.31283,-173.851,4.47245,37.983000000000004,monvsource-source,160.289541401,286.351641699,296.949659485
104,0.0,66395.3,30,66395.3,-90,66395.3,150,2.65188,-28.7628,5.09143,-145.07,4.58121,66.1889,monvsource-source,176.07236816399998,338.04702227900003,304.170812313
105,0.0,66395.3,30,66395.3,-90,66395.3,150,3.03954,-21.5395,5.40568,-136.16299999999998,4.97677,77.5618,monvsource-source,201.81117016200002,358.911745304,330.43413718100004
106,0.0,66395.3,30,66395.3,-90,66395.3,150,2.34695,-69.5786,4.1917599999999995,-165.595,4.58441,45.0106,monvsource-source,155.826449335,278.31316272799995,304.38327727300003
107,0.0,66395.3,30,66395.3,-90,66395.3,150,2.24992,-40.6434,4.88967,-142.53,4.943569999999999,63.9162,monvsource-source,149.384113376,324.651106551,328.229813221
108,0.0,66395.3,30,66395.3,-90,66395.3,150,2.24034,-56.3514,4.43048,-150.609,4.814,57.0432,monvsource-source,148.748046402,294.16304874400004,319.6269742
109,0.0,66395.3,30,66395.3,-90,66395.3,150,2.4140900000000003,-34.1946,5.06776,-139.042,5.02395,68.6339,monvsource-source,160.28422977700004,336.475445528,333.566667435
110,0.0,66395.3,30,66395.3,-90,66395.3,150,2.2566900000000003,-40.914,4.88044,-142.19899999999998,4.959919999999999,64.3004,monvsource-source,149.83360955700002,324.03827793199997,329.315376376
111,0.0,66395.3,30,66395.3,-90,66395.3,150,2.1419,-60.7472,4.41245,-153.287,4.81871,53.0766,monvsource-source,142.21209307,292.96594148500003,319.939696063
112,0.0,66395.3,30,66395.3,-90,66395.3,150,2.3024299999999998,-79.0605,4.1176900000000005,-165.68400000000003,4.83461,42.7025,monvsource-source,152.870530579,273.39526285700003,320.99538133299995
113,0.0,66395.3,30,66395.3,-90,66395.3,150,3.36913,-112.066,4.399369999999999,160.759,5.67155,17.152,monvsource-source,223.69439708900003,292.09749096099995,376.564263715
114,0.0,66395.3,30,66395.3,-90,66395.3,150,5.74925,-128.856,6.94344,128.172,7.958819999999999,-7.084230000000001,monvsource-source,381.723178525,461.011781832,528.428241546
115,0.0,66395.3,30,66395.3,-90,66395.3,150,6.122719999999999,-130.379,7.9218399999999995,124.471,8.65395,-12.4573,monvsource-source,406.51983121599994,525.972943352,574.581606435
116,0.0,66395.3,30,66395.3,-90,66395.3,150,5.95141,-128.983,7.89957,124.941,8.47264,-12.6082,monvsource-source,395.1456523730001,524.494320021,562.543474592
117,0.0,66395.3,30,66395.3,-90,66395.3,150,5.33706,-126.149,7.55258,128.36,7.999619999999999,-11.6293,monvsource-source,354.355699818,501.45581487400005,531.137169786
118,0.0,66395.3,30,66395.3,-90,66395.3,150,4.65399,-119.44200000000001,6.9885399999999995,132.655,7.10653,-8.79637,monvsource-source,309.00306224700006,464.006209862,471.84019130900003
