hour,t(sec),V1,VAngle1,V2,VAngle2,V3,VAngle3,I1,IAngle1,I2,IAngle2,I3,IAngle3,Name,P1(kW),P2(kW),P3(kW)
1,0.0,2401.79,-7.93692e-05,2401.79,-120.0,2401.79,120.0,102.28,-108.988,95.1406,147.079,140.151,11.280999999999999,monvsource-secondsource,245.65508119999998,228.50774167400002,336.61327029
2,0.0,2401.79,-7.33618e-05,2401.79,-120.0,2401.79,120.0,101.68299999999999,-107.609,95.2042,147.11700000000002,140.213,11.0086,monvsource-secondsource,244.22121256999998,228.660495518,336.76218127
3,0.0,2401.79,-7.28283e-05,2401.79,-120.0,2401.79,120.0,101.829,-107.45100000000001,95.0028,146.917,139.05100000000002,12.9707,monvsource-secondsource,244.57187391,228.17677501199998,333.97130129000004
4,0.0,2401.79,-7.25842e-05,2401.79,-120.0,2401.79,120.0,101.848,-107.387,94.9578,146.864,138.82399999999998,13.3908,monvsource-secondsource,244.61750792,228.06869446200002,333.42609495999994
5,0.0,2401.79,-8.84014e-05,2401.79,-120.0,2401.79,120.0,103.60700000000001,-110.962,94.8243,144.732,140.054,11.4045,monvsource-secondsource,248.84225653000004,227.748055497,336.38029666
6,0.0,2401.79,-7.464449999999999e-05,2401.79,-120.0,2401.79,120.0,101.772,-107.911,95.2206,154.18,138.386,16.6316,monvsource-secondsource,244.43497188,228.69988487400002,332.37411094
7,0.0,2401.79,3.33669e-05,2401.79,-120.0,2401.79,120.0,99.742,-81.9434,121.90100000000001,-172.643,145.311,41.3769,monvsource-secondsource,239.55933818000003,292.78060279000005,349.00650669000004
8,0.0,2401.79,0.00016795700000000002,2401.79,-120.0,2401.79,120.0,124.78,-55.6547,170.05700000000002,-155.43200000000002,179.66299999999998,64.3913,monvsource-secondsource,299.6953562,408.44120203000006,431.51279676999997
9,0.0,2401.79,0.000243716,2401.79,-120.0,2401.79,120.0,145.862,-45.5443,199.734,-149.862,195.416,69.6279,monvsource-secondsource,350.32989298,479.71912385999997,469.34819464
10,0.0,2401.79,0.00018571200000000001,2401.79,-120.0,2401.79,120.0,129.519,-53.0585,169.761,-155.626,175.44299999999998,62.7375,monvsource-secondsource,311.07743901000003,407.73027219,421.37724296999994
11,0.0,2401.79,0.00026849400000000004,2401.79,-120.0,2401.79,120.0,154.548,-43.263999999999996,200.705,-149.346,222.51,76.7271,monvsource-secondsource,371.19184092,482.05126195,534.4222929
12,0.0,2401.79,0.000225707,2401.79,-120.0,2401.79,120.0,141.52100000000002,-48.0491,181.99400000000003,-152.381,206.762,73.1522,monvsource-secondsource,339.90372259000003,437.11136926000006,496.59890398
13,0.0,2401.79,0.000260609,2401.79,-120.0,2401.79,120.0,152.129,-44.1058,197.217,-149.588,223.908,77.0363,monvsource-secondsource,365.38191091,473.67381843000004,537.77999532
14,0.0,2401.79,0.000263797,2401.79,-120.0,2401.79,120.0,153.13299999999998,-43.773999999999994,197.84599999999998,-149.5,224.61599999999999,77.1936,monvsource-secondsource,367.79330806999997,475.1845443399999,539.4804626399999
15,0.0,2401.79,0.00022715400000000003,2401.79,-120.0,2401.79,120.0,141.958,-47.8779,181.419,-152.382,207.543,73.3715,monvsource-secondsource,340.95330482,435.73034001,498.47470197
16,0.0,2401.79,0.000183412,2401.79,-120.0,2401.79,120.0,129.674,-53.6407,164.78,-155.947,190.392,68.5271,monvsource-secondsource,311.44971646000005,395.76695620000004,457.28160167999994
17,0.0,2401.79,7.58661e-05,2401.79,-120.0,2401.79,120.0,106.686,-72.6614,132.825,-165.98,157.75,53.7193,monvsource-secondsource,256.23736794,319.01775674999993,378.8823725
18,0.0,2401.79,-0.000120263,2401.79,-120.0,2401.79,120.0,107.95200000000001,-117.844,94.0506,156.375,143.095,9.469330000000001,monvsource-secondsource,259.27803408,225.88979057400002,343.68414005
19,0.0,2401.79,-0.000220736,2401.79,-120.0,2401.79,120.0,129.64,-135.546,97.5689,131.39700000000002,176.67700000000002,-14.0919,monvsource-secondsource,311.3680556,234.34000833099998,424.3410518300001
20,0.0,2401.79,-0.00021307799999999998,2401.79,-120.0,2401.79,120.0,127.434,-134.506,97.4938,132.488,177.872,-14.5882,monvsource-secondsource,306.06970686,234.15963390199997,427.21119088
21,0.0,2401.79,-0.00020334099999999998,2401.79,-120.0,2401.79,120.0,124.649,-133.149,97.1067,134.56799999999998,178.642,-14.9325,monvsource-secondsource,299.38072171,233.22990099300003,429.06056918
22,0.0,2401.79,-0.000174042,2401.79,-120.0,2401.79,120.0,117.43700000000001,-128.412,96.6796,137.358,172.40200000000002,-12.4599,monvsource-secondsource,282.05901223000006,232.204096484,414.07339958
23,0.0,2401.79,-0.00012887399999999999,2401.79,-120.0,2401.79,120.0,108.40799999999999,-119.89399999999999,96.0105,143.281,155.601,-3.4777699999999996,monvsource-secondsource,260.37325031999995,230.59705879499998,373.72092579
24,0.0,2401.79,-0.000109336,2401.79,-120.0,2401.79,120.0,105.96600000000001,-115.633,94.8503,143.595,144.034,6.43542,monvsource-secondsource,254.50807914,227.810502037,345.9394208599999
25,0.0,2401.79,-9.132139999999999e-05,2401.79,-120.0,2401.79,120.0,103.68799999999999,-111.671,95.1736,145.171,140.395,10.7329,monvsource-secondsource,249.03680151999998,228.587000744,337.19930705
26,0.0,2401.79,-8.97491e-05,2401.79,-120.0,2401.79,120.0,103.477,-111.325,95.2445,145.563,140.047,11.3879,monvsource-secondsource,248.53002383,228.757287655,336.36348413
27,0.0,2401.79,-9.023350000000001e-05,2401.79,-120.0,2401.79,120.0,103.55799999999999,-111.428,95.2146,145.674,139.726,11.9797,monvsource-secondsource,248.72456881999997,228.68547413400003,335.59250954
28,0.0,2401.79,-9.08985e-05,2401.79,-120.0,2401.79,120.0,103.583,-111.588,95.2265,145.717,139.865,11.8483,monvsource-secondsource,248.78461356999998,228.71405543499998,335.92635835
29,0.0,2401.79,-0.000122761,2401.79,-120.0,2401.79,120.0,108.501,-118.318,95.721,139.821,143.559,7.051139999999999,monvsource-secondsource,260.59661679,229.90174059,344.79857061
30,0.0,2401.79,-0.00011418299999999999,2401.79,-120.0,2401.79,120.0,106.679,-116.664,95.4865,147.335,141.904,9.30299,monvsource-secondsource,256.22055541,229.338520835,340.82360816
31,0.0,2401.79,-3.72042e-05,2401.79,-120.0,2401.79,120.0,98.0843,-99.1538,108.384,166.986,129.92,21.035,monvsource-secondsource,235.577890897,260.31560736,312.0405568
32,0.0,2401.79,6.63008e-05,2401.79,-120.0,2401.79,120.0,102.397,-74.2558,134.158,-170.459,144.295,46.7401,monvsource-secondsource,245.93609063000002,322.21934281999995,346.56628804999997
33,0.0,2401.79,0.000123564,2401.79,-120.0,2401.79,120.0,111.324,-62.2763,150.704,-163.319,165.71599999999998,60.9191,monvsource-secondsource,267.37686995999996,361.95936016,398.01503163999996
34,0.0,2401.79,4.55433e-05,2401.79,-120.0,2401.79,120.0,97.6362,-78.7289,120.134,-175.976,146.945,45.7534,monvsource-secondsource,234.50164879800002,288.53663986,352.93103154999994
35,0.0,2401.79,0.000136795,2401.79,-120.0,2401.79,120.0,113.70700000000001,-59.7193,147.24200000000002,-162.983,177.287,64.1579,monvsource-secondsource,273.10033553000005,353.64436318,425.80614373000003
36,0.0,2401.79,8.51415e-05,2401.79,-120.0,2401.79,120.0,103.427,-69.8182,129.596,-169.938,161.026,56.3437,monvsource-secondsource,248.40993433000003,311.26237684,386.75063654
37,0.0,2401.79,0.000135065,2401.79,-120.0,2401.79,120.0,113.83,-60.1772,146.741,-163.26,174.986,63.7608,monvsource-secondsource,273.3957557,352.44106639000006,420.27962493999996
38,0.0,2401.79,0.000132633,2401.79,-120.0,2401.79,120.0,112.806,-60.4754,144.537,-163.736,176.06799999999998,63.5984,monvsource-secondsource,270.93632274,347.14752123,422.87836171999993
39,0.0,2401.79,9.80425e-05,2401.79,-120.0,2401.79,120.0,105.82700000000001,-67.1524,131.335,-169.063,164.565,58.1259,monvsource-secondsource,254.17423033000003,315.43908965,395.25057135
40,0.0,2401.79,5.37687e-05,2401.79,-120.0,2401.79,120.0,99.1195,-76.861,118.695,-176.08599999999998,152.611,50.3152,monvsource-secondsource,238.064223905,285.08046404999993,366.53957369
41,0.0,2401.79,-5.71117e-05,2401.79,-120.0,2401.79,120.0,96.6854,-104.34100000000001,99.6574,163.542,137.963,28.4966,monvsource-secondsource,232.218026866,239.35614674599998,331.35815377
42,0.0,2401.79,-0.00022642900000000002,2401.79,-120.0,2401.79,120.0,132.376,-135.814,107.57799999999999,122.309,161.756,-10.7253,monvsource-secondsource,317.93935304,258.37976461999995,388.50394324
43,0.0,2401.79,-0.000278208,2401.79,-120.0,2401.79,120.0,147.41299999999998,-142.296,116.167,114.406,188.585,-21.3639,monvsource-secondsource,354.05506927,279.00873893,452.94156715
44,0.0,2401.79,-0.000272598,2401.79,-120.0,2401.79,120.0,145.537,-141.741,115.94200000000001,115.068,190.813,-22.0537,monvsource-secondsource,349.54931123,278.46833618000005,458.29275527
45,0.0,2401.79,-0.00024365599999999997,2401.79,-120.0,2401.79,120.0,136.372,-138.506,109.72399999999999,121.256,187.755,-20.9286,monvsource-secondsource,327.53690588000006,263.53400596,450.94808145
46,0.0,2401.79,-0.000200958,2401.79,-120.0,2401.79,120.0,124.602,-132.543,106.912,126.61200000000001,176.575,-17.4499,monvsource-secondsource,299.26783758,256.78017248000003,424.0960692499999
47,0.0,2401.79,-0.00014422100000000001,2401.79,-120.0,2401.79,120.0,111.59700000000001,-122.807,96.6889,140.05100000000002,154.575,-2.9652700000000003,monvsource-secondsource,268.03255863000004,232.226433131,371.25668925
48,0.0,2401.79,-0.000125463,2401.79,-120.0,2401.79,120.0,108.70100000000001,-118.941,95.4384,140.529,145.181,5.136369999999999,monvsource-secondsource,261.07697479,229.222994736,348.69427399
49,0.0,2401.79,-0.000106344,2401.79,-120.0,2401.79,120.0,105.647,-114.963,95.4498,142.834,142.406,8.3982,monvsource-secondsource,253.74190812999998,229.25037514199997,342.02930674000004
50,0.0,2401.79,-0.000104644,2401.79,-120.0,2401.79,120.0,105.39399999999999,-114.6,95.4633,143.389,142.003,8.93163,monvsource-secondsource,253.13425525999997,229.282799307,341.06138537
51,0.0,2401.79,-0.00010507299999999999,2401.79,-120.0,2401.79,120.0,105.39,-114.709,95.3822,143.589,141.82299999999998,9.313080000000001,monvsource-secondsource,253.1246481,229.088014138,340.62906316999994
52,0.0,2401.79,-0.000106049,2401.79,-120.0,2401.79,120.0,105.544,-114.915,95.8319,143.18200000000002,141.852,8.522969999999999,monvsource-secondsource,253.49452376,230.168099101,340.69871508
53,0.0,2401.79,-0.000141515,2401.79,-120.0,2401.79,120.0,111.775,-122.059,97.006,136.3,146.866,3.10593,monvsource-secondsource,268.46007725000004,232.98804074,352.74129014000005
54,0.0,2401.79,-0.000133139,2401.79,-120.0,2401.79,120.0,109.83,-120.546,95.5275,144.416,145.421,5.22381,monvsource-secondsource,263.78859570000003,229.436994225,349.27070359
55,0.0,2401.79,-5.71726e-05,2401.79,-120.0,2401.79,120.0,99.07799999999999,-104.00299999999999,106.806,164.699,131.295,16.4825,monvsource-secondsource,237.96454961999999,256.52558274,315.34301804999996
56,0.0,2401.79,5.07497e-05,2401.79,-120.0,2401.79,120.0,100.38,-77.7691,131.828,-171.299,142.77200000000002,44.2946,monvsource-secondsource,241.09168019999998,316.62317212,342.90836188000003
57,0.0,2401.79,0.00011621,2401.79,-120.0,2401.79,120.0,109.723,-63.647,149.667,-163.356,164.84900000000002,59.8688,monvsource-secondsource,263.53160417,359.46870393,395.93267971000006
58,0.0,2401.79,3.98468e-05,2401.79,-120.0,2401.79,120.0,97.0717,-80.0965,119.367,-176.438,146.437,44.8636,monvsource-secondsource,233.145838343,286.69446693,351.71092223000005
59,0.0,2401.79,0.000132655,2401.79,-120.0,2401.79,120.0,112.774,-60.4606,147.107,-163.056,176.92,63.9541,monvsource-secondsource,270.85946545999997,353.32012153,424.92468679999996
60,0.0,2401.79,8.406209999999999e-05,2401.79,-120.0,2401.79,120.0,103.18299999999999,-70.0359,130.993,-169.357,161.269,56.4936,monvsource-secondsource,247.82389756999999,314.61767747,387.33427151
61,0.0,2401.79,0.000129875,2401.79,-120.0,2401.79,120.0,112.512,-61.0655,148.55700000000002,-162.819,173.72099999999998,63.3236,monvsource-secondsource,270.23019647999996,356.80271703000005,417.24136058999994
62,0.0,2401.79,0.000117048,2401.79,-120.0,2401.79,120.0,109.14200000000001,-63.2896,145.391,-163.659,171.50599999999997,61.6682,monvsource-secondsource,262.13616418000004,349.19864989,411.9213957399999
63,0.0,2401.79,7.56705e-05,2401.79,-120.0,2401.79,120.0,101.64299999999999,-71.8203,131.725,-169.082,158.957,54.7002,monvsource-secondsource,244.12514096999996,316.37578775,381.78133303
64,0.0,2401.79,2.7480500000000002e-05,2401.79,-120.0,2401.79,120.0,96.1362,-83.1228,118.72,-176.40200000000002,147.856,45.9907,monvsource-secondsource,230.898963798,285.1405088,355.11906224
65,0.0,2401.79,-7.68443e-05,2401.79,-120.0,2401.79,120.0,98.2171,-109.15100000000001,99.9183,163.45600000000002,137.796,24.5894,monvsource-secondsource,235.89684860900002,239.982773757,330.95705484
66,0.0,2401.79,-0.0002238,2401.79,-120.0,2401.79,120.0,131.518,-135.511,106.044,124.035,161.928,-10.4968,monvsource-secondsource,315.87861722,254.69541876,388.91705111999994
67,0.0,2401.79,-0.000268517,2401.79,-120.0,2401.79,120.0,144.332,-141.254,113.23,116.542,185.71400000000003,-20.2145,monvsource-secondsource,346.65515428,271.95468170000004,446.04602806
68,0.0,2401.79,-0.000261958,2401.79,-120.0,2401.79,120.0,142.187,-140.566,113.027,117.40100000000001,187.516,-20.8493,monvsource-secondsource,341.50331473000006,271.46711833,450.37405364
69,0.0,2401.79,-0.00023327799999999998,2401.79,-120.0,2401.79,120.0,133.284,-137.201,107.34299999999999,123.728,184.50599999999997,-19.6683,monvsource-secondsource,320.12017835999995,257.81534396999996,443.14466573999994
70,0.0,2401.79,-0.000192335,2401.79,-120.0,2401.79,120.0,122.304,-131.246,105.209,128.84799999999998,173.976,-16.2174,monvsource-secondsource,293.74852416,252.68992411,417.85381703999997
71,0.0,2401.79,-0.000135921,2401.79,-120.0,2401.79,120.0,109.89299999999999,-121.235,96.5361,141.891,153.203,-2.0420599999999998,monvsource-secondsource,263.93990847,231.859439619,367.96143337
72,0.0,2401.79,-0.00011405100000000001,2401.79,-120.0,2401.79,120.0,106.76100000000001,-116.609,95.3188,142.554,143.839,6.47077,monvsource-secondsource,256.41750219000005,228.935740652,345.47107181
73,0.0,2401.79,-9.118969999999999e-05,2401.79,-120.0,2401.79,120.0,103.588,-111.66,95.4387,145.33100000000002,140.688,10.5021,monvsource-secondsource,248.79662251999997,229.22371527299998,337.90303151999996
74,0.0,2401.79,-8.82499e-05,2401.79,-120.0,2401.79,120.0,103.271,-110.99600000000001,95.4836,145.78799999999998,140.114,11.3754,monvsource-secondsource,248.03525509,229.331555644,336.52440406000005
75,0.0,2401.79,-8.64191e-05,2401.79,-120.0,2401.79,120.0,103.12,-110.572,95.4139,145.869,139.571,12.2591,monvsource-secondsource,247.6725848,229.16415088099998,335.22023209
76,0.0,2401.79,-8.65045e-05,2401.79,-120.0,2401.79,120.0,103.14,-110.589,95.4061,145.813,139.58700000000002,12.2064,monvsource-secondsource,247.7206206,229.14541691899998,335.2586607300001
77,0.0,2401.79,-0.000118666,2401.79,-120.0,2401.79,120.0,107.87899999999999,-117.464,95.8702,139.79399999999998,143.285,7.343089999999999,monvsource-secondsource,259.10270341,230.26008765799997,344.14048015
78,0.0,2401.79,-0.000105163,2401.79,-120.0,2401.79,120.0,105.40100000000001,-114.729,95.1922,148.704,141.376,10.8402,monvsource-secondsource,253.15106779000004,228.631674038,339.55546304
79,0.0,2401.79,-2.82297e-05,2401.79,-120.0,2401.79,120.0,97.7287,-96.9596,108.28399999999999,170.67,133.16899999999998,24.671999999999997,monvsource-secondsource,234.723814373,260.07542836,319.84397250999996
80,0.0,2401.79,7.4548e-05,2401.79,-120.0,2401.79,120.0,103.54899999999999,-72.4398,135.415,-168.958,147.796,48.0615,monvsource-secondsource,248.70295270999998,325.23839285,354.97495483999995
81,0.0,2401.79,0.000128216,2401.79,-120.0,2401.79,120.0,112.35600000000001,-61.4262,150.958,-162.942,167.412,61.2783,monvsource-secondsource,269.85551724000004,362.56941482,402.08846748
82,0.0,2401.79,4.74256e-05,2401.79,-120.0,2401.79,120.0,97.9439,-78.2937,119.70700000000001,-176.192,147.588,46.4713,monvsource-secondsource,235.240679581,287.51107553,354.47538252
83,0.0,2401.79,0.000139308,2401.79,-120.0,2401.79,120.0,114.432,-59.3197,146.969,-162.982,179.899,65.2296,monvsource-secondsource,274.84163328,352.98867451,432.07961921
84,0.0,2401.79,9.30469e-05,2401.79,-120.0,2401.79,120.0,104.956,-68.1888,130.064,-169.485,164.662,58.365,monvsource-secondsource,252.08227124,312.38641456,395.48354498000003
85,0.0,2401.79,0.00014243600000000002,2401.79,-120.0,2401.79,120.0,115.646,-58.9204,147.119,-162.878,178.701,65.1552,monvsource-secondsource,277.75740634,353.34894300999997,429.20227479
86,0.0,2401.79,0.000131626,2401.79,-120.0,2401.79,120.0,112.54799999999999,-60.6478,143.512,-163.981,175.28,63.2568,monvsource-secondsource,270.31666092,344.68568647999996,420.9857512
87,0.0,2401.79,9.08848e-05,2401.79,-120.0,2401.79,120.0,104.45299999999999,-68.6132,129.123,-169.984,161.708,56.451,monvsource-secondsource,250.87417086999997,310.12633016999996,388.38865732
88,0.0,2401.79,4.413649999999999e-05,2401.79,-120.0,2401.79,120.0,98.0025,-79.1228,116.12200000000001,-177.72,150.085,48.1936,monvsource-secondsource,235.381424475,278.90065838000004,360.47265215000004
89,0.0,2401.79,-6.83268e-05,2401.79,-120.0,2401.79,120.0,97.6347,-107.064,98.2431,160.833,137.691,25.6091,monvsource-secondsource,234.498046113,235.95929514899998,330.70486689
90,0.0,2401.79,-0.000237193,2401.79,-120.0,2401.79,120.0,135.39700000000002,-137.25799999999998,109.5,119.863,166.357,-12.8239,monvsource-secondsource,325.19516063000003,262.996005,399.55457902999996
91,0.0,2401.79,-0.00028551,2401.79,-120.0,2401.79,120.0,149.678,-143.09799999999998,117.479,112.90899999999999,193.66299999999998,-22.6008,monvsource-secondsource,359.49512361999996,282.15988740999995,465.1378567699999
92,0.0,2401.79,-0.00027812,2401.79,-120.0,2401.79,120.0,147.227,-142.366,116.811,113.73299999999999,196.19400000000002,-23.2843,monvsource-secondsource,353.60833633000004,280.55549169,471.21678726
93,0.0,2401.79,-0.000247184,2401.79,-120.0,2401.79,120.0,137.393,-138.958,109.84100000000001,120.01700000000001,193.334,-22.2077,monvsource-secondsource,329.98913347,263.81501539000004,464.34766786
94,0.0,2401.79,-0.00020182700000000002,2401.79,-120.0,2401.79,120.0,124.86200000000001,-132.66,107.00399999999999,125.455,181.537,-18.8866,monvsource-secondsource,299.89230298,257.00113716,436.01375122999997
95,0.0,2401.79,-0.000141923,2401.79,-120.0,2401.79,120.0,111.325,-122.30799999999999,97.0999,138.186,157.31,-5.0213,monvsource-secondsource,267.37927175,233.21356882100002,377.8255849
96,0.0,2401.79,-0.00011854899999999999,2401.79,-120.0,2401.79,120.0,107.79700000000001,-117.45700000000001,95.7781,138.94899999999998,146.196,3.65406,monvsource-secondsource,258.90575663000004,230.038882799,351.13209083999993
97,0.0,2401.79,-9.57708e-05,2401.79,-120.0,2401.79,120.0,104.515,-112.594,95.5807,141.438,142.714,7.323339999999999,monvsource-secondsource,251.02308184999998,229.564769453,342.76905806
98,0.0,2401.79,-9.086020000000001e-05,2401.79,-120.0,2401.79,120.0,103.927,-111.50399999999999,95.5746,142.165,141.80100000000002,8.457880000000001,monvsource-secondsource,249.61082933,229.550118534,340.57622379000003
99,0.0,2401.79,-8.914450000000001e-05,2401.79,-120.0,2401.79,120.0,103.795,-111.10600000000001,95.4791,142.327,141.002,9.529589999999999,monvsource-secondsource,249.29379305,229.320747589,338.65719358
100,0.0,2401.79,-8.705940000000001e-05,2401.79,-120.0,2401.79,120.0,103.539,-110.64299999999999,95.4277,142.722,140.691,9.950330000000001,monvsource-secondsource,248.67893481000002,229.197295583,337.91023689
101,0.0,2401.79,-0.00011554299999999999,2401.79,-120.0,2401.79,120.0,107.714,-116.726,96.2523,137.385,144.16299999999998,5.84414,monvsource-secondsource,258.70640806,231.177811617,346.24925177
102,0.0,2401.79,-0.000104958,2401.79,-120.0,2401.79,120.0,105.696,-114.604,94.9861,145.68,142.641,8.54475,monvsource-secondsource,253.85959584,228.13666511899999,342.59372738999997
103,0.0,2401.79,-3.31617e-05,2401.79,-120.0,2401.79,120.0,97.5653,-98.1962,105.42200000000001,170.68599999999998,136.83100000000002,21.3807,monvsource-secondsource,234.33136188699999,253.20150538000001,328.63932749
