hour,t(sec),V1,VAngle1,V2,VAngle2,V3,VAngle3,I1,IAngle1,I2,IAngle2,I3,IAngle3,Name,P1(kW),P2(kW),P3(kW)
1,0.0,2401.78,-0.00024115400000000002,2401.78,-120,2401.78,120,114.31,-152.179,78.7501,108.762,95.7356,-21.5244,monvsource-secondsource,274.5474718,189.140415178,229.93584936800002
2,0.0,2401.78,-0.000242681,2401.78,-120,2401.78,120,114.89200000000001,-152.314,78.7201,108.682,95.5527,-21.4135,monvsource-secondsource,275.94530776000005,189.06836177800002,229.496563806
3,0.0,2401.78,-0.00024529900000000004,2401.78,-120,2401.78,120,115.884,-152.547,78.8637,108.367,93.9837,-20.500999999999998,monvsource-secondsource,278.32787352,189.413257386,225.728170986
4,0.0,2401.78,-0.000245946,2401.78,-120,2401.78,120,116.12899999999999,-152.606,78.9012,108.287,93.6479,-20.298,monvsource-secondsource,278.91630962,189.503324136,224.92165326200004
5,0.0,2401.78,-0.000260897,2401.78,-120,2401.78,120,121.53200000000001,-154.15200000000002,80.8148,106.384,97.0455,-22.0939,monvsource-secondsource,291.89312696,194.09937034400002,233.08194099000002
6,0.0,2401.78,-0.000264584,2401.78,-120,2401.78,120,122.796,-154.593,81.8981,105.682,101.40799999999999,-24.3471,monvsource-secondsource,294.92897688000005,196.701218618,243.55970624
7,0.0,2401.78,-0.000310957,2401.78,-120,2401.78,120,139.97,-158.643,88.6665,100.40100000000001,118.34299999999999,-30.6251,monvsource-secondsource,336.1771466,212.95742637000004,284.23385054
8,0.0,2401.78,-0.000301435,2401.78,-120,2401.78,120,136.885,-157.392,84.4471,103.055,113.09899999999999,-29.316,monvsource-secondsource,328.7676553,202.82335583800003,271.63891622
9,0.0,2401.78,-0.000316239,2401.78,-120,2401.78,120,142.555,-158.431,84.1938,103.325,118.928,-30.8912,monvsource-secondsource,342.3857479,202.214984964,285.63889184
10,0.0,2401.78,-0.000283969,2401.78,-120,2401.78,120,130.724,-155.597,77.0898,110.671,104.38600000000001,-25.0578,monvsource-secondsource,313.97028872,185.152739844,250.71220708000004
11,0.0,2401.78,-0.00027654400000000004,2401.78,-120,2401.78,120,128.264,-154.67,74.4977,112.98899999999999,92.5135,-18.426,monvsource-secondsource,308.06190992000006,178.927085906,222.19707402999998
12,0.0,2401.78,-0.000183859,2401.78,-120,2401.78,120,97.0361,-142.593,66.0894,145.582,72.7668,6.48002,monvsource-secondsource,233.05936425800004,158.732199132,174.76984490400002
13,0.0,2401.78,-0.00029837799999999997,2401.78,-120,2401.78,120,136.249,-156.645,78.6833,107.044,96.21799999999999,-20.9389,monvsource-secondsource,327.24012322,188.97997627400002,231.09446804
14,0.0,2401.78,-0.00025037700000000003,2401.78,-120,2401.78,120,119.008,-151.88299999999998,69.7712,120.71799999999999,84.1901,-11.4189,monvsource-secondsource,285.83103424,167.575072736,202.20609837800004
15,0.0,2401.78,-0.000211433,2401.78,-120,2401.78,120,105.801,-146.907,66.0229,134.592,76.4134,-1.37463,monvsource-secondsource,254.11072578000002,158.57248076200003,183.528175852
16,0.0,2401.78,-0.000203526,2401.78,-120,2401.78,120,103.21799999999999,-145.755,65.8491,137.66299999999998,75.5086,0.329417,monvsource-secondsource,247.90692804,158.15505139800004,181.35504530800003
17,0.0,2401.78,-0.000265438,2401.78,-120,2401.78,120,124.175,-153.654,73.2545,115.24,93.2656,-18.7826,monvsource-secondsource,298.2410315,175.94119300999998,224.00345276800005
18,0.0,2401.78,-0.000319572,2401.78,-120,2401.78,120,143.439,-159.064,89.4195,99.5094,123.01700000000001,-32.334,monvsource-secondsource,344.50892142000004,214.76596671000001,295.4597702600001
19,0.0,2401.78,-0.000321798,2401.78,-120,2401.78,120,143.756,-159.787,93.3647,97.7227,138.91,-36.2848,monvsource-secondsource,345.27028568000003,224.24146916600003,333.6312598
20,0.0,2401.78,-0.00031634400000000003,2401.78,-120,2401.78,120,141.657,-159.42,92.3683,98.488,138.92,-36.2921,monvsource-secondsource,340.22894946,221.84833557400003,333.6552776
21,0.0,2401.78,-0.000299497,2401.78,-120,2401.78,120,135.20600000000002,-158.22,90.1292,100.175,137.851,-36.1474,monvsource-secondsource,324.73506668000005,216.470509976,331.08777478
22,0.0,2401.78,-0.000288039,2401.78,-120,2401.78,120,130.97299999999998,-157.214,87.59100000000001,101.956,131.217,-34.5466,monvsource-secondsource,314.56833194,210.37431198000002,315.15436626
23,0.0,2401.78,-0.000258411,2401.78,-120,2401.78,120,120.17299999999999,-154.352,82.363,106.30799999999999,114.914,-29.7855,monvsource-secondsource,288.62910794000004,197.81780614000002,275.99814692
24,0.0,2401.78,-0.00025778,2401.78,-120,2401.78,120,120.16799999999999,-154.066,81.5918,105.95,102.868,-24.9637,monvsource-secondsource,288.61709904,195.96555340400005,247.06630504
25,0.0,2401.78,-0.000251886,2401.78,-120,2401.78,120,118.134,-153.364,80.6329,107.104,97.6235,-22.5902,monvsource-secondsource,283.73187852,193.66248656200003,234.47016983000003
26,0.0,2401.78,-0.00025061,2401.78,-120,2401.78,120,117.666,-153.238,80.3931,107.417,97.0343,-22.2411,monvsource-secondsource,282.60784548000004,193.086539718,233.05504105400004
27,0.0,2401.78,-0.00024984299999999997,2401.78,-120,2401.78,120,117.38600000000001,-153.159,80.3077,107.516,96.5744,-21.9885,monvsource-secondsource,281.93534708000004,192.881427706,231.950462432
28,0.0,2401.78,-0.00024906,2401.78,-120,2401.78,120,117.07700000000001,-153.102,80.2796,107.57600000000001,96.7611,-22.0603,monvsource-secondsource,281.19319706000005,192.81393768800004,232.39887475800003
29,0.0,2401.78,-0.000302111,2401.78,-120,2401.78,120,136.745,-157.847,86.4107,102.18799999999999,106.08,-26.0031,monvsource-secondsource,328.4314061,207.53949104600005,254.7808224
30,0.0,2401.78,-0.000313833,2401.78,-120,2401.78,120,141.08700000000002,-158.828,90.0695,100.51,114.167,-29.596,monvsource-secondsource,338.8599348600001,216.32712371000005,274.20401726000006
31,0.0,2401.78,-0.000431242,2401.78,-120,2401.78,120,186.86599999999999,-165.33700000000002,124.385,89.5356,153.953,-42.5493,monvsource-secondsource,448.81102148,298.7454053,369.76123634000004
32,0.0,2401.78,-0.000484954,2401.78,-120,2401.78,120,208.231,-167.5,128.355,87.0887,160.843,-42.0302,monvsource-secondsource,500.12505118,308.2804719,386.30950054
33,0.0,2401.78,-0.000488492,2401.78,-120,2401.78,120,209.458,-167.86700000000002,129.829,87.0049,155.59799999999998,-40.7447,monvsource-secondsource,503.07203524000005,311.8206956200001,373.71216444000004
34,0.0,2401.78,-0.00046976099999999996,2401.78,-120,2401.78,120,201.834,-167.34,117.137,90.5192,141.493,-36.0782,monvsource-secondsource,484.76086452000004,281.33730386,339.83505754000004
35,0.0,2401.78,-0.000444315,2401.78,-120,2401.78,120,191.81099999999998,-166.183,106.852,94.9297,124.906,-31.2013,monvsource-secondsource,460.68782358,256.63499656000005,299.99673268000004
36,0.0,2401.78,-0.000561751,2401.78,-120,2401.78,120,238.938,-170.252,144.003,81.5315,163.44899999999998,-40.6745,monvsource-secondsource,573.8765096400001,345.86352533999997,392.56853922
37,0.0,2401.78,-0.000329291,2401.78,-120,2401.78,120,147.325,-159.553,79.6068,121.273,90.6124,-13.7095,monvsource-secondsource,353.84223849999995,191.19802010400002,217.63105007200002
38,0.0,2401.78,-0.000486296,2401.78,-120,2401.78,120,208.59400000000002,-167.768,116.867,90.1202,134.9,-34.0824,monvsource-secondsource,500.99689732000013,280.68882326000005,324.00012200000003
39,0.0,2401.78,-0.000276793,2401.78,-120,2401.78,120,127.67,-155.351,74.4084,140.389,78.7386,3.3930000000000002,monvsource-secondsource,306.6352526,178.71260695200002,189.11279470800002
40,0.0,2401.78,-0.00036787,2401.78,-120,2401.78,120,161.959,-162.211,84.0313,113.06299999999999,98.2946,-17.9668,monvsource-secondsource,388.98988702,201.82469571400003,236.08200438800003
41,0.0,2401.78,-0.000468105,2401.78,-120,2401.78,120,201.297,-167.122,110.804,93.1449,133.72299999999998,-33.4607,monvsource-secondsource,483.47110866,266.12683112,321.17322693999995
42,0.0,2401.78,-0.000553209,2401.78,-120,2401.78,120,236.00099999999998,-169.313,138.44299999999998,83.5649,169.275,-43.0299,monvsource-secondsource,566.82248178,332.50962854,406.56130950000005
43,0.0,2401.78,-0.000452476,2401.78,-120,2401.78,120,195.303,-166.22,123.554,87.6194,162.675,-42.593999999999994,monvsource-secondsource,469.07483934,296.74952612000004,390.70956150000006
44,0.0,2401.78,-0.00044746699999999995,2401.78,-120,2401.78,120,193.28,-166.053,122.823,88.0367,163.509,-42.7505,monvsource-secondsource,464.2160384,294.99382494,392.71264601999997
45,0.0,2401.78,-0.00038052800000000004,2401.78,-120,2401.78,120,166.649,-163.183,111.87200000000001,92.1329,155.347,-41.5892,monvsource-secondsource,400.25423522000006,268.6919321600001,373.10931766000004
46,0.0,2401.78,-0.00034617400000000004,2401.78,-120,2401.78,120,153.327,-161.17,105.43299999999999,95.4875,144.023,-39.8199,monvsource-secondsource,368.25772206,253.22687074,345.91156094
47,0.0,2401.78,-0.000285972,2401.78,-120,2401.78,120,130.421,-156.811,86.2099,103.417,117.23299999999999,-30.5744,monvsource-secondsource,313.24254937999996,207.05721362200003,281.56787474
48,0.0,2401.78,-0.000284552,2401.78,-120,2401.78,120,130.054,-156.525,85.1178,103.219,106.917,-26.5873,monvsource-secondsource,312.36109612,204.43422968400003,256.79111226000003
49,0.0,2401.78,-0.0002747,2401.78,-120,2401.78,120,126.43700000000001,-155.61700000000002,83.2187,104.874,102.289,-24.5169,monvsource-secondsource,303.67385786000006,199.873009286,245.67567442000004
50,0.0,2401.78,-0.00027095900000000003,2401.78,-120,2401.78,120,125.055,-155.276,82.7343,105.37299999999999,101.54700000000001,-24.2019,monvsource-secondsource,300.35459790000004,198.70958705400002,243.89355366000004
51,0.0,2401.78,-0.000267587,2401.78,-120,2401.78,120,123.774,-155.001,82.4852,105.595,101.15,-23.9916,monvsource-secondsource,297.27791772,198.11130365600005,242.94004700000002
52,0.0,2401.78,-0.000266781,2401.78,-120,2401.78,120,123.48700000000001,-154.915,83.1373,105.471,101.75200000000001,-24.6448,monvsource-secondsource,296.5886068600001,199.677504394,244.38591856000005
53,0.0,2401.78,-0.000322962,2401.78,-120,2401.78,120,144.588,-159.454,90.5989,99.7071,112.515,-28.6832,monvsource-secondsource,347.26856664,217.598626042,270.2362767
54,0.0,2401.78,-0.000335022,2401.78,-120,2401.78,120,149.145,-160.335,93.296,98.469,120.876,-31.633000000000003,monvsource-secondsource,358.2134781000001,224.07646688000003,290.31755928000007
55,0.0,2401.78,-0.000450675,2401.78,-120,2401.78,120,194.583,-166.15200000000002,127.844,88.4264,161.178,-43.5152,monvsource-secondsource,467.34555774,307.05316232,387.11409684
56,0.0,2401.78,-0.000504083,2401.78,-120,2401.78,120,215.929,-168.13299999999998,130.7,86.2306,165.822,-42.4946,monvsource-secondsource,518.6139536200001,313.912646,398.26796316
57,0.0,2401.78,-0.000447231,2401.78,-120,2401.78,120,193.085,-166.16400000000002,112.12200000000001,93.8547,138.204,-36.3494,monvsource-secondsource,463.74769130000004,269.29237716000006,331.93560312000005
58,0.0,2401.78,-0.00035605900000000004,2401.78,-120,2401.78,120,157.248,-161.664,84.5113,113.979,103.54,-21.498,monvsource-secondsource,377.67510144,202.97755011400005,248.68030120000006
59,0.0,2401.78,-0.000286844,2401.78,-120,2401.78,120,131.246,-156.38,75.3959,134.433,82.4202,-3.5276199999999998,monvsource-secondsource,315.2240178800001,181.08436470200002,197.955187956
60,0.0,2401.78,-0.000441365,2401.78,-120,2401.78,120,190.632,-166.06799999999998,106.035,95.4779,125.225,-31.2727,monvsource-secondsource,457.85612496000005,254.6727423,300.7629005
61,0.0,2401.78,-0.00033331,2401.78,-120,2401.78,120,148.707,-159.988,82.5285,116.77600000000001,96.3964,-18.607,monvsource-secondsource,357.16149846,198.21530073,231.52294559200004
62,0.0,2401.78,-0.000351786,2401.78,-120,2401.78,120,155.619,-161.38,84.2129,114.13600000000001,100.838,-20.1902,monvsource-secondsource,373.76260182000004,202.26085896200001,242.19069164
63,0.0,2401.78,-0.000389197,2401.78,-120,2401.78,120,170.084,-163.59,91.6789,105.574,112.089,-25.8131,monvsource-secondsource,408.50434952000006,220.19254844200003,269.21311842
64,0.0,2401.78,-0.00041318,2401.78,-120,2401.78,120,179.463,-164.829,97.8815,100.83200000000001,120.74700000000001,-29.3584,monvsource-secondsource,431.03064414000005,235.08982907000004,290.00772966000005
65,0.0,2401.78,-0.000489025,2401.78,-120,2401.78,120,209.55599999999998,-168.035,120.45299999999999,89.3297,149.234,-37.4969,monvsource-secondsource,503.30740968,289.30160634,358.42723652
66,0.0,2401.78,-0.000541458,2401.78,-120,2401.78,120,231.204,-169.033,136.41,83.9752,169.153,-42.9467,monvsource-secondsource,555.30114312,327.62680980000005,406.26829233999996
67,0.0,2401.78,-0.00043185900000000004,2401.78,-120,2401.78,120,187.05900000000003,-165.424,119.226,88.8554,158.622,-41.8418,monvsource-secondsource,449.27456502000007,286.35462228,380.97514716000006
68,0.0,2401.78,-0.00042522800000000004,2401.78,-120,2401.78,120,184.398,-165.174,118.367,89.4248,159.183,-42.0014,monvsource-secondsource,442.88342844000005,284.29149326000004,382.32254574
69,0.0,2401.78,-0.000359402,2401.78,-120,2401.78,120,158.36,-162.066,107.756,93.7113,151.058,-40.755,monvsource-secondsource,380.34588080000003,258.80620568,362.80808324000003
70,0.0,2401.78,-0.000328555,2401.78,-120,2401.78,120,146.504,-160.077,102.06299999999999,96.9975,140.417,-38.9864,monvsource-secondsource,351.87037712,245.13287214,337.25074226000004
71,0.0,2401.78,-0.000270203,2401.78,-120,2401.78,120,124.536,-155.446,84.3446,105.08200000000001,114.741,-29.8598,monvsource-secondsource,299.10807408000005,202.57717338800003,275.58263898000007
72,0.0,2401.78,-0.00026874900000000004,2401.78,-120,2401.78,120,124.20299999999999,-155.108,83.1054,104.986,103.973,-25.4886,monvsource-secondsource,298.30828134,199.600887612,249.72027194
73,0.0,2401.78,-0.000255389,2401.78,-120,2401.78,120,119.38600000000001,-153.74,80.8116,107.14,98.2914,-22.8004,monvsource-secondsource,286.73890708000005,194.091684648,236.074318692
74,0.0,2401.78,-0.00025363400000000003,2401.78,-120,2401.78,120,118.76899999999999,-153.541,80.4718,107.50399999999999,97.2974,-22.2935,monvsource-secondsource,285.25700882,193.275559804,233.68694937200002
75,0.0,2401.78,-0.000253428,2401.78,-120,2401.78,120,118.715,-153.5,80.376,107.525,96.3979,-21.8109,monvsource-secondsource,285.1273127,193.04546928000002,231.52654826200003
76,0.0,2401.78,-0.00025381599999999997,2401.78,-120,2401.78,120,118.861,-153.536,80.4172,107.47200000000001,96.4451,-21.8421,monvsource-secondsource,285.4779725800001,193.14442261599999,231.639912278
77,0.0,2401.78,-0.000307353,2401.78,-120,2401.78,120,138.765,-158.20600000000002,86.6708,101.988,105.84899999999999,-25.8364,monvsource-secondsource,333.2830017,208.16419402400004,254.22601121999998
78,0.0,2401.78,-0.00031298400000000004,2401.78,-120,2401.78,120,140.822,-158.70600000000002,88.4776,101.14,111.984,-28.4786,monvsource-secondsource,338.22346316000005,212.503730128,268.96093152
79,0.0,2401.78,-0.00043426900000000004,2401.78,-120,2401.78,120,188.06400000000002,-165.47099999999998,118.545,89.9641,149.097,-40.3371,monvsource-secondsource,451.68835392000005,284.7190101,358.09819266000005
80,0.0,2401.78,-0.000490086,2401.78,-120,2401.78,120,210.30200000000002,-167.665,125.334,87.1368,158.113,-40.8121,monvsource-secondsource,505.09913756000014,301.02469452,379.75264114000004
81,0.0,2401.78,-0.000394184,2401.78,-120,2401.78,120,172.22,-163.638,98.1473,102.118,119.765,-30.9839,monvsource-secondsource,413.6345516,235.72822219400004,287.64918170000004
82,0.0,2401.78,-0.00025172599999999997,2401.78,-120,2401.78,120,118.405,-153.031,75.5231,144.191,79.2938,1.104,monvsource-secondsource,284.38276090000005,181.389871118,190.44626296400003
83,0.0,2401.78,-0.00012957799999999998,2401.79,-120,2401.78,120,79.873,-132.856,94.5375,179.105,79.1525,45.3795,monvsource-secondsource,191.83737394000002,227.05922212499996,190.10689145000003
84,0.0,2401.78,-6.59297e-05,2401.79,-120,2401.79,120,66.7661,-114.46,114.73,-168.98,93.9124,61.9656,monvsource-secondsource,160.357483658,275.5573667,225.55786319600003
85,0.0,2401.78,-2.2813800000000002e-05,2401.79,-120,2401.79,120,63.3953,-98.6838,127.611,-164.16099999999997,102.991,68.8768,monvsource-secondsource,152.26156363400003,306.49482369,247.36275389
86,0.0,2401.78,-5.6582399999999995e-05,2401.79,-120,2401.79,120,65.5283,-111.228,119.243,-167.175,96.4711,63.6605,monvsource-secondsource,157.38456037400002,286.39664496999995,231.703323269
87,0.0,2401.78,-0.000125459,2401.79,-120,2401.78,120,78.9524,-131.776,99.5049,-177.03400000000002,82.6109,49.401,monvsource-secondsource,189.62629527200002,238.98987377100002,198.41320740200004
88,0.0,2401.78,-0.000237066,2401.78,-120,2401.78,120,113.54700000000001,-151.077,77.2125,156.18200000000002,75.05199999999999,16.5936,monvsource-secondsource,272.7149136600001,185.44743825000003,180.25839256
89,0.0,2401.78,-0.000404781,2401.78,-120,2401.78,120,176.338,-164.215,90.4384,106.97200000000001,111.03200000000001,-24.7261,monvsource-secondsource,423.52508164000005,217.213140352,266.67443696000004
90,0.0,2401.78,-0.000549261,2401.78,-120,2401.78,120,234.48,-169.104,132.565,85.3015,164.17,-41.9086,monvsource-secondsource,563.1693743999999,318.3919657,394.3002226
91,0.0,2401.78,-0.00047206699999999995,2401.78,-120,2401.78,120,203.144,-166.945,125.946,86.5489,166.826,-42.9225,monvsource-secondsource,487.90719632,302.49458388000005,400.67935028
92,0.0,2401.78,-0.00046554,2401.78,-120,2401.78,120,200.51,-166.732,124.662,87.01899999999999,167.377,-42.9961,monvsource-secondsource,481.58090780000003,299.41069836,402.0027310600001
93,0.0,2401.78,-0.000397848,2401.78,-120,2401.78,120,173.477,-164.03099999999998,112.958,91.0179,158.881,-41.7457,monvsource-secondsource,416.65358906,271.30026524000004,381.59720818
94,0.0,2401.78,-0.000363871,2401.78,-120,2401.78,120,160.243,-162.161,106.5,94.3495,147.286,-40.0518,monvsource-secondsource,384.86843254,255.78957,353.74856908000004
95,0.0,2401.78,-0.00030518099999999996,2401.78,-120,2401.78,120,137.764,-158.22799999999998,88.16799999999999,101.648,120.02799999999999,-31.4331,monvsource-secondsource,330.87881992,211.76013904,288.28084984
96,0.0,2401.78,-0.000303585,2401.78,-120,2401.78,120,137.35,-157.91,86.8221,101.583,108.368,-27.1558,monvsource-secondsource,329.884483,208.52758333800003,260.27609504000003
97,0.0,2401.78,-0.00029142400000000003,2401.78,-120,2401.78,120,132.849,-156.87,84.5445,103.316,102.741,-24.7693,monvsource-secondsource,319.07407122,203.05728921000002,246.76127898000004
98,0.0,2401.78,-0.00028808400000000003,2401.78,-120,2401.78,120,131.622,-156.57,83.9293,103.86,101.264,-24.0924,monvsource-secondsource,316.12708716000003,201.57971415400002,243.21384992
99,0.0,2401.78,-0.000287155,2401.78,-120,2401.78,120,131.296,-156.472,83.7482,103.954,100.12799999999999,-23.5525,monvsource-secondsource,315.34410688,201.144751796,240.48542784
100,0.0,2401.78,-0.00028345299999999997,2401.78,-120,2401.78,120,129.915,-156.158,83.3202,104.31200000000001,99.4147,-23.2362,monvsource-secondsource,312.0272487,200.11678995600002,238.77223816600002
101,0.0,2401.78,-0.00033141599999999996,2401.78,-120,2401.78,120,148.079,-159.759,89.2079,99.749,107.713,-26.5665,monvsource-secondsource,355.65318062000006,214.257750062,258.70292914
102,0.0,2401.78,-0.00034256099999999996,2401.78,-120,2401.78,120,152.281,-160.567,91.7769,98.5226,115.20700000000001,-29.5161,monvsource-secondsource,365.74546018000007,220.42792288200002,276.70186846
103,0.0,2401.78,-0.000468381,2401.78,-120,2401.78,120,201.65900000000002,-166.822,118.524,88.3007,153.787,-39.679,monvsource-secondsource,484.34055302000013,284.66857272000004,369.3625408600001
104,0.0,2401.78,-0.000526994,2401.78,-120,2401.78,120,225.173,-168.84400000000002,128.59,85.249,166.36700000000002,-41.2412,monvsource-secondsource,540.8160079400001,308.8448902,399.5769332600001
105,0.0,2401.78,-0.000422426,2401.78,-120,2401.78,120,183.354,-164.97400000000002,100.01899999999999,100.62700000000001,128.135,-32.8091,monvsource-secondsource,440.3759701200001,240.22363381999998,307.75208030000005
