hour,t(sec),V1,VAngle1,V2,VAngle2,V3,VAngle3,I1,IAngle1,I2,IAngle2,I3,IAngle3,Name,P1(kW),P2(kW),P3(kW)
1,0.0,2076400.0,-136.656,,,,,197972.0,60.0,,,,,monisource-isource_newdiesel675_1_shape,411069060.8,,
2,0.0,2076400.0,-136.656,,,,,197972.0,60.0,,,,,monisource-isource_newdiesel675_1_shape,411069060.8,,
3,0.0,2076400.0,-136.656,,,,,197972.0,60.0,,,,,monisource-isource_newdiesel675_1_shape,411069060.8,,
4,0.0,2076400.0,-136.656,,,,,197972.0,60.0,,,,,monisource-isource_newdiesel675_1_shape,411069060.8,,
5,0.0,2076400.0,-136.656,,,,,197972.0,60.0,,,,,monisource-isource_newdiesel675_1_shape,411069060.8,,
6,0.0,2076400.0,-136.656,,,,,197972.0,60.0,,,,,monisource-isource_newdiesel675_1_shape,411069060.8,,
7,0.0,2076400.0,-136.656,,,,,197972.0,60.0,,,,,monisource-isource_newdiesel675_1_shape,411069060.8,,
8,0.0,2076400.0,-136.656,,,,,197972.0,60.0,,,,,monisource-isource_newdiesel675_1_shape,411069060.8,,
9,0.0,2076400.0,-136.656,,,,,197972.0,60.0,,,,,monisource-isource_newdiesel675_1_shape,411069060.8,,
10,0.0,2076400.0,-136.656,,,,,197972.0,60.0,,,,,monisource-isource_newdiesel675_1_shape,411069060.8,,
11,0.0,2076400.0,-136.656,,,,,197972.0,60.0,,,,,monisource-isource_newdiesel675_1_shape,411069060.8,,
12,0.0,2076400.0,-136.656,,,,,197972.0,60.0,,,,,monisource-isource_newdiesel675_1_shape,411069060.8,,
13,0.0,2076400.0,-136.656,,,,,197972.0,60.0,,,,,monisource-isource_newdiesel675_1_shape,411069060.8,,
14,0.0,2076400.0,-136.656,,,,,197972.0,60.0,,,,,monisource-isource_newdiesel675_1_shape,411069060.8,,
15,0.0,2076400.0,-136.656,,,,,197972.0,60.0,,,,,monisource-isource_newdiesel675_1_shape,411069060.8,,
16,0.0,2076400.0,-136.656,,,,,197972.0,60.0,,,,,monisource-isource_newdiesel675_1_shape,411069060.8,,
17,0.0,2076400.0,-136.656,,,,,197972.0,60.0,,,,,monisource-isource_newdiesel675_1_shape,411069060.8,,
18,0.0,2076400.0,-136.656,,,,,197972.0,60.0,,,,,monisource-isource_newdiesel675_1_shape,411069060.8,,
19,0.0,2076400.0,-136.656,,,,,197972.0,60.0,,,,,monisource-isource_newdiesel675_1_shape,411069060.8,,
20,0.0,2076400.0,-136.656,,,,,197972.0,60.0,,,,,monisource-isource_newdiesel675_1_shape,411069060.8,,
21,0.0,2076400.0,-136.656,,,,,197972.0,60.0,,,,,monisource-isource_newdiesel675_1_shape,411069060.8,,
22,0.0,2076400.0,-136.656,,,,,197972.0,60.0,,,,,monisource-isource_newdiesel675_1_shape,411069060.8,,
23,0.0,2076400.0,-136.656,,,,,197972.0,60.0,,,,,monisource-isource_newdiesel675_1_shape,411069060.8,,
24,0.0,2076400.0,-136.656,,,,,197972.0,60.0,,,,,monisource-isource_newdiesel675_1_shape,411069060.8,,
25,0.0,2076400.0,-136.656,,,,,197972.0,60.0,,,,,monisource-isource_newdiesel675_1_shape,411069060.8,,
26,0.0,2076400.0,-136.656,,,,,197972.0,60.0,,,,,monisource-isource_newdiesel675_1_shape,411069060.8,,
27,0.0,2076400.0,-136.656,,,,,197972.0,60.0,,,,,monisource-isource_newdiesel675_1_shape,411069060.8,,
28,0.0,2076400.0,-136.656,,,,,197972.0,60.0,,,,,monisource-isource_newdiesel675_1_shape,411069060.8,,
29,0.0,2076400.0,-136.656,,,,,197972.0,60.0,,,,,monisource-isource_newdiesel675_1_shape,411069060.8,,
30,0.0,2076400.0,-136.656,,,,,197972.0,60.0,,,,,monisource-isource_newdiesel675_1_shape,411069060.8,,
31,0.0,2818360.0,-148.675,,,,,197972.0,60.0,,,,,monisource-isource_newdiesel675_1_shape,557956365.92,,
32,0.0,2818360.0,-148.675,,,,,197972.0,60.0,,,,,monisource-isource_newdiesel675_1_shape,557956365.92,,
33,0.0,2818360.0,-148.675,,,,,197972.0,60.0,,,,,monisource-isource_newdiesel675_1_shape,557956365.92,,
34,0.0,2818360.0,-148.675,,,,,197972.0,60.0,,,,,monisource-isource_newdiesel675_1_shape,557956365.92,,
35,0.0,2419090.0,-143.442,,,,,197972.0,60.0,,,,,monisource-isource_newdiesel675_1_shape,478912085.48,,
36,0.0,2582820.0,-145.156,,,,,197972.0,60.0,,,,,monisource-isource_newdiesel675_1_shape,511326041.04,,
37,0.0,2228640.0,-141.63,,,,,197972.0,60.0,,,,,monisource-isource_newdiesel675_1_shape,441208318.08,,
38,0.0,2383750.0,-143.077,,,,,197972.0,60.0,,,,,monisource-isource_newdiesel675_1_shape,471915755.0,,
39,0.0,2391700.0,-143.153,,,,,197972.0,60.0,,,,,monisource-isource_newdiesel675_1_shape,473489632.4,,
40,0.0,2391700.0,-143.153,,,,,197972.0,60.0,,,,,monisource-isource_newdiesel675_1_shape,473489632.4,,
41,0.0,2295080.0,-142.164,,,,,197972.0,60.0,,,,,monisource-isource_newdiesel675_1_shape,454361577.76,,
42,0.0,2295080.0,-142.164,,,,,197972.0,60.0,,,,,monisource-isource_newdiesel675_1_shape,454361577.76,,
43,0.0,2295080.0,-142.164,,,,,197972.0,60.0,,,,,monisource-isource_newdiesel675_1_shape,454361577.76,,
44,0.0,2295080.0,-142.164,,,,,197972.0,60.0,,,,,monisource-isource_newdiesel675_1_shape,454361577.76,,
45,0.0,2295080.0,-142.164,,,,,197972.0,60.0,,,,,monisource-isource_newdiesel675_1_shape,454361577.76,,
46,0.0,3079310.0,-151.804,,,,,197972.0,60.0,,,,,monisource-isource_newdiesel675_1_shape,609617159.32,,
47,0.0,3079310.0,-151.804,,,,,197972.0,60.0,,,,,monisource-isource_newdiesel675_1_shape,609617159.32,,
48,0.0,3079310.0,-151.804,,,,,197972.0,60.0,,,,,monisource-isource_newdiesel675_1_shape,609617159.32,,
49,0.0,3079310.0,-151.804,,,,,197972.0,60.0,,,,,monisource-isource_newdiesel675_1_shape,609617159.32,,
50,0.0,3079310.0,-151.804,,,,,197972.0,60.0,,,,,monisource-isource_newdiesel675_1_shape,609617159.32,,
51,0.0,3079310.0,-151.804,,,,,197972.0,60.0,,,,,monisource-isource_newdiesel675_1_shape,609617159.32,,
52,0.0,3079310.0,-151.804,,,,,197972.0,60.0,,,,,monisource-isource_newdiesel675_1_shape,609617159.32,,
53,0.0,3079310.0,-151.804,,,,,197972.0,60.0,,,,,monisource-isource_newdiesel675_1_shape,609617159.32,,
54,0.0,3079310.0,-151.804,,,,,197972.0,60.0,,,,,monisource-isource_newdiesel675_1_shape,609617159.32,,
55,0.0,2809640.0,-148.578,,,,,197972.0,60.0,,,,,monisource-isource_newdiesel675_1_shape,556230050.08,,
56,0.0,2809640.0,-148.578,,,,,197972.0,60.0,,,,,monisource-isource_newdiesel675_1_shape,556230050.08,,
57,0.0,2809640.0,-148.578,,,,,197972.0,60.0,,,,,monisource-isource_newdiesel675_1_shape,556230050.08,,
58,0.0,2363390.0,-142.863,,,,,197972.0,60.0,,,,,monisource-isource_newdiesel675_1_shape,467885045.08,,
59,0.0,2363390.0,-142.863,,,,,197972.0,60.0,,,,,monisource-isource_newdiesel675_1_shape,467885045.08,,
60,0.0,2363390.0,-142.863,,,,,197972.0,60.0,,,,,monisource-isource_newdiesel675_1_shape,467885045.08,,
61,0.0,2363390.0,-142.863,,,,,197972.0,60.0,,,,,monisource-isource_newdiesel675_1_shape,467885045.08,,
62,0.0,2363390.0,-142.863,,,,,197972.0,60.0,,,,,monisource-isource_newdiesel675_1_shape,467885045.08,,
63,0.0,2363390.0,-142.863,,,,,197972.0,60.0,,,,,monisource-isource_newdiesel675_1_shape,467885045.08,,
64,0.0,2363390.0,-142.863,,,,,197972.0,60.0,,,,,monisource-isource_newdiesel675_1_shape,467885045.08,,
65,0.0,2272410.0,-141.933,,,,,197972.0,60.0,,,,,monisource-isource_newdiesel675_1_shape,449873552.52,,
66,0.0,2272410.0,-141.933,,,,,197972.0,60.0,,,,,monisource-isource_newdiesel675_1_shape,449873552.52,,
67,0.0,2272410.0,-141.933,,,,,197972.0,60.0,,,,,monisource-isource_newdiesel675_1_shape,449873552.52,,
68,0.0,2272410.0,-141.933,,,,,197972.0,60.0,,,,,monisource-isource_newdiesel675_1_shape,449873552.52,,
69,0.0,3008660.0,-150.996,,,,,197972.0,60.0,,,,,monisource-isource_newdiesel675_1_shape,595630437.52,,
70,0.0,3008660.0,-150.996,,,,,197972.0,60.0,,,,,monisource-isource_newdiesel675_1_shape,595630437.52,,
71,0.0,3008660.0,-150.996,,,,,197972.0,60.0,,,,,monisource-isource_newdiesel675_1_shape,595630437.52,,
72,0.0,3008660.0,-150.996,,,,,197972.0,60.0,,,,,monisource-isource_newdiesel675_1_shape,595630437.52,,
73,0.0,3008660.0,-150.996,,,,,197972.0,60.0,,,,,monisource-isource_newdiesel675_1_shape,595630437.52,,
74,0.0,3008660.0,-150.996,,,,,197972.0,60.0,,,,,monisource-isource_newdiesel675_1_shape,595630437.52,,
75,0.0,3008660.0,-150.996,,,,,197972.0,60.0,,,,,monisource-isource_newdiesel675_1_shape,595630437.52,,
76,0.0,3008660.0,-150.996,,,,,197972.0,60.0,,,,,monisource-isource_newdiesel675_1_shape,595630437.52,,
77,0.0,3008660.0,-150.996,,,,,197972.0,60.0,,,,,monisource-isource_newdiesel675_1_shape,595630437.52,,
78,0.0,3008660.0,-150.996,,,,,197972.0,60.0,,,,,monisource-isource_newdiesel675_1_shape,595630437.52,,
79,0.0,2739300.0,-147.797,,,,,197972.0,60.0,,,,,monisource-isource_newdiesel675_1_shape,542304699.6,,
80,0.0,2739300.0,-147.797,,,,,197972.0,60.0,,,,,monisource-isource_newdiesel675_1_shape,542304699.6,,
81,0.0,2739300.0,-147.797,,,,,197972.0,60.0,,,,,monisource-isource_newdiesel675_1_shape,542304699.6,,
82,0.0,2739300.0,-147.797,,,,,197972.0,60.0,,,,,monisource-isource_newdiesel675_1_shape,542304699.6,,
83,0.0,2422720.0,-143.47,,,,,197972.0,60.0,,,,,monisource-isource_newdiesel675_1_shape,479630723.84,,
84,0.0,2422720.0,-143.47,,,,,197972.0,60.0,,,,,monisource-isource_newdiesel675_1_shape,479630723.84,,
85,0.0,2422720.0,-143.47,,,,,197972.0,60.0,,,,,monisource-isource_newdiesel675_1_shape,479630723.84,,
86,0.0,2422720.0,-143.47,,,,,197972.0,60.0,,,,,monisource-isource_newdiesel675_1_shape,479630723.84,,
87,0.0,2422720.0,-143.47,,,,,197972.0,60.0,,,,,monisource-isource_newdiesel675_1_shape,479630723.84,,
88,0.0,2422720.0,-143.47,,,,,197972.0,60.0,,,,,monisource-isource_newdiesel675_1_shape,479630723.84,,
89,0.0,2422720.0,-143.47,,,,,197972.0,60.0,,,,,monisource-isource_newdiesel675_1_shape,479630723.84,,
90,0.0,2546880.0,-145.724,,,,,197972.0,60.0,,,,,monisource-isource_newdiesel675_1_shape,504210927.36,,
91,0.0,2546880.0,-145.724,,,,,197972.0,60.0,,,,,monisource-isource_newdiesel675_1_shape,504210927.36,,
92,0.0,2546880.0,-145.724,,,,,197972.0,60.0,,,,,monisource-isource_newdiesel675_1_shape,504210927.36,,
93,0.0,2546880.0,-145.724,,,,,197972.0,60.0,,,,,monisource-isource_newdiesel675_1_shape,504210927.36,,
94,0.0,3056540.0,-151.606,,,,,197972.0,60.0,,,,,monisource-isource_newdiesel675_1_shape,605109336.88,,
95,0.0,3056540.0,-151.606,,,,,197972.0,60.0,,,,,monisource-isource_newdiesel675_1_shape,605109336.88,,
96,0.0,3056540.0,-151.606,,,,,197972.0,60.0,,,,,monisource-isource_newdiesel675_1_shape,605109336.88,,
97,0.0,3056540.0,-151.606,,,,,197972.0,60.0,,,,,monisource-isource_newdiesel675_1_shape,605109336.88,,
98,0.0,3056540.0,-151.606,,,,,197972.0,60.0,,,,,monisource-isource_newdiesel675_1_shape,605109336.88,,
99,0.0,3056540.0,-151.606,,,,,197972.0,60.0,,,,,monisource-isource_newdiesel675_1_shape,605109336.88,,
100,0.0,3056540.0,-151.606,,,,,197972.0,60.0,,,,,monisource-isource_newdiesel675_1_shape,605109336.88,,
101,0.0,3056540.0,-151.606,,,,,197972.0,60.0,,,,,monisource-isource_newdiesel675_1_shape,605109336.88,,
102,0.0,3056540.0,-151.606,,,,,197972.0,60.0,,,,,monisource-isource_newdiesel675_1_shape,605109336.88,,
103,0.0,2669730.0,-147.031,,,,,197972.0,60.0,,,,,monisource-isource_newdiesel675_1_shape,528531787.56,,
104,0.0,2669730.0,-147.031,,,,,197972.0,60.0,,,,,monisource-isource_newdiesel675_1_shape,528531787.56,,
105,0.0,2669730.0,-147.031,,,,,197972.0,60.0,,,,,monisource-isource_newdiesel675_1_shape,528531787.56,,
106,0.0,2669730.0,-147.031,,,,,197972.0,60.0,,,,,monisource-isource_newdiesel675_1_shape,528531787.56,,
107,0.0,1787340.0,-137.058,,,,,197972.0,60.0,,,,,monisource-isource_newdiesel675_1_shape,353843274.48,,
108,0.0,1787340.0,-137.058,,,,,197972.0,60.0,,,,,monisource-isource_newdiesel675_1_shape,353843274.48,,
109,0.0,1787340.0,-137.058,,,,,197972.0,60.0,,,,,monisource-isource_newdiesel675_1_shape,353843274.48,,
110,0.0,1787340.0,-137.058,,,,,197972.0,60.0,,,,,monisource-isource_newdiesel675_1_shape,353843274.48,,
111,0.0,1787340.0,-137.058,,,,,197972.0,60.0,,,,,monisource-isource_newdiesel675_1_shape,353843274.48,,
112,0.0,1787340.0,-137.058,,,,,197972.0,60.0,,,,,monisource-isource_newdiesel675_1_shape,353843274.48,,
113,0.0,1787340.0,-137.058,,,,,197972.0,60.0,,,,,monisource-isource_newdiesel675_1_shape,353843274.48,,
114,0.0,2542760.0,-145.679,,,,,197972.0,60.0,,,,,monisource-isource_newdiesel675_1_shape,503395282.72,,
115,0.0,2542760.0,-145.679,,,,,197972.0,60.0,,,,,monisource-isource_newdiesel675_1_shape,503395282.72,,
116,0.0,2542760.0,-145.679,,,,,197972.0,60.0,,,,,monisource-isource_newdiesel675_1_shape,503395282.72,,
117,0.0,2542760.0,-145.679,,,,,197972.0,60.0,,,,,monisource-isource_newdiesel675_1_shape,503395282.72,,
118,0.0,2542760.0,-145.679,,,,,197972.0,60.0,,,,,monisource-isource_newdiesel675_1_shape,503395282.72,,
119,0.0,2542760.0,-145.679,,,,,197972.0,60.0,,,,,monisource-isource_newdiesel675_1_shape,503395282.72,,
120,0.0,2542760.0,-145.679,,,,,197972.0,60.0,,,,,monisource-isource_newdiesel675_1_shape,503395282.72,,
121,0.0,2542760.0,-145.679,,,,,0.0,0.0,,,,,monisource-isource_newdiesel675_1_shape,0.0,,
122,0.0,2542760.0,-145.679,,,,,0.0,0.0,,,,,monisource-isource_newdiesel675_1_shape,0.0,,
123,0.0,2542760.0,-145.679,,,,,0.0,0.0,,,,,monisource-isource_newdiesel675_1_shape,0.0,,
124,0.0,2542760.0,-145.679,,,,,0.0,0.0,,,,,monisource-isource_newdiesel675_1_shape,0.0,,
125,0.0,2542760.0,-145.679,,,,,0.0,0.0,,,,,monisource-isource_newdiesel675_1_shape,0.0,,
126,0.0,2542760.0,-145.679,,,,,0.0,0.0,,,,,monisource-isource_newdiesel675_1_shape,0.0,,
127,0.0,2542760.0,-145.679,,,,,0.0,0.0,,,,,monisource-isource_newdiesel675_1_shape,0.0,,
128,0.0,2542760.0,-145.679,,,,,0.0,0.0,,,,,monisource-isource_newdiesel675_1_shape,0.0,,
129,0.0,2542760.0,-145.679,,,,,0.0,0.0,,,,,monisource-isource_newdiesel675_1_shape,0.0,,
130,0.0,2542760.0,-145.679,,,,,0.0,0.0,,,,,monisource-isource_newdiesel675_1_shape,0.0,,
131,0.0,2202.83,-10.5263,,,,,0.0,0.0,,,,,monisource-isource_newdiesel675_1_shape,0.0,,
132,0.0,2206.82,-10.22,,,,,0.0,0.0,,,,,monisource-isource_newdiesel675_1_shape,0.0,,
133,0.0,2205.24,-10.5023,,,,,0.0,0.0,,,,,monisource-isource_newdiesel675_1_shape,0.0,,
134,0.0,2215.54,-10.3536,,,,,0.0,0.0,,,,,monisource-isource_newdiesel675_1_shape,0.0,,
135,0.0,2217.24,-10.325999999999999,,,,,0.0,0.0,,,,,monisource-isource_newdiesel675_1_shape,0.0,,
136,0.0,2217.24,-10.325999999999999,,,,,0.0,0.0,,,,,monisource-isource_newdiesel675_1_shape,0.0,,
137,0.0,2217.24,-10.325999999999999,,,,,0.0,0.0,,,,,monisource-isource_newdiesel675_1_shape,0.0,,
138,0.0,2221.12,-8.190339999999999,,,,,0.0,0.0,,,,,monisource-isource_newdiesel675_1_shape,0.0,,
139,0.0,2266.29,-6.91418,,,,,0.0,0.0,,,,,monisource-isource_newdiesel675_1_shape,0.0,,
140,0.0,2256.4,-7.13939,,,,,0.0,0.0,,,,,monisource-isource_newdiesel675_1_shape,0.0,,
141,0.0,2256.4,-7.13939,,,,,0.0,0.0,,,,,monisource-isource_newdiesel675_1_shape,0.0,,
142,0.0,2256.4,-7.13939,,,,,0.0,0.0,,,,,monisource-isource_newdiesel675_1_shape,0.0,,
143,0.0,2256.4,-7.13939,,,,,0.0,0.0,,,,,monisource-isource_newdiesel675_1_shape,0.0,,
144,0.0,2256.4,-7.13939,,,,,0.0,0.0,,,,,monisource-isource_newdiesel675_1_shape,0.0,,
145,0.0,2256.4,-7.13939,,,,,0.0,0.0,,,,,monisource-isource_newdiesel675_1_shape,0.0,,
146,0.0,2256.4,-7.13939,,,,,0.0,0.0,,,,,monisource-isource_newdiesel675_1_shape,0.0,,
147,0.0,2256.4,-7.13939,,,,,0.0,0.0,,,,,monisource-isource_newdiesel675_1_shape,0.0,,
148,0.0,2256.4,-7.13939,,,,,0.0,0.0,,,,,monisource-isource_newdiesel675_1_shape,0.0,,
149,0.0,2256.4,-7.13939,,,,,0.0,0.0,,,,,monisource-isource_newdiesel675_1_shape,0.0,,
150,0.0,2256.4,-7.13939,,,,,0.0,0.0,,,,,monisource-isource_newdiesel675_1_shape,0.0,,
151,0.0,2256.4,-7.13939,,,,,0.0,0.0,,,,,monisource-isource_newdiesel675_1_shape,0.0,,
152,0.0,2304.78,-5.96822,,,,,0.0,0.0,,,,,monisource-isource_newdiesel675_1_shape,0.0,,
153,0.0,2304.78,-5.96822,,,,,0.0,0.0,,,,,monisource-isource_newdiesel675_1_shape,0.0,,
154,0.0,2284.14,-7.2367300000000006,,,,,0.0,0.0,,,,,monisource-isource_newdiesel675_1_shape,0.0,,
155,0.0,2275.53,-9.039069999999999,,,,,0.0,0.0,,,,,monisource-isource_newdiesel675_1_shape,0.0,,
156,0.0,2276.15,-9.401110000000001,,,,,0.0,0.0,,,,,monisource-isource_newdiesel675_1_shape,0.0,,
157,0.0,2276.15,-9.401110000000001,,,,,0.0,0.0,,,,,monisource-isource_newdiesel675_1_shape,0.0,,
158,0.0,2276.15,-9.401110000000001,,,,,0.0,0.0,,,,,monisource-isource_newdiesel675_1_shape,0.0,,
159,0.0,2276.15,-9.401110000000001,,,,,0.0,0.0,,,,,monisource-isource_newdiesel675_1_shape,0.0,,
160,0.0,2276.15,-9.401110000000001,,,,,0.0,0.0,,,,,monisource-isource_newdiesel675_1_shape,0.0,,
161,0.0,2276.15,-9.401110000000001,,,,,0.0,0.0,,,,,monisource-isource_newdiesel675_1_shape,0.0,,
162,0.0,2276.15,-9.401110000000001,,,,,0.0,0.0,,,,,monisource-isource_newdiesel675_1_shape,0.0,,
163,0.0,2276.15,-9.401110000000001,,,,,0.0,0.0,,,,,monisource-isource_newdiesel675_1_shape,0.0,,
164,0.0,2276.15,-9.401110000000001,,,,,0.0,0.0,,,,,monisource-isource_newdiesel675_1_shape,0.0,,
165,0.0,2276.15,-9.401110000000001,,,,,0.0,0.0,,,,,monisource-isource_newdiesel675_1_shape,0.0,,
166,0.0,2276.15,-9.401110000000001,,,,,0.0,0.0,,,,,monisource-isource_newdiesel675_1_shape,0.0,,
167,0.0,2276.15,-9.401110000000001,,,,,0.0,0.0,,,,,monisource-isource_newdiesel675_1_shape,0.0,,
168,0.0,2276.15,-9.401110000000001,,,,,0.0,0.0,,,,,monisource-isource_newdiesel675_1_shape,0.0,,
169,0.0,2276.15,-9.401110000000001,,,,,0.0,0.0,,,,,monisource-isource_newdiesel675_1_shape,0.0,,
170,0.0,2276.15,-9.401110000000001,,,,,0.0,0.0,,,,,monisource-isource_newdiesel675_1_shape,0.0,,
171,0.0,2276.15,-9.401110000000001,,,,,0.0,0.0,,,,,monisource-isource_newdiesel675_1_shape,0.0,,
172,0.0,2276.15,-9.401110000000001,,,,,0.0,0.0,,,,,monisource-isource_newdiesel675_1_shape,0.0,,
173,0.0,2276.15,-9.401110000000001,,,,,0.0,0.0,,,,,monisource-isource_newdiesel675_1_shape,0.0,,
174,0.0,2276.15,-9.401110000000001,,,,,0.0,0.0,,,,,monisource-isource_newdiesel675_1_shape,0.0,,
175,0.0,2276.15,-9.401110000000001,,,,,0.0,0.0,,,,,monisource-isource_newdiesel675_1_shape,0.0,,
176,0.0,2276.15,-9.401110000000001,,,,,0.0,0.0,,,,,monisource-isource_newdiesel675_1_shape,0.0,,
177,0.0,2337.82,-6.04355,,,,,0.0,0.0,,,,,monisource-isource_newdiesel675_1_shape,0.0,,
178,0.0,2318.09,-7.107480000000001,,,,,0.0,0.0,,,,,monisource-isource_newdiesel675_1_shape,0.0,,
179,0.0,2318.09,-7.107480000000001,,,,,0.0,0.0,,,,,monisource-isource_newdiesel675_1_shape,0.0,,
180,0.0,2318.09,-7.107480000000001,,,,,0.0,0.0,,,,,monisource-isource_newdiesel675_1_shape,0.0,,
181,0.0,2301.31,-7.0857600000000005,,,,,0.0,0.0,,,,,monisource-isource_newdiesel675_1_shape,0.0,,
182,0.0,2303.67,-7.249639999999999,,,,,0.0,0.0,,,,,monisource-isource_newdiesel675_1_shape,0.0,,
183,0.0,2303.67,-7.249639999999999,,,,,0.0,0.0,,,,,monisource-isource_newdiesel675_1_shape,0.0,,
184,0.0,2303.67,-7.249639999999999,,,,,0.0,0.0,,,,,monisource-isource_newdiesel675_1_shape,0.0,,
185,0.0,2303.67,-7.249639999999999,,,,,0.0,0.0,,,,,monisource-isource_newdiesel675_1_shape,0.0,,
186,0.0,2303.67,-7.249639999999999,,,,,0.0,0.0,,,,,monisource-isource_newdiesel675_1_shape,0.0,,
187,0.0,2303.67,-7.249639999999999,,,,,0.0,0.0,,,,,monisource-isource_newdiesel675_1_shape,0.0,,
188,0.0,2303.67,-7.249639999999999,,,,,0.0,0.0,,,,,monisource-isource_newdiesel675_1_shape,0.0,,
189,0.0,2303.67,-7.249639999999999,,,,,0.0,0.0,,,,,monisource-isource_newdiesel675_1_shape,0.0,,
190,0.0,2303.67,-7.249639999999999,,,,,0.0,0.0,,,,,monisource-isource_newdiesel675_1_shape,0.0,,
191,0.0,2303.67,-7.249639999999999,,,,,0.0,0.0,,,,,monisource-isource_newdiesel675_1_shape,0.0,,
192,0.0,2303.67,-7.249639999999999,,,,,0.0,0.0,,,,,monisource-isource_newdiesel675_1_shape,0.0,,
193,0.0,2303.67,-7.249639999999999,,,,,0.0,0.0,,,,,monisource-isource_newdiesel675_1_shape,0.0,,
194,0.0,2303.67,-7.249639999999999,,,,,0.0,0.0,,,,,monisource-isource_newdiesel675_1_shape,0.0,,
195,0.0,2303.67,-7.249639999999999,,,,,0.0,0.0,,,,,monisource-isource_newdiesel675_1_shape,0.0,,
196,0.0,2303.67,-7.249639999999999,,,,,0.0,0.0,,,,,monisource-isource_newdiesel675_1_shape,0.0,,
197,0.0,2303.67,-7.249639999999999,,,,,0.0,0.0,,,,,monisource-isource_newdiesel675_1_shape,0.0,,
198,0.0,2303.67,-7.249639999999999,,,,,0.0,0.0,,,,,monisource-isource_newdiesel675_1_shape,0.0,,
199,0.0,2261.34,-6.69061,,,,,0.0,0.0,,,,,monisource-isource_newdiesel675_1_shape,0.0,,
200,0.0,2242.75,-7.17421,,,,,0.0,0.0,,,,,monisource-isource_newdiesel675_1_shape,0.0,,
201,0.0,2213.62,-8.405510000000001,,,,,0.0,0.0,,,,,monisource-isource_newdiesel675_1_shape,0.0,,
