hour,t(sec),V1,VAngle1,V2,VAngle2,V3,VAngle3,I1,IAngle1,I2,IAngle2,I3,IAngle3,Name
1,0.0,2399.65,119.669,0.0,0.0,,,20.2518,119.669,20.2518,-60.3314,,,monload-611_hotel
2,0.0,2399.51,119.666,0.0,0.0,,,21.49,119.666,21.49,-60.3343,,,monload-611_hotel
3,0.0,2400.05,119.685,0.0,0.0,,,18.735,119.685,18.735,-60.3153,,,monload-611_hotel
4,0.0,2400.17,119.689,0.0,0.0,,,18.1696,119.689,18.1696,-60.3112,,,monload-611_hotel
5,0.0,2399.88,119.67399999999999,0.0,0.0,,,18.3433,119.67399999999999,18.3433,-60.326,,,monload-611_hotel
6,0.0,2399.23,119.646,0.0,0.0,,,19.8621,119.647,19.8621,-60.3534,,,monload-611_hotel
7,0.0,2396.59,119.541,0.0,0.0,,,29.8483,119.541,29.8483,-60.4591,,,monload-611_hotel
8,0.0,2396.47,119.546,0.0,0.0,,,31.8618,119.546,31.8618,-60.4541,,,monload-611_hotel
9,0.0,2394.19,119.46700000000001,0.0,0.0,,,44.0268,119.46700000000001,44.0268,-60.5332,,,monload-611_hotel
10,0.0,2395.76,119.529,0.0,0.0,,,37.8158,119.529,37.8158,-60.471000000000004,,,monload-611_hotel
11,0.0,2398.17,119.619,0.0,0.0,,,26.7204,119.619,26.7204,-60.3812,,,monload-611_hotel
12,0.0,2398.94,119.65899999999999,0.0,0.0,,,25.0426,119.65899999999999,25.0426,-60.3412,,,monload-611_hotel
13,0.0,2398.42,119.626,0.0,0.0,,,24.9564,119.626,24.9564,-60.3739,,,monload-611_hotel
14,0.0,2398.68,119.64200000000001,0.0,0.0,,,24.9959,119.64200000000001,24.9959,-60.3578,,,monload-611_hotel
15,0.0,2398.89,119.655,0.0,0.0,,,24.9268,119.655,24.9268,-60.3451,,,monload-611_hotel
16,0.0,2398.86,119.65299999999999,0.0,0.0,,,24.7866,119.654,24.7866,-60.3465,,,monload-611_hotel
17,0.0,2397.81,119.601,0.0,0.0,,,25.989,119.601,25.989,-60.3986,,,monload-611_hotel
18,0.0,2395.74,119.507,0.0,0.0,,,31.4301,119.508,31.4301,-60.4922,,,monload-611_hotel
19,0.0,2393.04,119.404,0.0,0.0,,,43.1551,119.404,43.1551,-60.596000000000004,,,monload-611_hotel
20,0.0,2392.73,119.39399999999999,0.0,0.0,,,45.3034,119.39399999999999,45.3034,-60.6059,,,monload-611_hotel
21,0.0,2392.39,119.385,0.0,0.0,,,47.8087,119.385,47.8087,-60.6147,,,monload-611_hotel
22,0.0,2393.1,119.416,0.0,0.0,,,46.4444,119.416,46.4444,-60.5837,,,monload-611_hotel
23,0.0,2395.84,119.521,0.0,0.0,,,35.6973,119.521,35.6973,-60.4788,,,monload-611_hotel
24,0.0,2398.71,119.62799999999999,0.0,0.0,,,22.9122,119.62799999999999,22.9122,-60.3721,,,monload-611_hotel
25,0.0,2399.72,119.66799999999999,0.0,0.0,,,18.6667,119.66799999999999,18.6667,-60.3321,,,monload-611_hotel
26,0.0,2399.89,119.67399999999999,0.0,0.0,,,17.8494,119.67399999999999,17.8494,-60.3263,,,monload-611_hotel
27,0.0,2400.06,119.679,0.0,0.0,,,16.9263,119.679,16.9263,-60.3208,,,monload-611_hotel
28,0.0,2400.03,119.678,0.0,0.0,,,17.0116,119.678,17.0116,-60.321999999999996,,,monload-611_hotel
29,0.0,2399.33,119.641,0.0,0.0,,,17.6802,119.641,17.6802,-60.3587,,,monload-611_hotel
30,0.0,2398.04,119.59200000000001,0.0,0.0,,,21.26,119.59200000000001,21.26,-60.4082,,,monload-611_hotel
31,0.0,2392.68,119.40799999999999,0.0,0.0,,,33.1809,119.40799999999999,33.1809,-60.5917,,,monload-611_hotel
32,0.0,2392.63,119.387,0.0,0.0,,,34.8528,119.387,34.8528,-60.6132,,,monload-611_hotel
33,0.0,2393.33,119.411,0.0,0.0,,,30.7756,119.41,30.7756,-60.5895,,,monload-611_hotel
34,0.0,2394.05,119.43,0.0,0.0,,,31.0977,119.43,31.0977,-60.5703,,,monload-611_hotel
35,0.0,2395.64,119.491,0.0,0.0,,,25.135,119.491,25.135,-60.50899999999999,,,monload-611_hotel
36,0.0,2394.79,119.445,0.0,0.0,,,26.0047,119.446,26.0047,-60.5544,,,monload-611_hotel
37,0.0,2395.82,119.51799999999999,0.0,0.0,,,26.4116,119.51799999999999,26.4116,-60.4823,,,monload-611_hotel
38,0.0,2395.44,119.479,0.0,0.0,,,25.3752,119.479,25.3752,-60.521,,,monload-611_hotel
39,0.0,2396.71,119.552,0.0,0.0,,,24.5082,119.552,24.5082,-60.4483,,,monload-611_hotel
40,0.0,2396.14,119.51799999999999,0.0,0.0,,,24.748,119.51799999999999,24.748,-60.4822,,,monload-611_hotel
41,0.0,2394.86,119.45200000000001,0.0,0.0,,,25.8685,119.45299999999999,25.8685,-60.5473,,,monload-611_hotel
42,0.0,2392.43,119.37,0.0,0.0,,,31.6633,119.37,31.6633,-60.6297,,,monload-611_hotel
43,0.0,2391.63,119.354,0.0,0.0,,,38.7986,119.354,38.7986,-60.6463,,,monload-611_hotel
44,0.0,2391.21,119.34,0.0,0.0,,,41.1781,119.34,41.1781,-60.6597,,,monload-611_hotel
45,0.0,2391.07,119.344,0.0,0.0,,,45.1231,119.344,45.1231,-60.6563,,,monload-611_hotel
46,0.0,2392.17,119.39200000000001,0.0,0.0,,,42.3023,119.39200000000001,42.3023,-60.6085,,,monload-611_hotel
47,0.0,2396.38,119.535,0.0,0.0,,,30.8497,119.53399999999999,30.8497,-60.4658,,,monload-611_hotel
48,0.0,2398.69,119.62100000000001,0.0,0.0,,,21.1497,119.62100000000001,21.1497,-60.3791,,,monload-611_hotel
49,0.0,2399.39,119.649,0.0,0.0,,,18.8942,119.649,18.8942,-60.3507,,,monload-611_hotel
50,0.0,2399.51,119.654,0.0,0.0,,,18.3946,119.654,18.3946,-60.3463,,,monload-611_hotel
51,0.0,2399.62,119.65700000000001,0.0,0.0,,,17.8874,119.65700000000001,17.8874,-60.3426,,,monload-611_hotel
52,0.0,2399.41,119.65100000000001,0.0,0.0,,,18.4384,119.65100000000001,18.4384,-60.3485,,,monload-611_hotel
53,0.0,2398.54,119.609,0.0,0.0,,,19.6598,119.609,19.6598,-60.3908,,,monload-611_hotel
54,0.0,2397.2,119.556,0.0,0.0,,,23.9779,119.556,23.9779,-60.4438,,,monload-611_hotel
55,0.0,2391.85,119.37299999999999,0.0,0.0,,,35.7182,119.374,35.7182,-60.6265,,,monload-611_hotel
56,0.0,2392.21,119.366,0.0,0.0,,,35.9782,119.365,35.9782,-60.6345,,,monload-611_hotel
57,0.0,2393.45,119.416,0.0,0.0,,,31.5574,119.416,31.5574,-60.583999999999996,,,monload-611_hotel
58,0.0,2394.53,119.46,0.0,0.0,,,31.2533,119.46,31.2533,-60.54,,,monload-611_hotel
59,0.0,2396.4,119.538,0.0,0.0,,,24.7817,119.538,24.7817,-60.4625,,,monload-611_hotel
60,0.0,2395.31,119.479,0.0,0.0,,,25.9092,119.479,25.9092,-60.5212,,,monload-611_hotel
61,0.0,2395.45,119.50299999999999,0.0,0.0,,,27.1001,119.50299999999999,27.1001,-60.4974,,,monload-611_hotel
62,0.0,2395.27,119.48700000000001,0.0,0.0,,,27.5835,119.48700000000001,27.5835,-60.5126,,,monload-611_hotel
63,0.0,2395.03,119.47200000000001,0.0,0.0,,,27.9419,119.47200000000001,27.9419,-60.5281,,,monload-611_hotel
64,0.0,2394.72,119.455,0.0,0.0,,,28.0794,119.456,28.0794,-60.5444,,,monload-611_hotel
65,0.0,2393.83,119.40899999999999,0.0,0.0,,,28.5183,119.40899999999999,28.5183,-60.5913,,,monload-611_hotel
66,0.0,2392.36,119.367,0.0,0.0,,,32.6003,119.367,32.6003,-60.6332,,,monload-611_hotel
67,0.0,2391.93,119.365,0.0,0.0,,,38.728,119.365,38.728,-60.6346,,,monload-611_hotel
68,0.0,2391.55,119.354,0.0,0.0,,,40.8709,119.354,40.8709,-60.6464,,,monload-611_hotel
69,0.0,2391.42,119.35700000000001,0.0,0.0,,,44.806000000000004,119.35700000000001,44.806000000000004,-60.6426,,,monload-611_hotel
70,0.0,2392.49,119.404,0.0,0.0,,,41.9513,119.404,41.9513,-60.5964,,,monload-611_hotel
71,0.0,2396.51,119.542,0.0,0.0,,,30.874000000000002,119.542,30.874000000000002,-60.4582,,,monload-611_hotel
72,0.0,2398.86,119.631,0.0,0.0,,,21.1947,119.631,21.1947,-60.3692,,,monload-611_hotel
73,0.0,2399.7,119.665,0.0,0.0,,,18.5785,119.665,18.5785,-60.3347,,,monload-611_hotel
74,0.0,2399.9,119.67299999999999,0.0,0.0,,,17.7129,119.67299999999999,17.7129,-60.3271,,,monload-611_hotel
75,0.0,2400.12,119.681,0.0,0.0,,,16.7422,119.681,16.7422,-60.3188,,,monload-611_hotel
76,0.0,2400.11,119.681,0.0,0.0,,,16.8093,119.681,16.8093,-60.3192,,,monload-611_hotel
77,0.0,2399.4,119.64399999999999,0.0,0.0,,,17.5128,119.64399999999999,17.5128,-60.3561,,,monload-611_hotel
78,0.0,2398.34,119.602,0.0,0.0,,,20.9229,119.602,20.9229,-60.3976,,,monload-611_hotel
79,0.0,2393.53,119.428,0.0,0.0,,,32.7171,119.429,32.7171,-60.5713,,,monload-611_hotel
80,0.0,2393.08,119.398,0.0,0.0,,,34.9942,119.398,34.9942,-60.6025,,,monload-611_hotel
81,0.0,2394.02,119.446,0.0,0.0,,,30.82,119.446,30.82,-60.5538,,,monload-611_hotel
82,0.0,2395.35,119.506,0.0,0.0,,,30.1071,119.506,30.1071,-60.4941,,,monload-611_hotel
83,0.0,2397.62,119.605,0.0,0.0,,,23.08,119.604,23.08,-60.3955,,,monload-611_hotel
84,0.0,2397.33,119.59200000000001,0.0,0.0,,,23.6213,119.59200000000001,23.6213,-60.4079,,,monload-611_hotel
85,0.0,2397.19,119.594,0.0,0.0,,,24.733,119.594,24.733,-60.4057,,,monload-611_hotel
86,0.0,2397.0,119.583,0.0,0.0,,,26.0612,119.583,26.0612,-60.4166,,,monload-611_hotel
87,0.0,2397.02,119.583,0.0,0.0,,,26.4039,119.583,26.4039,-60.4169,,,monload-611_hotel
88,0.0,2396.35,119.542,0.0,0.0,,,26.3335,119.542,26.3335,-60.458,,,monload-611_hotel
89,0.0,2394.75,119.45700000000001,0.0,0.0,,,27.5633,119.45700000000001,27.5633,-60.5427,,,monload-611_hotel
90,0.0,2391.99,119.355,0.0,0.0,,,33.8235,119.355,33.8235,-60.6449,,,monload-611_hotel
91,0.0,2391.09,119.331,0.0,0.0,,,41.4629,119.331,41.4629,-60.6686,,,monload-611_hotel
92,0.0,2390.61,119.316,0.0,0.0,,,44.545,119.316,44.545,-60.684,,,monload-611_hotel
93,0.0,2390.41,119.318,0.0,0.0,,,49.2734,119.318,49.2734,-60.6825,,,monload-611_hotel
94,0.0,2391.51,119.366,0.0,0.0,,,46.4184,119.366,46.4184,-60.6337,,,monload-611_hotel
95,0.0,2395.72,119.51299999999999,0.0,0.0,,,34.3923,119.512,34.3923,-60.4875,,,monload-611_hotel
96,0.0,2398.23,119.60700000000001,0.0,0.0,,,24.0131,119.60700000000001,24.0131,-60.3929,,,monload-611_hotel
97,0.0,2399.0,119.64,0.0,0.0,,,21.7964,119.64,21.7964,-60.3603,,,monload-611_hotel
98,0.0,2399.26,119.65,0.0,0.0,,,20.8093,119.65,20.8093,-60.3504,,,monload-611_hotel
99,0.0,2399.53,119.66,0.0,0.0,,,19.5335,119.66,19.5335,-60.3402,,,monload-611_hotel
100,0.0,2399.6,119.663,0.0,0.0,,,19.3539,119.663,19.3539,-60.3368,,,monload-611_hotel
101,0.0,2399.01,119.632,0.0,0.0,,,19.795,119.632,19.795,-60.3682,,,monload-611_hotel
102,0.0,2397.81,119.584,0.0,0.0,,,23.6849,119.584,23.6849,-60.4161,,,monload-611_hotel
103,0.0,2392.94,119.395,0.0,0.0,,,38.4226,119.395,38.4226,-60.6046,,,monload-611_hotel
104,0.0,2391.79,119.344,0.0,0.0,,,42.7031,119.344,42.7031,-60.6562,,,monload-611_hotel
105,0.0,2392.1,119.37299999999999,0.0,0.0,,,39.7651,119.37299999999999,39.7651,-60.6271,,,monload-611_hotel
106,0.0,2391.88,119.37,0.0,0.0,,,42.458999999999996,119.37,42.458999999999996,-60.6301,,,monload-611_hotel
107,0.0,2393.04,119.42200000000001,0.0,0.0,,,36.7749,119.421,36.7749,-60.5785,,,monload-611_hotel
108,0.0,2394.09,119.47399999999999,0.0,0.0,,,34.924,119.47399999999999,34.924,-60.5265,,,monload-611_hotel
109,0.0,2394.16,119.48700000000001,0.0,0.0,,,35.3309,119.48700000000001,35.3309,-60.5133,,,monload-611_hotel
110,0.0,2393.61,119.456,0.0,0.0,,,36.1511,119.456,36.1511,-60.5438,,,monload-611_hotel
111,0.0,2393.14,119.429,0.0,0.0,,,36.556999999999995,119.429,36.556999999999995,-60.5714,,,monload-611_hotel
112,0.0,2392.75,119.4,0.0,0.0,,,35.8436,119.4,35.8436,-60.6003,,,monload-611_hotel
113,0.0,2391.0,119.309,0.0,0.0,,,37.3236,119.31,37.3236,-60.6904,,,monload-611_hotel
114,0.0,2389.08,119.242,0.0,0.0,,,42.3539,119.242,42.3539,-60.7579,,,monload-611_hotel
115,0.0,2389.11,119.257,0.0,0.0,,,48.2942,119.257,48.2942,-60.7433,,,monload-611_hotel
116,0.0,2388.86,119.251,0.0,0.0,,,50.8826,119.251,50.8826,-60.7487,,,monload-611_hotel
117,0.0,2388.82,119.259,0.0,0.0,,,55.1034,119.258,55.1034,-60.7416,,,monload-611_hotel
118,0.0,2390.02,119.311,0.0,0.0,,,52.4571,119.311,52.4571,-60.6895,,,monload-611_hotel
119,0.0,2394.27,119.461,0.0,0.0,,,40.733000000000004,119.461,40.733000000000004,-60.5394,,,monload-611_hotel
120,0.0,2397.05,119.56700000000001,0.0,0.0,,,29.5798,119.56700000000001,29.5798,-60.4334,,,monload-611_hotel
121,0.0,2398.28,119.618,0.0,0.0,,,25.8806,119.618,25.8806,-60.3825,,,monload-611_hotel
122,0.0,2398.6,119.63,0.0,0.0,,,24.5759,119.63,24.5759,-60.3699,,,monload-611_hotel
123,0.0,2398.95,119.64299999999999,0.0,0.0,,,22.9971,119.64299999999999,22.9971,-60.3571,,,monload-611_hotel
124,0.0,2399.13,119.65,0.0,0.0,,,22.3842,119.65,22.3842,-60.3499,,,monload-611_hotel
125,0.0,2398.46,119.615,0.0,0.0,,,22.8134,119.615,22.8134,-60.3851,,,monload-611_hotel
126,0.0,2397.25,119.56700000000001,0.0,0.0,,,26.7316,119.56700000000001,26.7316,-60.4331,,,monload-611_hotel
127,0.0,2392.44,119.37799999999999,0.0,0.0,,,41.3038,119.37799999999999,41.3038,-60.622,,,monload-611_hotel
128,0.0,2391.15,119.319,0.0,0.0,,,45.5509,119.319,45.5509,-60.6805,,,monload-611_hotel
129,0.0,2390.15,119.291,0.0,0.0,,,44.0571,119.291,44.0571,-60.7094,,,monload-611_hotel
130,0.0,2390.64,119.315,0.0,0.0,,,44.3574,119.315,44.3574,-60.6852,,,monload-611_hotel
131,0.0,2391.99,119.37700000000001,0.0,0.0,,,38.3172,119.37700000000001,38.3172,-60.6231,,,monload-611_hotel
132,0.0,2391.2,119.339,0.0,0.0,,,39.0492,119.339,39.0492,-60.6607,,,monload-611_hotel
133,0.0,2391.18,119.34899999999999,0.0,0.0,,,39.7514,119.34899999999999,39.7514,-60.6507,,,monload-611_hotel
134,0.0,2390.89,119.333,0.0,0.0,,,40.3209,119.333,40.3209,-60.6668,,,monload-611_hotel
135,0.0,2391.12,119.34200000000001,0.0,0.0,,,40.0177,119.34200000000001,40.0177,-60.6581,,,monload-611_hotel
136,0.0,2391.0,119.325,0.0,0.0,,,38.751,119.325,38.751,-60.6749,,,monload-611_hotel
137,0.0,2390.4,119.28299999999999,0.0,0.0,,,37.858000000000004,119.28299999999999,37.858000000000004,-60.7167,,,monload-611_hotel
138,0.0,2388.66,119.225,0.0,0.0,,,42.9001,119.226,42.9001,-60.7744,,,monload-611_hotel
139,0.0,2388.15,119.214,0.0,0.0,,,49.9773,119.214,49.9773,-60.7857,,,monload-611_hotel
140,0.0,2387.88,119.208,0.0,0.0,,,52.678000000000004,119.208,52.678000000000004,-60.7923,,,monload-611_hotel
141,0.0,2387.72,119.21,0.0,0.0,,,57.1881,119.21,57.1881,-60.7903,,,monload-611_hotel
142,0.0,2390.23,119.315,0.0,0.0,,,51.6617,119.315,51.6617,-60.6849,,,monload-611_hotel
143,0.0,2395.37,119.505,0.0,0.0,,,37.0848,119.505,37.0848,-60.4951,,,monload-611_hotel
144,0.0,2398.21,119.61200000000001,0.0,0.0,,,25.3175,119.61200000000001,25.3175,-60.3879,,,monload-611_hotel
145,0.0,2399.04,119.646,0.0,0.0,,,23.1146,119.645,23.1146,-60.3545,,,monload-611_hotel
146,0.0,2399.15,119.65,0.0,0.0,,,22.7156,119.65,22.7156,-60.3501,,,monload-611_hotel
147,0.0,2399.79,119.67299999999999,0.0,0.0,,,19.4987,119.67299999999999,19.4987,-60.3273,,,monload-611_hotel
148,0.0,2399.87,119.676,0.0,0.0,,,19.1538,119.676,19.1538,-60.3243,,,monload-611_hotel
149,0.0,2399.56,119.66,0.0,0.0,,,19.44,119.66,19.44,-60.3396,,,monload-611_hotel
150,0.0,2398.95,119.634,0.0,0.0,,,20.7921,119.634,20.7921,-60.3662,,,monload-611_hotel
151,0.0,2395.5,119.514,0.0,0.0,,,30.6613,119.515,30.6613,-60.4855,,,monload-611_hotel
152,0.0,2395.08,119.495,0.0,0.0,,,32.5578,119.495,32.5578,-60.5051,,,monload-611_hotel
153,0.0,2393.02,119.447,0.0,0.0,,,45.5458,119.447,45.5458,-60.5529,,,monload-611_hotel
154,0.0,2393.9,119.46600000000001,0.0,0.0,,,40.6198,119.46600000000001,40.6198,-60.5343,,,monload-611_hotel
155,0.0,2396.53,119.585,0.0,0.0,,,31.8176,119.584,31.8176,-60.4156,,,monload-611_hotel
156,0.0,2396.86,119.60700000000001,0.0,0.0,,,31.3428,119.60600000000001,31.3428,-60.3935,,,monload-611_hotel
157,0.0,2396.11,119.575,0.0,0.0,,,32.0281,119.575,32.0281,-60.4247,,,monload-611_hotel
158,0.0,2396.62,119.601,0.0,0.0,,,31.7662,119.601,31.7662,-60.3992,,,monload-611_hotel
159,0.0,2396.46,119.575,0.0,0.0,,,32.0361,119.575,32.0361,-60.4251,,,monload-611_hotel
160,0.0,2395.58,119.529,0.0,0.0,,,33.0122,119.529,33.0122,-60.4712,,,monload-611_hotel
161,0.0,2394.61,119.48200000000001,0.0,0.0,,,33.2851,119.48200000000001,33.2851,-60.518,,,monload-611_hotel
162,0.0,2393.36,119.421,0.0,0.0,,,36.5459,119.421,36.5459,-60.57899999999999,,,monload-611_hotel
163,0.0,2391.5,119.337,0.0,0.0,,,47.5561,119.337,47.5561,-60.6631,,,monload-611_hotel
164,0.0,2391.33,119.333,0.0,0.0,,,49.2997,119.333,49.2997,-60.6669,,,monload-611_hotel
165,0.0,2391.27,119.34100000000001,0.0,0.0,,,51.8892,119.34100000000001,51.8892,-60.6593,,,monload-611_hotel
166,0.0,2391.94,119.37100000000001,0.0,0.0,,,51.0972,119.37100000000001,51.0972,-60.629,,,monload-611_hotel
167,0.0,2394.71,119.48,0.0,0.0,,,40.8171,119.48,40.8171,-60.5202,,,monload-611_hotel
168,0.0,2397.75,119.595,0.0,0.0,,,27.8677,119.595,27.8677,-60.4053,,,monload-611_hotel
169,0.0,2399.01,119.646,0.0,0.0,,,23.6005,119.646,23.6005,-60.3542,,,monload-611_hotel
170,0.0,2399.18,119.65299999999999,0.0,0.0,,,23.0303,119.65299999999999,23.0303,-60.347,,,monload-611_hotel
171,0.0,2399.84,119.677,0.0,0.0,,,19.8099,119.677,19.8099,-60.3234,,,monload-611_hotel
172,0.0,2399.88,119.678,0.0,0.0,,,19.6465,119.678,19.6465,-60.3217,,,monload-611_hotel
173,0.0,2399.51,119.661,0.0,0.0,,,20.1694,119.661,20.1694,-60.3391,,,monload-611_hotel
174,0.0,2398.88,119.633,0.0,0.0,,,21.5583,119.633,21.5583,-60.3665,,,monload-611_hotel
175,0.0,2396.28,119.529,0.0,0.0,,,31.2002,119.529,31.2002,-60.4709,,,monload-611_hotel
176,0.0,2396.1,119.53200000000001,0.0,0.0,,,33.3904,119.53200000000001,33.3904,-60.4684,,,monload-611_hotel
177,0.0,2392.88,119.43,0.0,0.0,,,49.5935,119.43,49.5935,-60.57,,,monload-611_hotel
178,0.0,2393.11,119.45200000000001,0.0,0.0,,,48.4258,119.45200000000001,48.4258,-60.5478,,,monload-611_hotel
179,0.0,2393.33,119.43,0.0,0.0,,,39.6712,119.43,39.6712,-60.5695,,,monload-611_hotel
180,0.0,2393.66,119.441,0.0,0.0,,,38.1499,119.441,38.1499,-60.5587,,,monload-611_hotel
181,0.0,2393.96,119.46799999999999,0.0,0.0,,,38.4204,119.46799999999999,38.4204,-60.5324,,,monload-611_hotel
182,0.0,2393.67,119.45700000000001,0.0,0.0,,,39.8211,119.45700000000001,39.8211,-60.5427,,,monload-611_hotel
183,0.0,2392.74,119.416,0.0,0.0,,,41.1387,119.416,41.1387,-60.5843,,,monload-611_hotel
184,0.0,2392.58,119.397,0.0,0.0,,,40.2542,119.397,40.2542,-60.6026,,,monload-611_hotel
185,0.0,2392.21,119.376,0.0,0.0,,,39.4232,119.376,39.4232,-60.623999999999995,,,monload-611_hotel
186,0.0,2391.76,119.34899999999999,0.0,0.0,,,41.61,119.34899999999999,41.61,-60.651,,,monload-611_hotel
187,0.0,2390.49,119.29899999999999,0.0,0.0,,,50.661,119.29899999999999,50.661,-60.7013,,,monload-611_hotel
188,0.0,2391.0,119.325,0.0,0.0,,,50.93600000000001,119.325,50.93600000000001,-60.6754,,,monload-611_hotel
189,0.0,2391.16,119.337,0.0,0.0,,,52.3523,119.337,52.3523,-60.6632,,,monload-611_hotel
190,0.0,2392.1,119.37799999999999,0.0,0.0,,,50.5692,119.37799999999999,50.5692,-60.6221,,,monload-611_hotel
191,0.0,2395.03,119.493,0.0,0.0,,,39.6945,119.493,39.6945,-60.5074,,,monload-611_hotel
192,0.0,2398.1,119.609,0.0,0.0,,,26.4536,119.60799999999999,26.4536,-60.3918,,,monload-611_hotel
193,0.0,2399.39,119.65899999999999,0.0,0.0,,,21.0984,119.65899999999999,21.0984,-60.3409,,,monload-611_hotel
194,0.0,2399.83,119.675,0.0,0.0,,,19.0118,119.675,19.0118,-60.3255,,,monload-611_hotel
195,0.0,2400.18,119.686,0.0,0.0,,,17.1605,119.686,17.1605,-60.3136,,,monload-611_hotel
196,0.0,2400.23,119.68700000000001,0.0,0.0,,,16.8089,119.68700000000001,16.8089,-60.3129,,,monload-611_hotel
197,0.0,2399.57,119.652,0.0,0.0,,,17.2796,119.652,17.2796,-60.3475,,,monload-611_hotel
198,0.0,2398.5,119.61,0.0,0.0,,,20.6862,119.61,20.6862,-60.3903,,,monload-611_hotel
199,0.0,2398.5,119.61,0.0,0.0,,,33.257,119.61,33.257,-60.3905,,,monload-611_hotel
200,0.0,2398.5,119.61,0.0,0.0,,,36.3559,119.61,36.3559,-60.3905,,,monload-611_hotel
201,0.0,2398.5,119.61,0.0,0.0,,,33.1764,119.61,33.1764,-60.3905,,,monload-611_hotel
202,0.0,2398.5,119.61,0.0,0.0,,,35.1894,119.61,35.1894,-60.3905,,,monload-611_hotel
203,0.0,2398.5,119.61,0.0,0.0,,,30.9635,119.61,30.9635,-60.3905,,,monload-611_hotel
204,0.0,2398.5,119.61,0.0,0.0,,,34.0175,119.61,34.0175,-60.3905,,,monload-611_hotel
205,0.0,2398.5,119.61,0.0,0.0,,,36.5232,119.61,36.5232,-60.3905,,,monload-611_hotel
206,0.0,2398.5,119.61,0.0,0.0,,,37.968,119.61,37.968,-60.3905,,,monload-611_hotel
207,0.0,2398.5,119.61,0.0,0.0,,,38.9807,119.61,38.9807,-60.3905,,,monload-611_hotel
208,0.0,2398.5,119.61,0.0,0.0,,,36.5803,119.61,36.5803,-60.3905,,,monload-611_hotel
209,0.0,2398.5,119.61,0.0,0.0,,,36.2227,119.61,36.2227,-60.3905,,,monload-611_hotel
210,0.0,2398.5,119.61,0.0,0.0,,,40.7986,119.61,40.7986,-60.3905,,,monload-611_hotel
211,0.0,2398.5,119.61,0.0,0.0,,,46.536,119.61,46.536,-60.3905,,,monload-611_hotel
212,0.0,2398.5,119.61,0.0,0.0,,,48.3977,119.61,48.3977,-60.3905,,,monload-611_hotel
213,0.0,2398.5,119.61,0.0,0.0,,,52.3358,119.61,52.3358,-60.3905,,,monload-611_hotel
214,0.0,2398.5,119.61,0.0,0.0,,,49.8536,119.61,49.8536,-60.3905,,,monload-611_hotel
