hour,t(sec),P1(kW),Q1(kvar),P2(kW),Q2(kvar),P3(kW),Q3(kvar),P4(kW),Q4(kvar),Name
1,0.0,-0.924875,-0.00104616,-0.925823,-0.00207438,-0.932522,0.00311913,,,mongenerator-diesel_634
2,0.0,-0.925293,-0.00115479,-0.9256270000000001,-0.00212599,-0.932125,0.00327473,,,mongenerator-diesel_634
3,0.0,-0.9256200000000001,-0.00132749,-0.9253120000000001,-0.00168235,-0.9336120000000001,0.00298824,,,mongenerator-diesel_634
4,0.0,-0.9256989999999999,-0.00137603,-0.925211,-0.00157335,-0.933933,0.00294478,,,mongenerator-diesel_634
5,0.0,-0.9230450000000001,-0.00112885,-0.923266,-0.00151744,-0.9320350000000001,0.00272215,,,mongenerator-diesel_634
6,0.0,-0.925426,-0.00047547,-0.928523,-0.00133371,-0.9384309999999999,0.00168699,,,mongenerator-diesel_634
7,0.0,-0.940162,0.00135598,-0.949058,0.00022129799999999998,-0.9662149999999999,-0.00161159,,,mongenerator-diesel_634
8,0.0,-0.959349,0.00414959,-0.969931,-0.00017251200000000002,-0.985917,-0.00390047,,,mongenerator-diesel_634
9,0.0,-0.95778,0.00490204,-0.978865,0.00136735,-0.994993,-0.00623961,,,mongenerator-diesel_634
10,0.0,-0.9510559999999999,0.00385837,-0.969025,0.0008921160000000001,-0.982706,-0.00476921,,,mongenerator-diesel_634
11,0.0,-0.96185,0.00360953,-0.9773860000000001,0.00439784,-1.00499,-0.00795187,,,mongenerator-diesel_634
12,0.0,-0.9548690000000001,0.00323028,-0.968901,0.00442551,-0.996275,-0.00767136,,,mongenerator-diesel_634
13,0.0,-0.9585229999999999,0.00346921,-0.9726450000000001,0.00540427,-1.00401,-0.00885303,,,mongenerator-diesel_634
14,0.0,-0.95893,0.00343615,-0.9728870000000001,0.00542233,-1.00429,-0.00880507,,,mongenerator-diesel_634
15,0.0,-0.9540350000000001,0.00312059,-0.967316,0.00478033,-0.995994,-0.00791668,,,mongenerator-diesel_634
16,0.0,-0.9480879999999999,0.00298689,-0.961097,0.00418632,-0.987086,-0.00704517,,,mongenerator-diesel_634
17,0.0,-0.932415,0.00327334,-0.9470719999999999,0.00265607,-0.966514,-0.00573813,,,mongenerator-diesel_634
18,0.0,-0.9027729999999999,0.00345185,-0.9204200000000001,-0.00138288,-0.9217040000000001,-0.00206954,,,mongenerator-diesel_634
19,0.0,-0.886017,0.00242828,-0.9061459999999999,-0.0027188000000000004,-0.9021549999999999,0.000278807,,,mongenerator-diesel_634
20,0.0,-0.887581,0.0024269,-0.907932,-0.00324326,-0.902005,0.0007580210000000001,,,mongenerator-diesel_634
21,0.0,-0.8894340000000001,0.00254635,-0.910341,-0.0038606,-0.9020889999999999,0.00123027,,,mongenerator-diesel_634
22,0.0,-0.895126,0.00202883,-0.914223,-0.00388818,-0.906141,0.00184615,,,mongenerator-diesel_634
23,0.0,-0.906186,0.000853112,-0.9224690000000001,-0.00306875,-0.918298,0.00218873,,,mongenerator-diesel_634
24,0.0,-0.909126,-0.000455871,-0.9204969999999999,-0.00048516,-0.926638,0.000922164,,,mongenerator-diesel_634
25,0.0,-0.9134770000000001,-0.0009583619999999999,-0.9233370000000001,-0.000140545,-0.9307469999999999,0.0010880999999999998,,,mongenerator-diesel_634
26,0.0,-0.9143120000000001,-0.00101329,-0.924277,-0.00018795700000000002,-0.931594,0.00114558,,,mongenerator-diesel_634
27,0.0,-0.9145260000000001,-0.00102232,-0.92453,-9.567649999999999e-05,-0.9321780000000001,0.00109197,,,mongenerator-diesel_634
28,0.0,-0.914515,-0.00100344,-0.924658,-0.000126953,-0.932143,0.0011340999999999999,,,mongenerator-diesel_634
29,0.0,-0.909559,-0.000711125,-0.9206840000000001,-0.000205735,-0.9277040000000001,0.000931058,,,mongenerator-diesel_634
30,0.0,-0.9109870000000001,6.27748e-05,-0.925104,-0.00033488,-0.931074,9.77544e-05,,,mongenerator-diesel_634
31,0.0,-0.9204889999999999,0.00182544,-0.936409,0.0013631,-0.939097,-0.00321275,,,mongenerator-diesel_634
32,0.0,-0.9367209999999999,0.00201059,-0.9548,0.00314836,-0.9673700000000001,-0.0052503,,,mongenerator-diesel_634
33,0.0,-0.941276,0.00141706,-0.9563729999999999,0.00676818,-0.980145,-0.00818625,,,mongenerator-diesel_634
34,0.0,-0.926731,-4.14856e-06,-0.938533,0.00670796,-0.963095,-0.00664374,,,mongenerator-diesel_634
35,0.0,-0.9405379999999999,0.00159919,-0.95149,0.00706496,-0.9759620000000001,-0.00867855,,,mongenerator-diesel_634
36,0.0,-0.9311889999999999,0.00137197,-0.9411139999999999,0.00685521,-0.964528,-0.00823868,,,mongenerator-diesel_634
37,0.0,-0.939458,0.00188855,-0.950239,0.00700912,-0.9744299999999999,-0.00888339,,,mongenerator-diesel_634
38,0.0,-0.9390290000000001,0.00147167,-0.949213,0.00735018,-0.974808,-0.00882543,,,mongenerator-diesel_634
39,0.0,-0.934042,0.00109521,-0.943334,0.00690996,-0.9672870000000001,-0.0079224,,,mongenerator-diesel_634
40,0.0,-0.927492,0.00097045,-0.936766,0.00620087,-0.9580690000000001,-0.00709988,,,mongenerator-diesel_634
41,0.0,-0.9106049999999999,0.00128907,-0.9214530000000001,0.00457527,-0.9357690000000001,-0.00575551,,,mongenerator-diesel_634
42,0.0,-0.884493,0.00123306,-0.896957,0.00159739,-0.902217,-0.00283938,,,mongenerator-diesel_634
43,0.0,-0.8752,0.00212342,-0.890601,-0.00124903,-0.8853690000000001,-0.000826305,,,mongenerator-diesel_634
44,0.0,-0.8764200000000001,0.00214732,-0.8921899999999999,-0.00182615,-0.884669,-0.000375787,,,mongenerator-diesel_634
45,0.0,-0.882025,0.00246795,-0.8995690000000001,-0.00297068,-0.888275,0.00048630000000000006,,,mongenerator-diesel_634
46,0.0,-0.89239,0.00192671,-0.909015,-0.0035702,-0.8957299999999999,0.00162024,,,mongenerator-diesel_634
47,0.0,-0.905184,0.000702435,-0.9213110000000001,-0.00255105,-0.918615,0.00180974,,,mongenerator-diesel_634
48,0.0,-0.907533,-0.000413028,-0.9193469999999999,-0.000403816,-0.9254319999999999,0.000804323,,,mongenerator-diesel_634
49,0.0,-0.911919,-0.000906023,-0.922832,-0.000498442,-0.929106,0.00110018,,,mongenerator-diesel_634
50,0.0,-0.912632,-0.0008175289999999999,-0.9236709999999999,-0.000471277,-0.9298040000000001,0.00123768,,,mongenerator-diesel_634
51,0.0,-0.912631,-0.00081999,-0.923737,-0.00037714300000000003,-0.930148,0.00118616,,,mongenerator-diesel_634
52,0.0,-0.912457,-0.000740168,-0.923602,-0.00047098699999999997,-0.9291450000000001,0.00124419,,,mongenerator-diesel_634
53,0.0,-0.906085,-0.000468825,-0.9178879999999999,-0.000378905,-0.923326,0.000864642,,,mongenerator-diesel_634
54,0.0,-0.90745,0.000397685,-0.92266,-0.000678511,-0.927149,7.58612e-05,,,mongenerator-diesel_634
55,0.0,-0.916853,0.00220356,-0.933999,0.00106591,-0.9354459999999999,-0.00328965,,,mongenerator-diesel_634
56,0.0,-0.9343790000000001,0.00225399,-0.9535,0.00295274,-0.965831,-0.00529338,,,mongenerator-diesel_634
57,0.0,-0.940515,0.00150916,-0.9563969999999999,0.0065378,-0.9802280000000001,-0.00804514,,,mongenerator-diesel_634
58,0.0,-0.926408,7.12783e-05,-0.938736,0.00652553,-0.962829,-0.00654505,,,mongenerator-diesel_634
59,0.0,-0.9405459999999999,0.00170032,-0.9520379999999999,0.00693348,-0.976092,-0.00864535,,,mongenerator-diesel_634
60,0.0,-0.931552,0.00154718,-0.94229,0.00667016,-0.9650040000000001,-0.00822849,,,mongenerator-diesel_634
61,0.0,-0.93922,0.00225122,-0.951476,0.00665156,-0.9741110000000001,-0.0088896,,,mongenerator-diesel_634
62,0.0,-0.9372879999999999,0.00210815,-0.9500059999999999,0.00670479,-0.9728620000000001,-0.00879755,,,mongenerator-diesel_634
63,0.0,-0.931262,0.00192558,-0.9439209999999999,0.00603257,-0.9644229999999999,-0.00786435,,,mongenerator-diesel_634
64,0.0,-0.9241290000000001,0.00189169,-0.9370350000000001,0.00530254,-0.9545899999999999,-0.00712691,,,mongenerator-diesel_634
65,0.0,-0.908091,0.00201485,-0.921874,0.00383721,-0.9331229999999999,-0.00574883,,,mongenerator-diesel_634
66,0.0,-0.8854620000000001,0.00141482,-0.899022,0.00121916,-0.903281,-0.00264268,,,mongenerator-diesel_634
67,0.0,-0.877294,0.00212498,-0.893209,-0.00142299,-0.8880020000000001,-0.000661708,,,mongenerator-diesel_634
68,0.0,-0.8789620000000001,0.00214055,-0.895316,-0.00205794,-0.88754,-0.000157469,,,mongenerator-diesel_634
69,0.0,-0.884302,0.00245068,-0.9022959999999999,-0.00312445,-0.8910600000000001,0.000659057,,,mongenerator-diesel_634
70,0.0,-0.894292,0.00190585,-0.911314,-0.00368863,-0.8981690000000001,0.0017620000000000001,,,mongenerator-diesel_634
71,0.0,-0.906824,0.000687818,-0.923047,-0.0026861,-0.919882,0.00196254,,,mongenerator-diesel_634
72,0.0,-0.9095770000000001,-0.000485162,-0.9211799999999999,-0.0005180440000000001,-0.9269129999999999,0.000990014,,,mongenerator-diesel_634
73,0.0,-0.9144979999999999,-0.00105154,-0.9249149999999999,-0.000546233,-0.93116,0.00125536,,,mongenerator-diesel_634
74,0.0,-0.9154329999999999,-0.00101816,-0.9257200000000001,-0.000444522,-0.932109,0.00139782,,,mongenerator-diesel_634
75,0.0,-0.9157549999999999,-0.00110091,-0.9256850000000001,-0.000254118,-0.932786,0.0013218,,,mongenerator-diesel_634
76,0.0,-0.915687,-0.00109324,-0.925567,-0.00023534,-0.9327110000000001,0.00133429,,,mongenerator-diesel_634
77,0.0,-0.9105639999999999,-0.0008219810000000001,-0.921344,-0.000275705,-0.928163,0.00111136,,,mongenerator-diesel_634
78,0.0,-0.912658,-0.000105221,-0.9263959999999999,-0.000394824,-0.933026,0.000235776,,,mongenerator-diesel_634
79,0.0,-0.9219809999999999,0.00156853,-0.9383540000000001,0.00143861,-0.944952,-0.00302859,,,mongenerator-diesel_634
80,0.0,-0.937944,0.00178606,-0.955952,0.00313423,-0.9705540000000001,-0.005000500000000001,,,mongenerator-diesel_634
81,0.0,-0.9418780000000001,0.00124839,-0.9566399999999999,0.00680237,-0.9813569999999999,-0.00805107,,,mongenerator-diesel_634
82,0.0,-0.926953,-0.000147909,-0.938155,0.00692679,-0.963542,-0.00672158,,,mongenerator-diesel_634
83,0.0,-0.9408639999999999,0.00143116,-0.951084,0.00744906,-0.9770260000000001,-0.00889556,,,mongenerator-diesel_634
84,0.0,-0.932208,0.00109299,-0.940981,0.00734364,-0.9664780000000001,-0.00844713,,,mongenerator-diesel_634
85,0.0,-0.9399790000000001,0.00162219,-0.949664,0.00748235,-0.97598,-0.00908687,,,mongenerator-diesel_634
86,0.0,-0.9379879999999999,0.00141793,-0.947729,0.00752841,-0.9739639999999999,-0.00892258,,,mongenerator-diesel_634
87,0.0,-0.9318870000000001,0.00114069,-0.9410780000000001,0.006935800000000001,-0.965068,-0.00797836,,,mongenerator-diesel_634
88,0.0,-0.924952,0.00101313,-0.934011,0.00628056,-0.955405,-0.00722041,,,mongenerator-diesel_634
89,0.0,-0.9077209999999999,0.00134253,-0.918344,0.00465452,-0.9327290000000001,-0.00588131,,,mongenerator-diesel_634
90,0.0,-0.8814639999999999,0.00127074,-0.8936299999999999,0.00164048,-0.8989659999999999,-0.00292134,,,mongenerator-diesel_634
91,0.0,-0.872609,0.00217513,-0.887807,-0.00127232,-0.8828229999999999,-0.000851906,,,mongenerator-diesel_634
92,0.0,-0.8737459999999999,0.00220148,-0.889224,-0.00186753,-0.882057,-0.00039078199999999995,,,mongenerator-diesel_634
93,0.0,-0.879265,0.00252805,-0.8963959999999999,-0.00303357,-0.88566,0.000486369,,,mongenerator-diesel_634
94,0.0,-0.890344,0.0019599,-0.9064260000000001,-0.00371962,-0.8932680000000001,0.00173164,,,mongenerator-diesel_634
95,0.0,-0.90381,0.000651035,-0.918746,-0.00265083,-0.915681,0.00195495,,,mongenerator-diesel_634
96,0.0,-0.907017,-0.000590265,-0.9171969999999999,-0.000413534,-0.923323,0.0009876589999999999,,,mongenerator-diesel_634
97,0.0,-0.911483,-0.00117564,-0.9202459999999999,-0.00036607699999999997,-0.927135,0.00120266,,,mongenerator-diesel_634
98,0.0,-0.9128360000000001,-0.00118453,-0.9213969999999999,-0.000289708,-0.9284030000000001,0.00137295,,,mongenerator-diesel_634
99,0.0,-0.9132399999999999,-0.00125605,-0.921477,-6.882930000000001e-05,-0.929291,0.00127953,,,mongenerator-diesel_634
100,0.0,-0.9135690000000001,-0.0012849,-0.9216979999999999,-3.21145e-05,-0.9296610000000001,0.00128695,,,mongenerator-diesel_634
101,0.0,-0.90909,-0.0009002939999999999,-0.917927,8.12963e-05,-0.925742,0.00120131,,,mongenerator-diesel_634
102,0.0,-0.9106790000000001,-0.000275135,-0.9226479999999999,-0.00023140400000000002,-0.9299379999999999,0.000253854,,,mongenerator-diesel_634
103,0.0,-0.9187290000000001,0.00147049,-0.9352280000000001,0.00124603,-0.944127,-0.00273855,,,mongenerator-diesel_634
104,0.0,-0.933422,0.0017932000000000002,-0.9513530000000001,0.00279984,-0.966269,-0.00466103,,,mongenerator-diesel_634
105,0.0,-0.935341,0.00155809,-0.950765,0.00624605,-0.9737610000000001,-0.00785781,,,mongenerator-diesel_634
106,0.0,-0.913049,0.00132868,-0.928738,0.00568053,-0.9487389999999999,-0.00696997,,,mongenerator-diesel_634
107,0.0,-0.921528,0.00217411,-0.939675,0.00747953,-0.9669760000000001,-0.00973264,,,mongenerator-diesel_634
108,0.0,-0.9173,0.00145168,-0.932792,0.00755544,-0.9601209999999999,-0.00898514,,,mongenerator-diesel_634
109,0.0,-0.924517,0.00211684,-0.941422,0.00771803,-0.969925,-0.00988395,,,mongenerator-diesel_634
110,0.0,-0.921069,0.00216077,-0.938781,0.00783657,-0.9670340000000001,-0.00998504,,,mongenerator-diesel_634
111,0.0,-0.91471,0.00206152,-0.932594,0.00708097,-0.9579129999999999,-0.00911945,,,mongenerator-diesel_634
112,0.0,-0.9090879999999999,0.00182813,-0.9265040000000001,0.00646969,-0.9493309999999999,-0.0082829,,,mongenerator-diesel_634
113,0.0,-0.8912690000000001,0.00236367,-0.91105,0.00478118,-0.92615,-0.00709627,,,mongenerator-diesel_634
114,0.0,-0.8778219999999999,0.00326246,-0.888817,-0.001243,-0.887431,-0.00204569,,,mongenerator-diesel_634
115,0.0,-0.873909,0.00351676,-0.8856229999999999,-0.00385748,-0.8757389999999999,0.00037913,,,mongenerator-diesel_634
116,0.0,-0.876426,0.00340046,-0.887589,-0.0043565,-0.8759530000000001,0.00094656,,,mongenerator-diesel_634
117,0.0,-0.8824280000000001,0.00359715,-0.894904,-0.00544568,-0.880282,0.00182138,,,mongenerator-diesel_634
118,0.0,-0.894847,0.00299716,-0.9062600000000001,-0.00630897,-0.8890969999999999,0.00327027,,,mongenerator-diesel_634
119,0.0,-0.9099389999999999,0.00155574,-0.919592,-0.00535994,-0.9120219999999999,0.00373651,,,mongenerator-diesel_634
120,0.0,-0.9145,9.11457e-05,-0.9186790000000001,-0.0029831999999999997,-0.9209299999999999,0.00286273,,,mongenerator-diesel_634
121,0.0,-0.9206200000000001,-0.0006848669999999999,-0.922177,-0.00254699,-0.9264760000000001,0.00320802,,,mongenerator-diesel_634
122,0.0,-0.9220139999999999,-0.000848485,-0.9232600000000001,-0.00250798,-0.927924,0.00322414,,,mongenerator-diesel_634
123,0.0,-0.9226489999999999,-0.000955074,-0.9234680000000001,-0.00225445,-0.9290879999999999,0.00313088,,,mongenerator-diesel_634
124,0.0,-0.9233020000000001,-0.00108209,-0.923658,-0.00213651,-0.9297620000000001,0.00315626,,,mongenerator-diesel_634
125,0.0,-0.9168930000000001,-0.000855106,-0.9175629999999999,-0.00180438,-0.924629,0.00268463,,,mongenerator-diesel_634
126,0.0,-0.9184629999999999,-5.46651e-05,-0.9224479999999999,-0.00205786,-0.928905,0.00181495,,,mongenerator-diesel_634
127,0.0,-0.925774,0.0017879,-0.934695,-0.0005215269999999999,-0.9435110000000001,-0.0012993,,,mongenerator-diesel_634
128,0.0,-0.939825,0.00234413,-0.951059,0.000846027,-0.965417,-0.00326488,,,mongenerator-diesel_634
129,0.0,-0.9363790000000001,0.00311246,-0.9487479999999999,0.00372732,-0.968201,-0.00686347,,,mongenerator-diesel_634
130,0.0,-0.9168879999999999,0.00236255,-0.927758,0.00360968,-0.9456760000000001,-0.0059187,,,mongenerator-diesel_634
131,0.0,-0.9256700000000001,0.00317672,-0.9389049999999999,0.00547561,-0.9644870000000001,-0.00873525,,,mongenerator-diesel_634
132,0.0,-0.915167,0.00337602,-0.929092,0.00502992,-0.95196,-0.00837751,,,mongenerator-diesel_634
133,0.0,-0.920882,0.00408357,-0.9363459999999999,0.00532004,-0.960865,-0.00943838,,,mongenerator-diesel_634
134,0.0,-0.9181090000000001,0.00397139,-0.9338879999999999,0.00547166,-0.958133,-0.0094312,,,mongenerator-diesel_634
135,0.0,-0.913691,0.00359629,-0.9287290000000001,0.00479386,-0.9503889999999999,-0.008374600000000001,,,mongenerator-diesel_634
136,0.0,-0.9093450000000001,0.0031746,-0.92324,0.00428725,-0.942765,-0.00744295,,,mongenerator-diesel_634
137,0.0,-0.89718,0.00277681,-0.910093,0.00305955,-0.924207,-0.00578612,,,mongenerator-diesel_634
138,0.0,-0.875393,0.0037284999999999996,-0.8877079999999999,-0.00139205,-0.8855770000000001,-0.00232697,,,mongenerator-diesel_634
139,0.0,-0.8688040000000001,0.00278551,-0.883835,-0.00253591,-0.880611,-0.000274032,,,mongenerator-diesel_634
140,0.0,-0.871872,0.00272104,-0.8867010000000001,-0.00318411,-0.8812270000000001,0.000450324,,,mongenerator-diesel_634
141,0.0,-0.877173,0.0030122,-0.8936799999999999,-0.00431747,-0.885008,0.00127613,,,mongenerator-diesel_634
142,0.0,-0.896381,0.0013663,-0.908277,-0.00467532,-0.900101,0.00321931,,,mongenerator-diesel_634
143,0.0,-0.915424,-0.000858833,-0.9224899999999999,-0.00308849,-0.926284,0.00382859,,,mongenerator-diesel_634
144,0.0,-0.919501,-0.00225715,-0.9212799999999999,-0.0006300640000000001,-0.935176,0.00284363,,,mongenerator-diesel_634
145,0.0,-0.924334,-0.00272248,-0.924869,-0.000567221,-0.939608,0.00326456,,,mongenerator-diesel_634
146,0.0,-0.925341,-0.00281395,-0.925768,-0.000655026,-0.940313,0.00337989,,,mongenerator-diesel_634
147,0.0,-0.925905,-0.00298943,-0.9257610000000001,-0.000173597,-0.9422389999999999,0.00303189,,,mongenerator-diesel_634
148,0.0,-0.925082,-0.00132213,-0.924823,-0.00178117,-0.932716,0.00310556,,,mongenerator-diesel_634
149,0.0,-0.9224959999999999,-0.00106987,-0.9229790000000001,-0.00175565,-0.9308059999999999,0.00289921,,,mongenerator-diesel_634
150,0.0,-0.9248379999999999,-0.00042176,-0.928167,-0.00154406,-0.9372520000000001,0.00184281,,,mongenerator-diesel_634
151,0.0,-0.9396030000000001,0.00140731,-0.946947,6.31555e-05,-0.9585969999999999,-0.00149744,,,mongenerator-diesel_634
152,0.0,-0.955838,0.00390114,-0.964715,-7.62247e-05,-0.975656,-0.00375532,,,mongenerator-diesel_634
153,0.0,-0.9527329999999999,0.0045396,-0.970598,0.00206521,-0.981741,-0.00658581,,,mongenerator-diesel_634
154,0.0,-0.937593,0.00310457,-0.9513389999999999,0.00254288,-0.963471,-0.00566046,,,mongenerator-diesel_634
155,0.0,-0.946752,0.00329754,-0.9600190000000001,0.0055169,-0.9843639999999999,-0.00877085,,,mongenerator-diesel_634
156,0.0,-0.937442,0.00327358,-0.950356,0.00531652,-0.9737389999999999,-0.00860238,,,mongenerator-diesel_634
157,0.0,-0.944212,0.00426664,-0.959217,0.00525332,-0.9830610000000001,-0.00950039,,,mongenerator-diesel_634
158,0.0,-0.9452010000000001,0.00411677,-0.9597530000000001,0.005312699999999999,-0.9840399999999999,-0.00944629,,,mongenerator-diesel_634
159,0.0,-0.939649,0.00392514,-0.954644,0.00463439,-0.97849,-0.008462200000000001,,,mongenerator-diesel_634
160,0.0,-0.9323040000000001,0.00420856,-0.9487899999999999,0.00377621,-0.9690200000000001,-0.00788369,,,mongenerator-diesel_634
161,0.0,-0.917374,0.00462065,-0.9350879999999999,0.00216985,-0.948674,-0.00666224,,,mongenerator-diesel_634
162,0.0,-0.888992,0.0041316,-0.906208,-0.00087962,-0.9060090000000001,-0.00325583,,,mongenerator-diesel_634
163,0.0,-0.875467,0.0029087,-0.896244,-0.00245607,-0.8926799999999999,-0.00046878400000000003,,,mongenerator-diesel_634
164,0.0,-0.8800290000000001,0.00295625,-0.90155,-0.00344505,-0.8943610000000001,0.000478035,,,mongenerator-diesel_634
165,0.0,-0.8840950000000001,0.00305459,-0.906069,-0.004060800000000001,-0.896583,0.000992413,,,mongenerator-diesel_634
166,0.0,-0.8929530000000001,0.00252301,-0.913752,-0.00477191,-0.902072,0.00222579,,,mongenerator-diesel_634
167,0.0,-0.9039940000000001,0.00116665,-0.920881,-0.00370867,-0.9141100000000001,0.00250371,,,mongenerator-diesel_634
168,0.0,-0.908235,-0.000330554,-0.919502,-0.00106608,-0.923357,0.00136773,,,mongenerator-diesel_634
169,0.0,-0.913789,-0.000953359,-0.923143,-0.000631484,-0.928974,0.00156477,,,mongenerator-diesel_634
170,0.0,-0.9150739999999999,-0.00106905,-0.924271,-0.000703642,-0.9299850000000001,0.00167325,,,mongenerator-diesel_634
171,0.0,-0.915752,-0.00124651,-0.924343,-0.000212307,-0.932001,0.00134421,,,mongenerator-diesel_634
172,0.0,-0.915884,-0.00126124,-0.924322,-0.000150204,-0.93216,0.00140075,,,mongenerator-diesel_634
173,0.0,-0.913186,-0.0009399810000000001,-0.9223520000000001,-0.000105485,-0.930017,0.00127486,,,mongenerator-diesel_634
174,0.0,-0.9154260000000001,-0.00041445800000000004,-0.927499,-2.38939e-05,-0.9363549999999999,5.71017e-05,,,mongenerator-diesel_634
175,0.0,-0.930158,0.00140255,-0.9480280000000001,0.00169009,-0.9643079999999999,-0.00317095,,,mongenerator-diesel_634
