hour,t(sec),V1,VAngle1,V2,VAngle2,V3,VAngle3,I1,IAngle1,I2,IAngle2,I3,IAngle3,Name,P1(kW),P2(kW),P3(kW)
1,0.0,915.8330000000001,-157.657,,,,,51.8589,60.0,,,,,monisource-isource_newdiesel675_1_shape,47.4940919637,,
2,0.0,911.32,-158.076,,,,,51.1152,60.0,,,,,monisource-isource_newdiesel675_1_shape,46.582304064000006,,
3,0.0,912.65,-157.952,,,,,51.3338,60.0,,,,,monisource-isource_newdiesel675_1_shape,46.84979257,,
4,0.0,912.834,-157.934,,,,,51.3647,60.0,,,,,monisource-isource_newdiesel675_1_shape,46.887444559799995,,
5,0.0,929.442,-156.321,,,,,54.2909,60.0,,,,,monisource-isource_newdiesel675_1_shape,50.460242677800004,,
6,0.0,941.945,-155.063,,,,,56.7369,60.0,,,,,monisource-isource_newdiesel675_1_shape,53.4430392705,,
7,0.0,976.0939999999999,-151.406,,,,,64.8425,60.0,,,,,monisource-isource_newdiesel675_1_shape,63.292375195,,
8,0.0,952.918,-153.667,,,,,59.4375,60.0,,,,,monisource-isource_newdiesel675_1_shape,56.639063625000006,,
9,0.0,957.76,-153.099,,,,,60.6432,60.0,,,,,monisource-isource_newdiesel675_1_shape,58.081631232,,
10,0.0,948.8989999999999,-154.039,,,,,58.6076,60.0,,,,,monisource-isource_newdiesel675_1_shape,55.61269303239999,,
11,0.0,942.695,-154.685,,,,,57.2686,60.0,,,,,monisource-isource_newdiesel675_1_shape,53.986822877,,
12,0.0,943.811,-154.571,,,,,57.5025,60.0,,,,,monisource-isource_newdiesel675_1_shape,54.271492027499995,,
13,0.0,942.169,-154.734,,,,,57.1627,60.0,,,,,monisource-isource_newdiesel675_1_shape,53.8569238963,,
14,0.0,938.7560000000001,-155.088,,,,,56.4533,60.0,,,,,monisource-isource_newdiesel675_1_shape,52.99587409480001,,
15,0.0,938.929,-155.06799999999998,,,,,56.4916,60.0,,,,,monisource-isource_newdiesel675_1_shape,53.0416014964,,
16,0.0,942.8480000000001,-154.666,,,,,57.3021,60.0,,,,,monisource-isource_newdiesel675_1_shape,54.02717038080001,,
17,0.0,956.306,-153.254,,,,,60.3017,60.0,,,,,monisource-isource_newdiesel675_1_shape,57.666877520199996,,
18,0.0,980.565,-150.72299999999998,,,,,66.4174,60.0,,,,,monisource-isource_newdiesel675_1_shape,65.126577831,,
19,0.0,993.125,-149.409,,,,,70.0334,60.0,,,,,monisource-isource_newdiesel675_1_shape,69.551920375,,
20,0.0,990.46,-149.72899999999998,,,,,69.1598,60.0,,,,,monisource-isource_newdiesel675_1_shape,68.50001550800002,,
21,0.0,982.872,-150.621,,,,,66.8092,60.0,,,,,monisource-isource_newdiesel675_1_shape,65.6648920224,,
22,0.0,971.373,-151.929,,,,,63.5826,60.0,,,,,monisource-isource_newdiesel675_1_shape,61.7624209098,,
23,0.0,950.512,-154.2,,,,,58.5281,60.0,,,,,monisource-isource_newdiesel675_1_shape,55.631661387200005,,
24,0.0,937.3589999999999,-155.563,,,,,55.7758,60.0,,,,,monisource-isource_newdiesel675_1_shape,52.28194811219999,,
25,0.0,930.186,-156.285,,,,,54.3905,60.0,,,,,monisource-isource_newdiesel675_1_shape,50.593281633000004,,
26,0.0,931.221,-156.191,,,,,54.5751,60.0,,,,,monisource-isource_newdiesel675_1_shape,50.821479197100004,,
27,0.0,932.0139999999999,-156.11700000000002,,,,,54.72,60.0,,,,,monisource-isource_newdiesel675_1_shape,50.99980607999999,,
28,0.0,932.669,-156.055,,,,,54.8416,60.0,,,,,monisource-isource_newdiesel675_1_shape,51.149060230399996,,
29,0.0,972.1189999999999,-151.904,,,,,63.7119,60.0,,,,,monisource-isource_newdiesel675_1_shape,61.9355485161,,
30,0.0,985.956,-150.333,,,,,67.6397,60.0,,,,,monisource-isource_newdiesel675_1_shape,66.68976805320001,,
31,0.0,1033.28,-144.276,,,,,86.9375,60.0,,,,,monisource-isource_newdiesel675_1_shape,89.83078,,
32,0.0,1044.03,-142.451,,,,,95.3421,60.0,,,,,monisource-isource_newdiesel675_1_shape,99.540012663,,
33,0.0,1047.81,-141.514,,,,,100.521,60.0,,,,,monisource-isource_newdiesel675_1_shape,105.32690901,,
34,0.0,1045.28,-140.856,,,,,103.775,60.0,,,,,monisource-isource_newdiesel675_1_shape,108.473932,,
35,0.0,1051.34,-140.526,,,,,103.11,60.0,,,,,monisource-isource_newdiesel675_1_shape,108.40366739999999,,
36,0.0,1050.9,-140.047,,,,,105.245,60.0,,,,,monisource-isource_newdiesel675_1_shape,110.60197050000001,,
37,0.0,1059.99,-140.60299999999998,,,,,101.91,60.0,,,,,monisource-isource_newdiesel675_1_shape,108.0235809,,
38,0.0,1060.13,-140.559,,,,,104.859,60.0,,,,,monisource-isource_newdiesel675_1_shape,111.16417167000002,,
39,0.0,1061.33,-140.564,,,,,104.49,60.0,,,,,monisource-isource_newdiesel675_1_shape,110.89837169999998,,
40,0.0,1060.6,-140.534,,,,,105.355,60.0,,,,,monisource-isource_newdiesel675_1_shape,111.73951299999999,,
41,0.0,1023.13,-140.965,,,,,109.475,60.0,,,,,monisource-isource_newdiesel675_1_shape,112.00715675,,
42,0.0,1024.38,-139.616,,,,,103.67399999999999,60.0,,,,,monisource-isource_newdiesel675_1_shape,106.20157212,,
43,0.0,1035.28,-143.834,,,,,88.6184,60.0,,,,,monisource-isource_newdiesel675_1_shape,91.744857152,,
44,0.0,1034.25,-143.996,,,,,88.0963,60.0,,,,,monisource-isource_newdiesel675_1_shape,91.113598275,,
45,0.0,1016.71,-146.452,,,,,79.0645,60.0,,,,,monisource-isource_newdiesel675_1_shape,80.385667795,,
46,0.0,1004.13,-148.094,,,,,73.8522,60.0,,,,,monisource-isource_newdiesel675_1_shape,74.157209586,,
47,0.0,973.0980000000001,-151.789,,,,,63.9575,60.0,,,,,monisource-isource_newdiesel675_1_shape,62.236915335000006,,
48,0.0,961.6139999999999,-153.05700000000002,,,,,61.028,60.0,,,,,monisource-isource_newdiesel675_1_shape,58.68537919199999,,
49,0.0,953.9689999999999,-153.889,,,,,59.232,60.0,,,,,monisource-isource_newdiesel675_1_shape,56.505491808,,
50,0.0,952.572,-154.029,,,,,58.9241,60.0,,,,,monisource-isource_newdiesel675_1_shape,56.12944778520001,,
51,0.0,951.841,-154.123,,,,,58.7404,60.0,,,,,monisource-isource_newdiesel675_1_shape,55.9115210764,,
52,0.0,951.6310000000001,-154.143,,,,,58.6963,60.0,,,,,monisource-isource_newdiesel675_1_shape,55.8572186653,,
53,0.0,986.819,-150.264,,,,,67.8204,60.0,,,,,monisource-isource_newdiesel675_1_shape,66.9264593076,,
54,0.0,997.921,-148.904,,,,,71.5783,60.0,,,,,monisource-isource_newdiesel675_1_shape,71.4294887143,,
55,0.0,1037.24,-143.44799999999998,,,,,90.6633,60.0,,,,,monisource-isource_newdiesel675_1_shape,94.039601292,,
56,0.0,1043.65,-141.811,,,,,98.916,60.0,,,,,monisource-isource_newdiesel675_1_shape,103.2336834,,
57,0.0,1042.0,-140.991,,,,,103.12200000000001,60.0,,,,,monisource-isource_newdiesel675_1_shape,107.45312400000002,,
58,0.0,1028.37,-139.925,,,,,105.90700000000001,60.0,,,,,monisource-isource_newdiesel675_1_shape,108.91158159,,
59,0.0,1042.15,-139.07,,,,,104.20299999999999,60.0,,,,,monisource-isource_newdiesel675_1_shape,108.59515644999999,,
60,0.0,1061.0,-138.929,,,,,104.335,60.0,,,,,monisource-isource_newdiesel675_1_shape,110.699435,,
61,0.0,1066.56,-140.778,,,,,100.713,60.0,,,,,monisource-isource_newdiesel675_1_shape,107.41645727999999,,
62,0.0,1064.21,-140.963,,,,,105.08,60.0,,,,,monisource-isource_newdiesel675_1_shape,111.82718679999999,,
63,0.0,1057.43,-141.05100000000002,,,,,105.66799999999999,60.0,,,,,monisource-isource_newdiesel675_1_shape,111.73651324,,
64,0.0,1036.65,-140.929,,,,,107.03299999999999,60.0,,,,,monisource-isource_newdiesel675_1_shape,110.95575945,,
65,0.0,881.0369999999999,-138.465,,,,,110.70299999999999,60.0,,,,,monisource-isource_newdiesel675_1_shape,97.53343901099998,,
66,0.0,976.079,-135.137,,,,,102.225,60.0,,,,,monisource-isource_newdiesel675_1_shape,99.779675775,,
67,0.0,1030.23,-144.546,,,,,85.8199,60.0,,,,,monisource-isource_newdiesel675_1_shape,88.414235577,,
68,0.0,1029.27,-144.72,,,,,85.2679,60.0,,,,,monisource-isource_newdiesel675_1_shape,87.763691433,,
69,0.0,1010.05,-147.333,,,,,76.1976,60.0,,,,,monisource-isource_newdiesel675_1_shape,76.96338587999999,,
70,0.0,997.65,-148.904,,,,,71.4863,60.0,,,,,monisource-isource_newdiesel675_1_shape,71.318307195,,
71,0.0,964.329,-152.757,,,,,61.702,60.0,,,,,monisource-isource_newdiesel675_1_shape,59.501027958,,
72,0.0,949.852,-154.30200000000002,,,,,58.3459,60.0,,,,,monisource-isource_newdiesel675_1_shape,55.4199698068,,
73,0.0,937.061,-155.614,,,,,55.6934,60.0,,,,,monisource-isource_newdiesel675_1_shape,52.1881130974,,
74,0.0,935.941,-155.722,,,,,55.4774,60.0,,,,,monisource-isource_newdiesel675_1_shape,51.923573233400006,,
75,0.0,934.758,-155.841,,,,,55.2475,60.0,,,,,monisource-isource_newdiesel675_1_shape,51.643042605000005,,
76,0.0,934.692,-155.847,,,,,55.2349,60.0,,,,,monisource-isource_newdiesel675_1_shape,51.62761915080001,,
77,0.0,973.717,-151.72,,,,,64.1518,60.0,,,,,monisource-isource_newdiesel675_1_shape,62.4656982406,,
78,0.0,982.797,-150.683,,,,,66.7088,60.0,,,,,monisource-isource_newdiesel675_1_shape,65.5612085136,,
79,0.0,1032.42,-144.4,,,,,86.4701,60.0,,,,,monisource-isource_newdiesel675_1_shape,89.273460642,,
80,0.0,1043.81,-142.489,,,,,95.1621,60.0,,,,,monisource-isource_newdiesel675_1_shape,99.33115160099999,,
81,0.0,1047.1,-141.49200000000002,,,,,100.75299999999999,60.0,,,,,monisource-isource_newdiesel675_1_shape,105.49846629999998,,
82,0.0,1043.59,-140.797,,,,,104.02,60.0,,,,,monisource-isource_newdiesel675_1_shape,108.5542318,,
83,0.0,1051.14,-140.486,,,,,102.978,60.0,,,,,monisource-isource_newdiesel675_1_shape,108.24429492,,
84,0.0,1055.8,-140.284,,,,,103.993,60.0,,,,,monisource-isource_newdiesel675_1_shape,109.79580939999998,,
85,0.0,1059.73,-141.10399999999998,,,,,100.574,60.0,,,,,monisource-isource_newdiesel675_1_shape,106.58128502,,
86,0.0,1054.54,-140.936,,,,,104.781,60.0,,,,,monisource-isource_newdiesel675_1_shape,110.49575574,,
87,0.0,1044.71,-140.524,,,,,105.915,60.0,,,,,monisource-isource_newdiesel675_1_shape,110.65045965,,
88,0.0,1018.68,-139.127,,,,,107.566,60.0,,,,,monisource-isource_newdiesel675_1_shape,109.57533288,,
89,0.0,919.058,-128.944,,,,,112.182,60.0,,,,,monisource-isource_newdiesel675_1_shape,103.10176455599999,,
90,0.0,1096.44,-125.095,,,,,106.59,60.0,,,,,monisource-isource_newdiesel675_1_shape,116.86953960000001,,
91,0.0,1040.43,-142.985,,,,,90.5511,60.0,,,,,monisource-isource_newdiesel675_1_shape,94.21208097300001,,
92,0.0,1036.41,-143.675,,,,,89.3878,60.0,,,,,monisource-isource_newdiesel675_1_shape,92.642409798,,
93,0.0,1017.97,-146.247,,,,,79.7272,60.0,,,,,monisource-isource_newdiesel675_1_shape,81.159897784,,
94,0.0,1005.48,-147.882,,,,,74.4635,60.0,,,,,monisource-isource_newdiesel675_1_shape,74.87155997999999,,
95,0.0,974.552,-151.575,,,,,64.4328,60.0,,,,,monisource-isource_newdiesel675_1_shape,62.793114105600004,,
96,0.0,961.38,-153.025,,,,,61.0537,60.0,,,,,monisource-isource_newdiesel675_1_shape,58.695806106,,
97,0.0,948.956,-154.347,,,,,58.2127,60.0,,,,,monisource-isource_newdiesel675_1_shape,55.2412909412,,
98,0.0,946.635,-154.578,,,,,57.721000000000004,60.0,,,,,monisource-isource_newdiesel675_1_shape,54.640718835,,
99,0.0,945.446,-154.703,,,,,57.4665,60.0,,,,,monisource-isource_newdiesel675_1_shape,54.331472559000005,,
100,0.0,942.467,-155.007,,,,,56.8485,60.0,,,,,monisource-isource_newdiesel675_1_shape,53.5778352495,,
101,0.0,975.422,-151.469,,,,,64.7135,60.0,,,,,monisource-isource_newdiesel675_1_shape,63.122971596999996,,
102,0.0,987.432,-150.082,,,,,68.2376,60.0,,,,,monisource-isource_newdiesel675_1_shape,67.37998984320001,,
103,0.0,1035.56,-143.762,,,,,89.2961,60.0,,,,,monisource-isource_newdiesel675_1_shape,92.47146931599998,,
104,0.0,1043.49,-141.92,,,,,98.3467,60.0,,,,,monisource-isource_newdiesel675_1_shape,102.623797983,,
105,0.0,1020.05,-141.032,,,,,105.476,60.0,,,,,monisource-isource_newdiesel675_1_shape,107.5907938,,
106,0.0,933.93,-125.506,,,,,114.554,60.0,,,,,monisource-isource_newdiesel675_1_shape,106.98541722,,
107,0.0,997.0360000000001,-121.333,,,,,118.82799999999999,60.0,,,,,monisource-isource_newdiesel675_1_shape,118.475793808,,
108,0.0,1156.82,-137.945,,,,,116.242,60.0,,,,,monisource-isource_newdiesel675_1_shape,134.47107044,,
109,0.0,1133.75,-155.069,,,,,112.1,60.0,,,,,monisource-isource_newdiesel675_1_shape,127.093375,,
110,0.0,834.2769999999999,-147.49200000000002,,,,,116.992,60.0,,,,,monisource-isource_newdiesel675_1_shape,97.603734784,,
111,0.0,1239.31,-122.042,,,,,117.788,60.0,,,,,monisource-isource_newdiesel675_1_shape,145.97584627999998,,
112,0.0,1250.91,-154.175,,,,,117.81299999999999,60.0,,,,,monisource-isource_newdiesel675_1_shape,147.37345983,,
113,0.0,978.2919999999999,-155.641,,,,,121.244,60.0,,,,,monisource-isource_newdiesel675_1_shape,118.61203524799998,,
114,0.0,828.9019999999999,-138.80700000000002,,,,,111.289,60.0,,,,,monisource-isource_newdiesel675_1_shape,92.247674678,,
115,0.0,1040.05,-142.12,,,,,91.4957,60.0,,,,,monisource-isource_newdiesel675_1_shape,95.16010278499999,,
116,0.0,1037.06,-143.67600000000002,,,,,89.45,60.0,,,,,monisource-isource_newdiesel675_1_shape,92.76501699999999,,
117,0.0,1017.97,-146.252,,,,,79.7181,60.0,,,,,monisource-isource_newdiesel675_1_shape,81.15063425700001,,
118,0.0,1004.19,-148.045,,,,,73.9697,60.0,,,,,monisource-isource_newdiesel675_1_shape,74.279633043,,
119,0.0,968.675,-152.22799999999998,,,,,62.8778,60.0,,,,,monisource-isource_newdiesel675_1_shape,60.908152915,,
120,0.0,950.683,-154.162,,,,,58.5926,60.0,,,,,monisource-isource_newdiesel675_1_shape,55.70298874579999,,
121,0.0,2340.09,-4.792330000000001,,,,,0.0021,60.0,,,,,monisource-isource_newdiesel675_1_shape,0.004914189,,
122,0.0,2341.62,-4.75488,,,,,0.0021,60.0,,,,,monisource-isource_newdiesel675_1_shape,0.0049174019999999995,,
123,0.0,2341.92,-4.74325,,,,,0.0021,60.0,,,,,monisource-isource_newdiesel675_1_shape,0.004918032,,
124,0.0,2341.97,-4.73949,,,,,0.0021,60.0,,,,,monisource-isource_newdiesel675_1_shape,0.004918136999999999,,
125,0.0,2313.63,-5.39524,,,,,0.0021,60.0,,,,,monisource-isource_newdiesel675_1_shape,0.004858622999999999,,
126,0.0,2310.1,-5.49274,,,,,0.0021,60.0,,,,,monisource-isource_newdiesel675_1_shape,0.004851209999999999,,
127,0.0,2251.46,-6.8621300000000005,,,,,0.0021,60.0,,,,,monisource-isource_newdiesel675_1_shape,0.004728066,,
128,0.0,2226.23,-7.443569999999999,,,,,0.0021,60.0,,,,,monisource-isource_newdiesel675_1_shape,0.004675083,,
129,0.0,2214.84,-7.98763,,,,,0.0021,60.0,,,,,monisource-isource_newdiesel675_1_shape,0.004651163999999999,,
130,0.0,2199.13,-8.32085,,,,,0.0021,60.0,,,,,monisource-isource_newdiesel675_1_shape,0.004618173,,
131,0.0,2194.19,-8.42044,,,,,0.0021,60.0,,,,,monisource-isource_newdiesel675_1_shape,0.004607799,,
132,0.0,2188.7,-8.53052,,,,,0.0021,60.0,,,,,monisource-isource_newdiesel675_1_shape,0.0045962699999999995,,
133,0.0,2195.27,-8.38914,,,,,0.0021,60.0,,,,,monisource-isource_newdiesel675_1_shape,0.004610067,,
134,0.0,2186.47,-8.58413,,,,,0.0021,60.0,,,,,monisource-isource_newdiesel675_1_shape,0.004591586999999999,,
135,0.0,2187.97,-8.552760000000001,,,,,0.0021,60.0,,,,,monisource-isource_newdiesel675_1_shape,0.004594737,,
136,0.0,2189.41,-8.51897,,,,,0.0021,60.0,,,,,monisource-isource_newdiesel675_1_shape,0.004597761,,
137,0.0,2188.72,-8.53473,,,,,0.0021,60.0,,,,,monisource-isource_newdiesel675_1_shape,0.004596311999999999,,
138,0.0,2199.37,-8.31975,,,,,0.0021,60.0,,,,,monisource-isource_newdiesel675_1_shape,0.004618677,,
139,0.0,2251.76,-7.17554,,,,,0.0021,60.0,,,,,monisource-isource_newdiesel675_1_shape,0.004728696,,
140,0.0,2257.14,-7.0671,,,,,0.0021,60.0,,,,,monisource-isource_newdiesel675_1_shape,0.004739993999999999,,
141,0.0,2288.39,-6.38087,,,,,0.0021,60.0,,,,,monisource-isource_newdiesel675_1_shape,0.004805618999999999,,
142,0.0,2315.86,-5.7611,,,,,0.0021,60.0,,,,,monisource-isource_newdiesel675_1_shape,0.0048633059999999995,,
143,0.0,2350.33,-4.938,,,,,0.0021,60.0,,,,,monisource-isource_newdiesel675_1_shape,0.004935693,,
144,0.0,2349.56,-4.9084699999999994,,,,,0.0021,60.0,,,,,monisource-isource_newdiesel675_1_shape,0.004934075999999999,,
145,0.0,2341.46,-4.75446,,,,,0.0021,60.0,,,,,monisource-isource_newdiesel675_1_shape,0.004917066,,
146,0.0,2341.75,-4.74838,,,,,0.0021,60.0,,,,,monisource-isource_newdiesel675_1_shape,0.004917675,,
147,0.0,2341.13,-4.75365,,,,,0.0021,60.0,,,,,monisource-isource_newdiesel675_1_shape,0.004916373,,
148,0.0,2341.31,-4.7485599999999994,,,,,0.0021,60.0,,,,,monisource-isource_newdiesel675_1_shape,0.004916751,,
149,0.0,2334.04,-4.91938,,,,,0.0021,60.0,,,,,monisource-isource_newdiesel675_1_shape,0.004901484,,
150,0.0,2331.75,-4.98147,,,,,0.0021,60.0,,,,,monisource-isource_newdiesel675_1_shape,0.0048966750000000005,,
151,0.0,2309.19,-5.5220400000000005,,,,,0.0021,60.0,,,,,monisource-isource_newdiesel675_1_shape,0.0048492990000000005,,
152,0.0,2290.44,-5.9591,,,,,0.0021,60.0,,,,,monisource-isource_newdiesel675_1_shape,0.004809923999999999,,
153,0.0,2286.97,-6.04667,,,,,0.0021,60.0,,,,,monisource-isource_newdiesel675_1_shape,0.004802636999999999,,
154,0.0,2261.04,-6.612019999999999,,,,,0.0021,60.0,,,,,monisource-isource_newdiesel675_1_shape,0.004748183999999999,,
155,0.0,2254.03,-6.73406,,,,,0.0021,60.0,,,,,monisource-isource_newdiesel675_1_shape,0.004733463,,
156,0.0,2248.92,-6.84208,,,,,0.0021,60.0,,,,,monisource-isource_newdiesel675_1_shape,0.0047227319999999995,,
157,0.0,2257.62,-6.65389,,,,,0.0021,60.0,,,,,monisource-isource_newdiesel675_1_shape,0.004741001999999999,,
158,0.0,2259.51,-6.60796,,,,,0.0021,60.0,,,,,monisource-isource_newdiesel675_1_shape,0.004744971000000001,,
159,0.0,2259.81,-6.60769,,,,,0.0021,60.0,,,,,monisource-isource_newdiesel675_1_shape,0.0047456009999999995,,
160,0.0,2271.49,-6.3467400000000005,,,,,0.0021,60.0,,,,,monisource-isource_newdiesel675_1_shape,0.004770128999999999,,
161,0.0,2269.01,-6.40975,,,,,0.0021,60.0,,,,,monisource-isource_newdiesel675_1_shape,0.004764921,,
162,0.0,2269.72,-6.40336,,,,,0.0021,60.0,,,,,monisource-isource_newdiesel675_1_shape,0.004766411999999999,,
163,0.0,2277.16,-6.28275,,,,,0.0021,60.0,,,,,monisource-isource_newdiesel675_1_shape,0.004782036,,
164,0.0,2285.21,-6.11993,,,,,0.0021,60.0,,,,,monisource-isource_newdiesel675_1_shape,0.004798941,,
165,0.0,2310.28,-5.55133,,,,,0.0021,60.0,,,,,monisource-isource_newdiesel675_1_shape,0.004851588,,
166,0.0,2321.87,-5.29684,,,,,0.0021,60.0,,,,,monisource-isource_newdiesel675_1_shape,0.0048759269999999995,,
167,0.0,2336.7,-4.9281,,,,,0.0021,60.0,,,,,monisource-isource_newdiesel675_1_shape,0.0049070699999999995,,
168,0.0,2335.72,-4.89905,,,,,0.0021,60.0,,,,,monisource-isource_newdiesel675_1_shape,0.004905011999999999,,
169,0.0,2345.44,-4.66184,,,,,0.0021,60.0,,,,,monisource-isource_newdiesel675_1_shape,0.004925423999999999,,
170,0.0,2347.03,-4.6250800000000005,,,,,0.0021,60.0,,,,,monisource-isource_newdiesel675_1_shape,0.004928763,,
171,0.0,2347.11,-4.6139,,,,,0.0021,60.0,,,,,monisource-isource_newdiesel675_1_shape,0.004928931,,
172,0.0,2347.12,-4.6131400000000005,,,,,0.0021,60.0,,,,,monisource-isource_newdiesel675_1_shape,0.0049289519999999995,,
173,0.0,2339.12,-4.8016,,,,,0.0021,60.0,,,,,monisource-isource_newdiesel675_1_shape,0.0049121519999999995,,
174,0.0,2336.25,-4.87749,,,,,0.0021,60.0,,,,,monisource-isource_newdiesel675_1_shape,0.004906124999999999,,
175,0.0,2313.14,-5.43687,,,,,0.0021,60.0,,,,,monisource-isource_newdiesel675_1_shape,0.004857594,,
176,0.0,2318.93,-5.30854,,,,,0.0021,60.0,,,,,monisource-isource_newdiesel675_1_shape,0.004869752999999999,,
177,0.0,2303.86,-5.6936800000000005,,,,,0.0021,60.0,,,,,monisource-isource_newdiesel675_1_shape,0.004838106,,
178,0.0,2301.56,-5.75584,,,,,0.0021,60.0,,,,,monisource-isource_newdiesel675_1_shape,0.004833276,,
179,0.0,2290.2,-5.97941,,,,,0.0021,60.0,,,,,monisource-isource_newdiesel675_1_shape,0.004809419999999999,,
180,0.0,2285.76,-6.06991,,,,,0.0021,60.0,,,,,monisource-isource_newdiesel675_1_shape,0.004800096,,
181,0.0,2281.54,-6.15514,,,,,0.0021,60.0,,,,,monisource-isource_newdiesel675_1_shape,0.004791233999999999,,
182,0.0,2280.65,-6.18304,,,,,0.0021,60.0,,,,,monisource-isource_newdiesel675_1_shape,0.004789365,,
183,0.0,2278.77,-6.23661,,,,,0.0021,60.0,,,,,monisource-isource_newdiesel675_1_shape,0.004785417,,
184,0.0,2278.29,-6.24826,,,,,0.0021,60.0,,,,,monisource-isource_newdiesel675_1_shape,0.004784408999999999,,
185,0.0,2280.76,-6.1925,,,,,0.0021,60.0,,,,,monisource-isource_newdiesel675_1_shape,0.004789596,,
186,0.0,2290.37,-5.99146,,,,,0.0021,60.0,,,,,monisource-isource_newdiesel675_1_shape,0.0048097769999999995,,
187,0.0,2297.36,-5.854030000000001,,,,,0.0021,60.0,,,,,monisource-isource_newdiesel675_1_shape,0.0048244559999999995,,
