hour,t(sec),V1,VAngle1,V2,VAngle2,I1,IAngle1,I2,IAngle2,V3,Name,VAngle3,I3,IAngle3,V4,VAngle4,I4,IAngle4,kv,V1(PU),V2(PU),V3(PU)
1,0.0,,111.165,,0.0,20.2518,111.168,20.2518,-68.8321,2404.76,monload-611_runway,,,,,,,,2.4,,,1.0019833333333334
2,0.0,,111.154,,0.0,21.49,111.155,21.49,-68.8453,2404.4,monload-611_runway,,,,,,,,2.4,,,1.0018333333333334
3,0.0,,111.18,,0.0,18.735,111.178,18.735,-68.8216,2405.56,monload-611_runway,,,,,,,,2.4,,,1.0023166666666667
4,0.0,,111.186,,0.0,18.1696,111.185,18.1696,-68.8146,2405.8,monload-611_runway,,,,,,,,2.4,,,1.0024166666666667
5,0.0,,110.956,,0.0,18.3433,110.958,18.3433,-69.0418,2395.04,monload-611_runway,,,,,,,,2.4,,,0.9979333333333333
6,0.0,,110.812,,0.0,19.8621,110.813,19.8621,-69.1872,2388.05,monload-611_runway,,,,,,,,2.4,,,0.9950208333333334
7,0.0,,110.113,,0.0,29.8483,110.113,29.8483,-69.8871,2356.16,monload-611_runway,,,,,,,,2.4,,,0.9817333333333332
8,0.0,,110.142,,0.0,31.8618,110.142,31.8618,-69.8577,2356.89,monload-611_runway,,,,,,,,2.4,,,0.9820374999999999
9,0.0,,109.865,,0.0,44.0268,109.865,44.0268,-70.1352,2345.61,monload-611_runway,,,,,,,,2.4,,,0.9773375000000001
10,0.0,,109.97,,0.0,37.8158,109.959,37.8158,-70.0406,2349.95,monload-611_runway,,,,,,,,2.4,,,0.9791458333333333
11,0.0,,111.158,,0.0,26.7204,111.158,26.7204,-68.8416,2410.21,monload-611_runway,,,,,,,,2.4,,,1.0042541666666667
12,0.0,,113.407,,0.0,25.0426,113.411,25.0426,-66.589,2493.31,monload-611_runway,,,,,,,,2.4,,,1.0388791666666666
13,0.0,,110.839,,0.0,24.9564,110.834,24.9564,-69.1662,2378.76,monload-611_runway,,,,,,,,2.4,,,0.9911500000000001
14,0.0,,111.921,,0.0,24.9959,111.923,24.9959,-68.0775,2433.92,monload-611_runway,,,,,,,,2.4,,,1.0141333333333333
15,0.0,,112.833,,0.0,24.9268,112.831,24.9268,-67.1687,2479.98,monload-611_runway,,,,,,,,2.4,,,1.033325
16,0.0,,113.007,,0.0,24.7866,113.005,24.7866,-66.9954,2488.83,monload-611_runway,,,,,,,,2.4,,,1.0370125
17,0.0,,111.405,,0.0,25.989,111.406,25.989,-68.5938,2407.74,monload-611_runway,,,,,,,,2.4,,,1.0032249999999998
18,0.0,,110.032,,0.0,31.4301,110.032,31.4301,-69.9682,2337.87,monload-611_runway,,,,,,,,2.4,,,0.9741124999999999
19,0.0,,109.929,,0.0,43.1551,109.929,43.1551,-70.0712,2333.97,monload-611_runway,,,,,,,,2.4,,,0.9724875
20,0.0,,109.924,,0.0,45.3034,109.924,45.3034,-70.0758,2333.81,monload-611_runway,,,,,,,,2.4,,,0.9724208333333333
21,0.0,,109.992,,0.0,47.8087,109.988,47.8087,-70.0124,2336.56,monload-611_runway,,,,,,,,2.4,,,0.9735666666666667
22,0.0,,110.052,,0.0,46.4444,110.051,46.4444,-69.9485,2338.97,monload-611_runway,,,,,,,,2.4,,,0.9745708333333333
23,0.0,,110.289,,0.0,35.6973,110.288,35.6973,-69.7118,2348.42,monload-611_runway,,,,,,,,2.4,,,0.9785083333333333
24,0.0,,110.468,,0.0,22.9122,110.465,22.9122,-69.535,2355.35,monload-611_runway,,,,,,,,2.4,,,0.9813958333333332
25,0.0,,110.523,,0.0,18.6667,110.518,18.6667,-69.4817,2357.48,monload-611_runway,,,,,,,,2.4,,,0.9822833333333333
26,0.0,,110.529,,0.0,17.8494,110.529,17.8494,-69.4713,2357.73,monload-611_runway,,,,,,,,2.4,,,0.9823875
27,0.0,,110.745,,0.0,16.9263,110.738,16.9263,-69.262,2368.89,monload-611_runway,,,,,,,,2.4,,,0.9870374999999999
28,0.0,,111.018,,0.0,17.0116,111.016,17.0116,-68.9842,2383.06,monload-611_runway,,,,,,,,2.4,,,0.9929416666666666
29,0.0,,110.195,,0.0,17.6802,110.196,17.6802,-69.8041,2344.81,monload-611_runway,,,,,,,,2.4,,,0.9770041666666667
30,0.0,,110.07,,0.0,21.26,110.071,21.26,-69.9294,2339.8,monload-611_runway,,,,,,,,2.4,,,0.9749166666666668
31,0.0,,109.265,,0.0,33.1809,109.264,33.1809,-70.736,2321.45,monload-611_runway,,,,,,,,2.4,,,0.9672708333333333
32,0.0,,108.885,,0.0,34.8528,108.886,34.8528,-71.1143,2304.66,monload-611_runway,,,,,,,,2.4,,,0.960275
33,0.0,,108.828,,0.0,30.7756,108.828,30.7756,-71.1721,2302.52,monload-611_runway,,,,,,,,2.4,,,0.9593833333333334
34,0.0,,108.71,,0.0,31.0977,108.712,31.0977,-71.2882,2297.51,monload-611_runway,,,,,,,,2.4,,,0.9572958333333335
35,0.0,,108.733,,0.0,25.135,108.726,25.135,-71.2745,2298.57,monload-611_runway,,,,,,,,2.4,,,0.9577375
36,0.0,,108.643,,0.0,26.0047,108.647,26.0047,-71.3533,2294.39,monload-611_runway,,,,,,,,2.4,,,0.9559958333333333
37,0.0,,108.705,,0.0,26.4116,108.704,26.4116,-71.2964,2297.19,monload-611_runway,,,,,,,,2.4,,,0.9571625
38,0.0,,108.63,,0.0,25.3752,108.633,25.3752,-71.3673,2293.81,monload-611_runway,,,,,,,,2.4,,,0.9557541666666667
39,0.0,,109.694,,0.0,24.5082,109.693,24.5082,-70.3072,2348.07,monload-611_runway,,,,,,,,2.4,,,0.9783625
40,0.0,,110.311,,0.0,24.748,110.307,24.748,-69.6928,2379.34,monload-611_runway,,,,,,,,2.4,,,0.9913916666666668
41,0.0,,108.726,,0.0,25.8685,108.728,25.8685,-71.2716,2298.79,monload-611_runway,,,,,,,,2.4,,,0.9578291666666666
42,0.0,,108.561,,0.0,31.6633,108.562,31.6633,-71.4378,2289.15,monload-611_runway,,,,,,,,2.4,,,0.9538125000000001
43,0.0,,109.211,,0.0,38.7986,109.213,38.7986,-70.7869,2318.83,monload-611_runway,,,,,,,,2.4,,,0.9661791666666666
44,0.0,,109.201,,0.0,41.1781,109.202,41.1781,-70.7983,2318.44,monload-611_runway,,,,,,,,2.4,,,0.9660166666666666
45,0.0,,109.561,,0.0,45.1231,109.558,45.1231,-70.4421,2334.2,monload-611_runway,,,,,,,,2.4,,,0.9725833333333332
46,0.0,,109.729,,0.0,42.3023,109.73,42.3023,-70.2702,2341.34,monload-611_runway,,,,,,,,2.4,,,0.9755583333333334
47,0.0,,110.181,,0.0,30.8497,110.18,30.8497,-69.8201,2359.59,monload-611_runway,,,,,,,,2.4,,,0.9831625
48,0.0,,110.333,,0.0,21.1497,110.333,21.1497,-69.6674,2365.57,monload-611_runway,,,,,,,,2.4,,,0.9856541666666667
49,0.0,,110.388,,0.0,18.8942,110.383,18.8942,-69.6169,2367.72,monload-611_runway,,,,,,,,2.4,,,0.9865499999999999
50,0.0,,110.41,,0.0,18.3946,110.408,18.3946,-69.5923,2368.59,monload-611_runway,,,,,,,,2.4,,,0.9869125000000001
51,0.0,,110.438,,0.0,17.8874,110.435,17.8874,-69.5649,2369.7,monload-611_runway,,,,,,,,2.4,,,0.9873749999999999
52,0.0,,110.437,,0.0,18.4384,110.437,18.4384,-69.5634,2369.66,monload-611_runway,,,,,,,,2.4,,,0.9873583333333332
53,0.0,,110.081,,0.0,19.6598,110.081,19.6598,-69.9187,2355.55,monload-611_runway,,,,,,,,2.4,,,0.9814791666666668
54,0.0,,109.955,,0.0,23.9779,109.956,23.9779,-70.0444,2350.44,monload-611_runway,,,,,,,,2.4,,,0.97935
55,0.0,,109.122,,0.0,35.7182,109.121,35.7182,-70.8791,2315.08,monload-611_runway,,,,,,,,2.4,,,0.9646166666666667
56,0.0,,108.747,,0.0,35.9782,108.748,35.9782,-71.2518,2298.31,monload-611_runway,,,,,,,,2.4,,,0.9576291666666666
57,0.0,,108.708,,0.0,31.5574,108.709,31.5574,-71.2909,2297.05,monload-611_runway,,,,,,,,2.4,,,0.9571041666666668
58,0.0,,108.616,,0.0,31.2533,108.615,31.2533,-71.385,2293.08,monload-611_runway,,,,,,,,2.4,,,0.95545
59,0.0,,111.768,,0.0,24.7817,111.772,24.7817,-68.2284,2437.05,monload-611_runway,,,,,,,,2.4,,,1.0154375
60,0.0,,0.0,,0.0,0.0,0.0,0.0,0.0,0.0,monload-611_runway,,,,,,,,2.4,,,0.0
61,0.0,,0.0,,0.0,0.0,0.0,0.0,0.0,0.0,monload-611_runway,,,,,,,,2.4,,,0.0
62,0.0,,0.0,,0.0,0.0,0.0,0.0,0.0,0.0,monload-611_runway,,,,,,,,2.4,,,0.0
63,0.0,,0.0,,0.0,0.0,0.0,0.0,0.0,0.0,monload-611_runway,,,,,,,,2.4,,,0.0
64,0.0,,0.0,,0.0,0.0,0.0,0.0,0.0,0.0,monload-611_runway,,,,,,,,2.4,,,0.0
65,0.0,,0.0,,0.0,0.0,0.0,0.0,0.0,0.0,monload-611_runway,,,,,,,,2.4,,,0.0
66,0.0,,0.0,,0.0,0.0,0.0,0.0,0.0,0.0,monload-611_runway,,,,,,,,2.4,,,0.0
67,0.0,,0.0,,0.0,0.0,0.0,0.0,0.0,0.0,monload-611_runway,,,,,,,,2.4,,,0.0
68,0.0,,0.0,,0.0,0.0,0.0,0.0,0.0,0.0,monload-611_runway,,,,,,,,2.4,,,0.0
69,0.0,,0.0,,0.0,0.0,0.0,0.0,0.0,0.0,monload-611_runway,,,,,,,,2.4,,,0.0
70,0.0,,0.0,,0.0,0.0,0.0,0.0,0.0,0.0,monload-611_runway,,,,,,,,2.4,,,0.0
71,0.0,,0.0,,0.0,0.0,0.0,0.0,0.0,0.0,monload-611_runway,,,,,,,,2.4,,,0.0
72,0.0,,0.0,,0.0,0.0,0.0,0.0,0.0,0.0,monload-611_runway,,,,,,,,2.4,,,0.0
73,0.0,,0.0,,0.0,0.0,0.0,0.0,0.0,0.0,monload-611_runway,,,,,,,,2.4,,,0.0
74,0.0,,0.0,,0.0,0.0,0.0,0.0,0.0,0.0,monload-611_runway,,,,,,,,2.4,,,0.0
75,0.0,,0.0,,0.0,0.0,0.0,0.0,0.0,0.0,monload-611_runway,,,,,,,,2.4,,,0.0
76,0.0,,0.0,,0.0,0.0,0.0,0.0,0.0,0.0,monload-611_runway,,,,,,,,2.4,,,0.0
77,0.0,,0.0,,0.0,0.0,0.0,0.0,0.0,0.0,monload-611_runway,,,,,,,,2.4,,,0.0
78,0.0,,0.0,,0.0,0.0,0.0,0.0,0.0,0.0,monload-611_runway,,,,,,,,2.4,,,0.0
79,0.0,,0.0,,0.0,0.0,0.0,0.0,0.0,0.0,monload-611_runway,,,,,,,,2.4,,,0.0
80,0.0,,0.0,,0.0,0.0,0.0,0.0,0.0,0.0,monload-611_runway,,,,,,,,2.4,,,0.0
81,0.0,,0.0,,0.0,0.0,0.0,0.0,0.0,0.0,monload-611_runway,,,,,,,,2.4,,,0.0
82,0.0,,0.0,,0.0,0.0,0.0,0.0,0.0,0.0,monload-611_runway,,,,,,,,2.4,,,0.0
83,0.0,,0.0,,0.0,0.0,0.0,0.0,0.0,0.0,monload-611_runway,,,,,,,,2.4,,,0.0
84,0.0,,0.0,,0.0,0.0,0.0,0.0,0.0,0.0,monload-611_runway,,,,,,,,2.4,,,0.0
85,0.0,,0.0,,0.0,0.0,0.0,0.0,0.0,0.0,monload-611_runway,,,,,,,,2.4,,,0.0
86,0.0,,0.0,,0.0,0.0,0.0,0.0,0.0,0.0,monload-611_runway,,,,,,,,2.4,,,0.0
87,0.0,,0.0,,0.0,0.0,0.0,0.0,0.0,0.0,monload-611_runway,,,,,,,,2.4,,,0.0
88,0.0,,0.0,,0.0,0.0,0.0,0.0,0.0,0.0,monload-611_runway,,,,,,,,2.4,,,0.0
89,0.0,,0.0,,0.0,0.0,0.0,0.0,0.0,0.0,monload-611_runway,,,,,,,,2.4,,,0.0
90,0.0,,0.0,,0.0,0.0,0.0,0.0,0.0,0.0,monload-611_runway,,,,,,,,2.4,,,0.0
91,0.0,,0.0,,0.0,0.0,0.0,0.0,0.0,0.0,monload-611_runway,,,,,,,,2.4,,,0.0
92,0.0,,0.0,,0.0,0.0,0.0,0.0,0.0,0.0,monload-611_runway,,,,,,,,2.4,,,0.0
93,0.0,,0.0,,0.0,0.0,0.0,0.0,0.0,0.0,monload-611_runway,,,,,,,,2.4,,,0.0
94,0.0,,0.0,,0.0,0.0,0.0,0.0,0.0,0.0,monload-611_runway,,,,,,,,2.4,,,0.0
95,0.0,,0.0,,0.0,0.0,0.0,0.0,0.0,0.0,monload-611_runway,,,,,,,,2.4,,,0.0
96,0.0,,0.0,,0.0,0.0,0.0,0.0,0.0,0.0,monload-611_runway,,,,,,,,2.4,,,0.0
97,0.0,,0.0,,0.0,0.0,0.0,0.0,0.0,0.0,monload-611_runway,,,,,,,,2.4,,,0.0
98,0.0,,0.0,,0.0,0.0,0.0,0.0,0.0,0.0,monload-611_runway,,,,,,,,2.4,,,0.0
99,0.0,,0.0,,0.0,0.0,0.0,0.0,0.0,0.0,monload-611_runway,,,,,,,,2.4,,,0.0
100,0.0,,0.0,,0.0,0.0,0.0,0.0,0.0,0.0,monload-611_runway,,,,,,,,2.4,,,0.0
101,0.0,,0.0,,0.0,0.0,0.0,0.0,0.0,0.0,monload-611_runway,,,,,,,,2.4,,,0.0
102,0.0,,0.0,,0.0,0.0,0.0,0.0,0.0,0.0,monload-611_runway,,,,,,,,2.4,,,0.0
103,0.0,,0.0,,0.0,0.0,0.0,0.0,0.0,0.0,monload-611_runway,,,,,,,,2.4,,,0.0
104,0.0,,0.0,,0.0,0.0,0.0,0.0,0.0,0.0,monload-611_runway,,,,,,,,2.4,,,0.0
105,0.0,,0.0,,0.0,0.0,0.0,0.0,0.0,0.0,monload-611_runway,,,,,,,,2.4,,,0.0
106,0.0,,0.0,,0.0,0.0,0.0,0.0,0.0,0.0,monload-611_runway,,,,,,,,2.4,,,0.0
107,0.0,,0.0,,0.0,0.0,0.0,0.0,0.0,0.0,monload-611_runway,,,,,,,,2.4,,,0.0
108,0.0,,0.0,,0.0,0.0,0.0,0.0,0.0,0.0,monload-611_runway,,,,,,,,2.4,,,0.0
109,0.0,,0.0,,0.0,0.0,0.0,0.0,0.0,0.0,monload-611_runway,,,,,,,,2.4,,,0.0
110,0.0,,0.0,,0.0,0.0,0.0,0.0,0.0,0.0,monload-611_runway,,,,,,,,2.4,,,0.0
111,0.0,,0.0,,0.0,0.0,0.0,0.0,0.0,0.0,monload-611_runway,,,,,,,,2.4,,,0.0
112,0.0,,0.0,,0.0,0.0,0.0,0.0,0.0,0.0,monload-611_runway,,,,,,,,2.4,,,0.0
113,0.0,,0.0,,0.0,0.0,0.0,0.0,0.0,0.0,monload-611_runway,,,,,,,,2.4,,,0.0
114,0.0,,0.0,,0.0,0.0,0.0,0.0,0.0,0.0,monload-611_runway,,,,,,,,2.4,,,0.0
115,0.0,,0.0,,0.0,0.0,0.0,0.0,0.0,0.0,monload-611_runway,,,,,,,,2.4,,,0.0
116,0.0,,0.0,,0.0,0.0,0.0,0.0,0.0,0.0,monload-611_runway,,,,,,,,2.4,,,0.0
117,0.0,,0.0,,0.0,0.0,0.0,0.0,0.0,0.0,monload-611_runway,,,,,,,,2.4,,,0.0
118,0.0,,0.0,,0.0,0.0,0.0,0.0,0.0,0.0,monload-611_runway,,,,,,,,2.4,,,0.0
119,0.0,,0.0,,0.0,0.0,0.0,0.0,0.0,0.0,monload-611_runway,,,,,,,,2.4,,,0.0
120,0.0,,0.0,,0.0,0.0,0.0,0.0,0.0,0.0,monload-611_runway,,,,,,,,2.4,,,0.0
121,0.0,,0.0,,0.0,0.0,0.0,0.0,0.0,0.0,monload-611_runway,,,,,,,,2.4,,,0.0
122,0.0,,0.0,,0.0,0.0,0.0,0.0,0.0,0.0,monload-611_runway,,,,,,,,2.4,,,0.0
123,0.0,,0.0,,0.0,0.0,0.0,0.0,0.0,0.0,monload-611_runway,,,,,,,,2.4,,,0.0
124,0.0,,0.0,,0.0,0.0,0.0,0.0,0.0,0.0,monload-611_runway,,,,,,,,2.4,,,0.0
125,0.0,,0.0,,0.0,0.0,0.0,0.0,0.0,0.0,monload-611_runway,,,,,,,,2.4,,,0.0
126,0.0,,0.0,,0.0,0.0,0.0,0.0,0.0,0.0,monload-611_runway,,,,,,,,2.4,,,0.0
127,0.0,,0.0,,0.0,0.0,0.0,0.0,0.0,0.0,monload-611_runway,,,,,,,,2.4,,,0.0
128,0.0,,0.0,,0.0,0.0,0.0,0.0,0.0,0.0,monload-611_runway,,,,,,,,2.4,,,0.0
129,0.0,,0.0,,0.0,0.0,0.0,0.0,0.0,0.0,monload-611_runway,,,,,,,,2.4,,,0.0
130,0.0,,0.0,,0.0,0.0,0.0,0.0,0.0,0.0,monload-611_runway,,,,,,,,2.4,,,0.0
131,0.0,,0.0,,0.0,0.0,0.0,0.0,0.0,0.0,monload-611_runway,,,,,,,,2.4,,,0.0
132,0.0,,0.0,,0.0,0.0,0.0,0.0,0.0,0.0,monload-611_runway,,,,,,,,2.4,,,0.0
133,0.0,,0.0,,0.0,0.0,0.0,0.0,0.0,0.0,monload-611_runway,,,,,,,,2.4,,,0.0
134,0.0,,0.0,,0.0,0.0,0.0,0.0,0.0,0.0,monload-611_runway,,,,,,,,2.4,,,0.0
135,0.0,,0.0,,0.0,0.0,0.0,0.0,0.0,0.0,monload-611_runway,,,,,,,,2.4,,,0.0
136,0.0,,0.0,,0.0,0.0,0.0,0.0,0.0,0.0,monload-611_runway,,,,,,,,2.4,,,0.0
137,0.0,,0.0,,0.0,0.0,0.0,0.0,0.0,0.0,monload-611_runway,,,,,,,,2.4,,,0.0
138,0.0,,0.0,,0.0,0.0,0.0,0.0,0.0,0.0,monload-611_runway,,,,,,,,2.4,,,0.0
139,0.0,,0.0,,0.0,0.0,0.0,0.0,0.0,0.0,monload-611_runway,,,,,,,,2.4,,,0.0
140,0.0,,0.0,,0.0,0.0,0.0,0.0,0.0,0.0,monload-611_runway,,,,,,,,2.4,,,0.0
141,0.0,,0.0,,0.0,0.0,0.0,0.0,0.0,0.0,monload-611_runway,,,,,,,,2.4,,,0.0
142,0.0,,0.0,,0.0,0.0,0.0,0.0,0.0,0.0,monload-611_runway,,,,,,,,2.4,,,0.0
143,0.0,,0.0,,0.0,0.0,0.0,0.0,0.0,0.0,monload-611_runway,,,,,,,,2.4,,,0.0
144,0.0,,0.0,,0.0,0.0,0.0,0.0,0.0,0.0,monload-611_runway,,,,,,,,2.4,,,0.0
145,0.0,,0.0,,0.0,0.0,0.0,0.0,0.0,0.0,monload-611_runway,,,,,,,,2.4,,,0.0
146,0.0,,0.0,,0.0,0.0,0.0,0.0,0.0,0.0,monload-611_runway,,,,,,,,2.4,,,0.0
147,0.0,,0.0,,0.0,0.0,0.0,0.0,0.0,0.0,monload-611_runway,,,,,,,,2.4,,,0.0
148,0.0,,0.0,,0.0,0.0,0.0,0.0,0.0,0.0,monload-611_runway,,,,,,,,2.4,,,0.0
149,0.0,,0.0,,0.0,0.0,0.0,0.0,0.0,0.0,monload-611_runway,,,,,,,,2.4,,,0.0
150,0.0,,0.0,,0.0,0.0,0.0,0.0,0.0,0.0,monload-611_runway,,,,,,,,2.4,,,0.0
151,0.0,,0.0,,0.0,0.0,0.0,0.0,0.0,0.0,monload-611_runway,,,,,,,,2.4,,,0.0
152,0.0,,0.0,,0.0,0.0,0.0,0.0,0.0,0.0,monload-611_runway,,,,,,,,2.4,,,0.0
153,0.0,,0.0,,0.0,0.0,0.0,0.0,0.0,0.0,monload-611_runway,,,,,,,,2.4,,,0.0
154,0.0,,0.0,,0.0,0.0,0.0,0.0,0.0,0.0,monload-611_runway,,,,,,,,2.4,,,0.0
155,0.0,,0.0,,0.0,0.0,0.0,0.0,0.0,0.0,monload-611_runway,,,,,,,,2.4,,,0.0
156,0.0,,0.0,,0.0,0.0,0.0,0.0,0.0,0.0,monload-611_runway,,,,,,,,2.4,,,0.0
157,0.0,,0.0,,0.0,0.0,0.0,0.0,0.0,0.0,monload-611_runway,,,,,,,,2.4,,,0.0
158,0.0,,0.0,,0.0,0.0,0.0,0.0,0.0,0.0,monload-611_runway,,,,,,,,2.4,,,0.0
159,0.0,,0.0,,0.0,0.0,0.0,0.0,0.0,0.0,monload-611_runway,,,,,,,,2.4,,,0.0
160,0.0,,0.0,,0.0,0.0,0.0,0.0,0.0,0.0,monload-611_runway,,,,,,,,2.4,,,0.0
161,0.0,,0.0,,0.0,0.0,0.0,0.0,0.0,0.0,monload-611_runway,,,,,,,,2.4,,,0.0
162,0.0,,0.0,,0.0,0.0,0.0,0.0,0.0,0.0,monload-611_runway,,,,,,,,2.4,,,0.0
163,0.0,,0.0,,0.0,0.0,0.0,0.0,0.0,0.0,monload-611_runway,,,,,,,,2.4,,,0.0
164,0.0,,0.0,,0.0,0.0,0.0,0.0,0.0,0.0,monload-611_runway,,,,,,,,2.4,,,0.0
165,0.0,,0.0,,0.0,0.0,0.0,0.0,0.0,0.0,monload-611_runway,,,,,,,,2.4,,,0.0
166,0.0,,0.0,,0.0,0.0,0.0,0.0,0.0,0.0,monload-611_runway,,,,,,,,2.4,,,0.0
167,0.0,,0.0,,0.0,0.0,0.0,0.0,0.0,0.0,monload-611_runway,,,,,,,,2.4,,,0.0
168,0.0,,0.0,,0.0,0.0,0.0,0.0,0.0,0.0,monload-611_runway,,,,,,,,2.4,,,0.0
169,0.0,,0.0,,0.0,0.0,0.0,0.0,0.0,0.0,monload-611_runway,,,,,,,,2.4,,,0.0
170,0.0,,0.0,,0.0,0.0,0.0,0.0,0.0,0.0,monload-611_runway,,,,,,,,2.4,,,0.0
171,0.0,,0.0,,0.0,0.0,0.0,0.0,0.0,0.0,monload-611_runway,,,,,,,,2.4,,,0.0
172,0.0,,0.0,,0.0,0.0,0.0,0.0,0.0,0.0,monload-611_runway,,,,,,,,2.4,,,0.0
173,0.0,,0.0,,0.0,0.0,0.0,0.0,0.0,0.0,monload-611_runway,,,,,,,,2.4,,,0.0
174,0.0,,0.0,,0.0,0.0,0.0,0.0,0.0,0.0,monload-611_runway,,,,,,,,2.4,,,0.0
175,0.0,,0.0,,0.0,0.0,0.0,0.0,0.0,0.0,monload-611_runway,,,,,,,,2.4,,,0.0
176,0.0,,0.0,,0.0,0.0,0.0,0.0,0.0,0.0,monload-611_runway,,,,,,,,2.4,,,0.0
177,0.0,,0.0,,0.0,0.0,0.0,0.0,0.0,0.0,monload-611_runway,,,,,,,,2.4,,,0.0
178,0.0,,0.0,,0.0,0.0,0.0,0.0,0.0,0.0,monload-611_runway,,,,,,,,2.4,,,0.0
179,0.0,,0.0,,0.0,0.0,0.0,0.0,0.0,0.0,monload-611_runway,,,,,,,,2.4,,,0.0
180,0.0,,111.098,,0.0,38.1499,111.098,38.1499,-68.9022,2410.4,monload-611_runway,,,,,,,,2.4,,,1.0043333333333333
181,0.0,,113.13,,0.0,38.4204,113.132,38.4204,-66.8681,2498.15,monload-611_runway,,,,,,,,2.4,,,1.0408958333333334
182,0.0,,113.109,,0.0,39.8211,113.111,39.8211,-66.889,2497.2,monload-611_runway,,,,,,,,2.4,,,1.0405
183,0.0,,113.24,,0.0,41.1387,113.245,41.1387,-66.7553,2487.89,monload-611_runway,,,,,,,,2.4,,,1.0366208333333333
184,0.0,,111.522,,0.0,40.2542,111.523,40.2542,-68.4767,2402.25,monload-611_runway,,,,,,,,2.4,,,1.0009375
185,0.0,,110.24,,0.0,39.4232,110.24,39.4232,-69.7603,2351.79,monload-611_runway,,,,,,,,2.4,,,0.9799125
186,0.0,,109.752,,0.0,41.61,109.752,41.61,-70.2476,2326.33,monload-611_runway,,,,,,,,2.4,,,0.9693041666666666
187,0.0,,109.738,,0.0,50.661,109.736,50.661,-70.264,2326.08,monload-611_runway,,,,,,,,2.4,,,0.9692
188,0.0,,109.796,,0.0,50.936,109.79,50.936,-70.21,2328.53,monload-611_runway,,,,,,,,2.4,,,0.9702208333333334
189,0.0,,109.88,,0.0,52.3523,109.88,52.3523,-70.1205,2332.01,monload-611_runway,,,,,,,,2.4,,,0.9716708333333334
190,0.0,,109.947,,0.0,50.5692,109.947,50.5692,-70.0533,2334.74,monload-611_runway,,,,,,,,2.4,,,0.9728083333333333
191,0.0,,110.201,,0.0,39.6945,110.201,39.6945,-69.7992,2344.91,monload-611_runway,,,,,,,,2.4,,,0.9770458333333333
192,0.0,,110.393,,0.0,26.4536,110.393,26.4536,-69.607,2352.23,monload-611_runway,,,,,,,,2.4,,,0.9800958333333334
193,0.0,,110.468,,0.0,21.0984,110.467,21.0984,-69.5329,2355.15,monload-611_runway,,,,,,,,2.4,,,0.9813125
194,0.0,,110.489,,0.0,19.0118,110.494,19.0118,-69.5063,2355.99,monload-611_runway,,,,,,,,2.4,,,0.9816624999999999
195,0.0,,110.5,,0.0,17.1605,110.5,17.1605,-69.5003,2356.47,monload-611_runway,,,,,,,,2.4,,,0.9818625
196,0.0,,110.492,,0.0,16.8089,110.493,16.8089,-69.5072,2356.15,monload-611_runway,,,,,,,,2.4,,,0.9817291666666667
197,0.0,,110.143,,0.0,17.2796,110.144,17.2796,-69.8564,2342.47,monload-611_runway,,,,,,,,2.4,,,0.9760291666666666
198,0.0,,110.071,,0.0,20.6862,110.076,20.6862,-69.9241,2339.64,monload-611_runway,,,,,,,,2.4,,,0.97485
199,0.0,,109.239,,0.0,33.257,109.238,33.257,-70.7617,2320.15,monload-611_runway,,,,,,,,2.4,,,0.9667291666666668
200,0.0,,108.825,,0.0,36.3559,108.827,36.3559,-71.1734,2301.84,monload-611_runway,,,,,,,,2.4,,,0.9591000000000001
201,0.0,,108.749,,0.0,33.1764,108.743,33.1764,-71.2569,2298.84,monload-611_runway,,,,,,,,2.4,,,0.9578500000000001
202,0.0,,110.048,,0.0,35.1894,110.048,35.1894,-69.9518,2366.06,monload-611_runway,,,,,,,,2.4,,,0.9858583333333333
203,0.0,,109.852,,0.0,30.9635,109.851,30.9635,-70.1492,2356.06,monload-611_runway,,,,,,,,2.4,,,0.9816916666666666
204,0.0,,112.116,,0.0,34.0175,112.119,34.0175,-67.8811,2454.24,monload-611_runway,,,,,,,,2.4,,,1.0226
205,0.0,,111.97,,0.0,36.5232,111.974,36.5232,-68.0259,2446.7,monload-611_runway,,,,,,,,2.4,,,1.0194583333333334
206,0.0,,108.459,,0.0,37.968,108.458,37.968,-71.5425,2285.38,monload-611_runway,,,,,,,,2.4,,,0.9522416666666668
207,0.0,,108.916,,0.0,38.9807,108.915,38.9807,-71.0854,2308.83,monload-611_runway,,,,,,,,2.4,,,0.9620124999999999
208,0.0,,108.488,,0.0,36.5803,108.491,36.5803,-71.5089,2286.96,monload-611_runway,,,,,,,,2.4,,,0.9529
209,0.0,,108.41,,0.0,36.2227,108.411,36.2227,-71.5887,2282.9,monload-611_runway,,,,,,,,2.4,,,0.9512083333333333
210,0.0,,108.474,,0.0,40.7986,108.47,40.7986,-71.5303,2284.74,monload-611_runway,,,,,,,,2.4,,,0.9519749999999999
211,0.0,,109.152,,0.0,46.536,109.15,46.536,-70.8495,2316.16,monload-611_runway,,,,,,,,2.4,,,0.9650666666666666
212,0.0,,109.136,,0.0,48.3977,109.137,48.3977,-70.8628,2315.53,monload-611_runway,,,,,,,,2.4,,,0.9648041666666668
213,0.0,,109.468,,0.0,52.3358,109.464,52.3358,-70.5364,2330.15,monload-611_runway,,,,,,,,2.4,,,0.9708958333333334
214,0.0,,109.599,,0.0,49.8536,109.598,49.8536,-70.4024,2335.77,monload-611_runway,,,,,,,,2.4,,,0.9732375
215,0.0,,110.042,,0.0,38.3082,110.042,38.3082,-69.9577,2353.88,monload-611_runway,,,,,,,,2.4,,,0.9807833333333333
216,0.0,,110.208,,0.0,27.4534,110.207,27.4534,-69.7929,2360.5,monload-611_runway,,,,,,,,2.4,,,0.9835416666666666
217,0.0,,110.329,,0.0,24.2756,110.327,24.2756,-69.673,2365.28,monload-611_runway,,,,,,,,2.4,,,0.9855333333333334
218,0.0,,110.375,,0.0,23.0495,110.376,23.0495,-69.6236,2367.08,monload-611_runway,,,,,,,,2.4,,,0.9862833333333333
219,0.0,,110.418,,0.0,21.3811,110.414,21.3811,-69.5862,2368.76,monload-611_runway,,,,,,,,2.4,,,0.9869833333333334
