hour,t(sec),V1,VAngle1,V2,VAngle2,I1,IAngle1,I2,IAngle2,V3,Name,VAngle3,I3,IAngle3,V4,VAngle4,I4,IAngle4,kv,V1(PU),V2(PU),V3(PU)
1,0.0,,111.165,,0.0,20.2518,111.168,20.2518,-68.8322,2404.75,monload-611_runway,,,,,,,,2.4,,,1.0019791666666666
2,0.0,,111.154,,0.0,21.49,111.155,21.49,-68.8454,2404.39,monload-611_runway,,,,,,,,2.4,,,1.0018291666666665
3,0.0,,111.18,,0.0,18.735,111.178,18.735,-68.8216,2405.55,monload-611_runway,,,,,,,,2.4,,,1.0023125000000002
4,0.0,,111.186,,0.0,18.1696,111.185,18.1696,-68.8146,2405.8,monload-611_runway,,,,,,,,2.4,,,1.0024166666666667
5,0.0,,110.956,,0.0,18.3433,110.958,18.3433,-69.0419,2395.04,monload-611_runway,,,,,,,,2.4,,,0.9979333333333333
6,0.0,,110.811,,0.0,19.8621,110.813,19.8621,-69.1873,2388.05,monload-611_runway,,,,,,,,2.4,,,0.9950208333333334
7,0.0,,109.955,,0.0,29.8483,109.956,29.8483,-70.0443,2347.92,monload-611_runway,,,,,,,,2.4,,,0.9783000000000001
8,0.0,,110.086,,0.0,31.8618,110.085,31.8618,-69.9155,2354.03,monload-611_runway,,,,,,,,2.4,,,0.9808458333333334
9,0.0,,109.561,,0.0,44.0268,109.562,44.0268,-70.438,2329.8,monload-611_runway,,,,,,,,2.4,,,0.9707500000000001
10,0.0,,109.813,,0.0,37.8158,109.81,37.8158,-70.1899,2341.73,monload-611_runway,,,,,,,,2.4,,,0.9757208333333334
11,0.0,,110.097,,0.0,26.7204,110.094,26.7204,-69.906,2354.98,monload-611_runway,,,,,,,,2.4,,,0.9812416666666667
12,0.0,,110.115,,0.0,25.0426,110.115,25.0426,-69.8851,2355.76,monload-611_runway,,,,,,,,2.4,,,0.9815666666666668
13,0.0,,110.149,,0.0,24.9564,110.149,24.9564,-69.851,2357.35,monload-611_runway,,,,,,,,2.4,,,0.9822291666666666
14,0.0,,110.207,,0.0,24.9959,110.206,24.9959,-69.7941,2360.06,monload-611_runway,,,,,,,,2.4,,,0.9833583333333333
15,0.0,,110.2,,0.0,24.9268,110.2,24.9268,-69.7998,2359.75,monload-611_runway,,,,,,,,2.4,,,0.9832291666666667
16,0.0,,110.161,,0.0,24.7866,110.165,24.7866,-69.8352,2357.86,monload-611_runway,,,,,,,,2.4,,,0.9824416666666668
17,0.0,,110.052,,0.0,25.989,110.054,25.989,-69.9464,2352.26,monload-611_runway,,,,,,,,2.4,,,0.9801083333333335
18,0.0,,109.802,,0.0,31.4301,109.804,31.4301,-70.1959,2340.08,monload-611_runway,,,,,,,,2.4,,,0.9750333333333333
19,0.0,,109.533,,0.0,43.1551,109.535,43.1551,-70.4654,2327.47,monload-611_runway,,,,,,,,2.4,,,0.9697791666666666
20,0.0,,109.545,,0.0,45.3034,109.545,45.3034,-70.4554,2328.18,monload-611_runway,,,,,,,,2.4,,,0.9700749999999999
21,0.0,,109.712,,0.0,47.8087,109.71,47.8087,-70.2897,2336.15,monload-611_runway,,,,,,,,2.4,,,0.9733958333333333
22,0.0,,109.908,,0.0,46.4444,109.907,46.4444,-70.0932,2345.74,monload-611_runway,,,,,,,,2.4,,,0.9773916666666665
23,0.0,,110.472,,0.0,35.6973,110.468,35.6973,-69.5322,2372.34,monload-611_runway,,,,,,,,2.4,,,0.9884750000000001
24,0.0,,110.879,,0.0,22.9122,110.876,22.9122,-69.1244,2391.24,monload-611_runway,,,,,,,,2.4,,,0.99635
25,0.0,,111.024,,0.0,18.6667,111.023,18.6667,-68.9769,2398.13,monload-611_runway,,,,,,,,2.4,,,0.9992208333333333
26,0.0,,111.032,,0.0,17.8494,111.032,17.8494,-68.9682,2398.5,monload-611_runway,,,,,,,,2.4,,,0.999375
27,0.0,,111.05,,0.0,16.9263,111.049,16.9263,-68.9515,2399.27,monload-611_runway,,,,,,,,2.4,,,0.9996958333333333
28,0.0,,111.052,,0.0,17.0116,111.052,17.0116,-68.9485,2399.35,monload-611_runway,,,,,,,,2.4,,,0.9997291666666667
29,0.0,,110.238,,0.0,17.6802,110.239,17.6802,-69.7613,2361.33,monload-611_runway,,,,,,,,2.4,,,0.9838874999999999
30,0.0,,109.927,,0.0,21.26,109.929,21.26,-70.0707,2346.53,monload-611_runway,,,,,,,,2.4,,,0.9777208333333334
31,0.0,,108.051,,0.0,33.062,108.055,33.062,-71.9455,2272.07,monload-611_runway,,,,,,,,2.4,,,0.9466958333333334
32,0.0,,107.383,,0.0,34.2012,107.383,34.2012,-72.6165,2239.62,monload-611_runway,,,,,,,,2.4,,,0.933175
33,0.0,,107.263,,0.0,30.1235,107.263,30.1235,-72.7372,2234.24,monload-611_runway,,,,,,,,2.4,,,0.9309333333333333
34,0.0,,107.085,,0.0,30.3199,107.086,30.3199,-72.9144,2225.98,monload-611_runway,,,,,,,,2.4,,,0.9274916666666667
35,0.0,,107.15,,0.0,24.5447,107.15,24.5447,-72.8502,2229.28,monload-611_runway,,,,,,,,2.4,,,0.9288666666666667
36,0.0,,106.983,,0.0,25.2919,106.971,25.2919,-73.0288,2220.96,monload-611_runway,,,,,,,,2.4,,,0.9254
37,0.0,,107.12,,0.0,25.7734,107.128,25.7734,-72.8715,2227.7,monload-611_runway,,,,,,,,2.4,,,0.9282083333333333
38,0.0,,106.982,,0.0,24.6818,106.982,24.6818,-73.0179,2220.98,monload-611_runway,,,,,,,,2.4,,,0.9254083333333334
39,0.0,,107.015,,0.0,23.856,107.014,23.856,-72.9856,2222.52,monload-611_runway,,,,,,,,2.4,,,0.92605
40,0.0,,106.977,,0.0,24.0664,106.977,24.0664,-73.0232,2220.51,monload-611_runway,,,,,,,,2.4,,,0.9252125000000001
41,0.0,,106.805,,0.0,25.2204,106.809,25.2204,-73.1906,2225.66,monload-611_runway,,,,,,,,2.4,,,0.9273583333333333
42,0.0,,106.759,,0.0,30.8131,106.756,30.8131,-73.2438,2222.09,monload-611_runway,,,,,,,,2.4,,,0.9258708333333334
43,0.0,,107.89,,0.0,38.7616,107.889,38.7616,-72.1107,2277.93,monload-611_runway,,,,,,,,2.4,,,0.9491375
44,0.0,,107.885,,0.0,41.1364,107.885,41.1364,-72.1152,2277.82,monload-611_runway,,,,,,,,2.4,,,0.9490916666666668
45,0.0,,108.71,,0.0,45.1231,108.706,45.1231,-71.2937,2318.1,monload-611_runway,,,,,,,,2.4,,,0.9658749999999999
46,0.0,,109.142,,0.0,42.3023,109.14,42.3023,-70.8596,2339.28,monload-611_runway,,,,,,,,2.4,,,0.9747000000000001
47,0.0,,110.148,,0.0,30.8497,110.152,30.8497,-69.8478,2372.12,monload-611_runway,,,,,,,,2.4,,,0.9883833333333333
48,0.0,,110.507,,0.0,21.1497,110.503,21.1497,-69.4972,2389.03,monload-611_runway,,,,,,,,2.4,,,0.9954291666666667
49,0.0,,110.66,,0.0,18.8942,110.658,18.8942,-69.3417,2396.39,monload-611_runway,,,,,,,,2.4,,,0.9984958333333332
50,0.0,,110.704,,0.0,18.3946,110.699,18.3946,-69.3007,2398.44,monload-611_runway,,,,,,,,2.4,,,0.9993500000000001
51,0.0,,110.758,,0.0,17.8874,110.752,17.8874,-69.2478,2400.94,monload-611_runway,,,,,,,,2.4,,,1.0003916666666668
52,0.0,,110.754,,0.0,18.4384,110.754,18.4384,-69.2461,2400.72,monload-611_runway,,,,,,,,2.4,,,1.0003
53,0.0,,109.926,,0.0,19.6598,109.927,19.6598,-70.0727,2361.66,monload-611_runway,,,,,,,,2.4,,,0.9840249999999999
54,0.0,,109.596,,0.0,23.9779,109.6,23.9779,-70.4002,2345.78,monload-611_runway,,,,,,,,2.4,,,0.9774083333333334
55,0.0,,107.763,,0.0,35.3532,107.765,35.3532,-72.2354,2257.93,monload-611_runway,,,,,,,,2.4,,,0.9408041666666666
56,0.0,,107.121,,0.0,35.0867,107.129,35.0867,-72.8715,2226.64,monload-611_runway,,,,,,,,2.4,,,0.9277666666666666
57,0.0,,107.054,,0.0,30.7361,107.043,30.7361,-72.9572,2223.83,monload-611_runway,,,,,,,,2.4,,,0.9265958333333333
58,0.0,,106.917,,0.0,30.5595,106.921,30.5595,-73.0786,2231.83,monload-611_runway,,,,,,,,2.4,,,0.9299291666666666
59,0.0,,107.085,,0.0,24.3263,107.087,24.3263,-72.9128,2240.22,monload-611_runway,,,,,,,,2.4,,,0.933425
60,0.0,,107.096,,0.0,25.4359,107.096,25.4359,-72.904,2240.54,monload-611_runway,,,,,,,,2.4,,,0.9335583333333333
61,0.0,,107.285,,0.0,26.7215,107.286,26.7215,-72.714,2249.74,monload-611_runway,,,,,,,,2.4,,,0.9373916666666666
62,0.0,,107.055,,0.0,27.0526,107.055,27.0526,-72.9446,2238.43,monload-611_runway,,,,,,,,2.4,,,0.9326791666666666
63,0.0,,107.019,,0.0,27.3804,107.019,27.3804,-72.9809,2236.6,monload-611_runway,,,,,,,,2.4,,,0.9319166666666666
64,0.0,,106.96,,0.0,27.4746,106.958,27.4746,-73.0415,2233.52,monload-611_runway,,,,,,,,2.4,,,0.9306333333333333
65,0.0,,106.8,,0.0,27.7943,106.8,27.7943,-73.2002,2225.16,monload-611_runway,,,,,,,,2.4,,,0.9271499999999999
66,0.0,,106.881,,0.0,31.818,106.881,31.818,-73.1186,2228.17,monload-611_runway,,,,,,,,2.4,,,0.9284041666666667
67,0.0,,108.162,,0.0,38.728,108.155,38.728,-71.8447,2291.24,monload-611_runway,,,,,,,,2.4,,,0.9546833333333332
68,0.0,,108.172,,0.0,40.8709,108.172,40.8709,-71.8283,2291.84,monload-611_runway,,,,,,,,2.4,,,0.9549333333333334
69,0.0,,108.997,,0.0,44.806,108.994,44.806,-71.0061,2331.96,monload-611_runway,,,,,,,,2.4,,,0.97165
70,0.0,,109.339,,0.0,41.9513,109.339,41.9513,-70.6607,2333.86,monload-611_runway,,,,,,,,2.4,,,0.9724416666666668
71,0.0,,110.359,,0.0,30.874,110.357,30.874,-69.6426,2382.07,monload-611_runway,,,,,,,,2.4,,,0.9925291666666667
72,0.0,,110.729,,0.0,21.1947,110.724,21.1947,-69.2762,2399.53,monload-611_runway,,,,,,,,2.4,,,0.9998041666666667
73,0.0,,110.918,,0.0,18.5785,110.921,18.5785,-69.0788,2393.23,monload-611_runway,,,,,,,,2.4,,,0.9971791666666667
74,0.0,,110.946,,0.0,17.7129,110.944,17.7129,-69.0564,2394.54,monload-611_runway,,,,,,,,2.4,,,0.997725
75,0.0,,110.977,,0.0,16.7422,110.974,16.7422,-69.0256,2395.98,monload-611_runway,,,,,,,,2.4,,,0.998325
76,0.0,,110.974,,0.0,16.8093,110.974,16.8093,-69.0256,2395.84,monload-611_runway,,,,,,,,2.4,,,0.9982666666666667
77,0.0,,110.158,,0.0,17.5128,110.159,17.5128,-69.8414,2357.65,monload-611_runway,,,,,,,,2.4,,,0.9823541666666668
78,0.0,,109.953,,0.0,20.9229,109.955,20.9229,-70.0452,2347.83,monload-611_runway,,,,,,,,2.4,,,0.9782624999999999
79,0.0,,108.041,,0.0,32.5926,108.045,32.5926,-71.9546,2271.59,monload-611_runway,,,,,,,,2.4,,,0.9464958333333334
80,0.0,,107.338,,0.0,34.3054,107.339,34.3054,-72.6609,2237.49,monload-611_runway,,,,,,,,2.4,,,0.9322874999999999
81,0.0,,107.205,,0.0,30.1269,107.206,30.1269,-72.7945,2231.43,monload-611_runway,,,,,,,,2.4,,,0.9297624999999999
82,0.0,,107.063,,0.0,29.3364,107.054,29.3364,-72.9462,2224.82,monload-611_runway,,,,,,,,2.4,,,0.9270083333333334
83,0.0,,107.183,,0.0,22.5543,107.189,22.5543,-72.8113,2230.7,monload-611_runway,,,,,,,,2.4,,,0.9294583333333333
84,0.0,,107.081,,0.0,23.0291,107.081,23.0291,-72.919,2225.85,monload-611_runway,,,,,,,,2.4,,,0.9274374999999999
85,0.0,,107.213,,0.0,24.1881,107.221,24.1881,-72.7792,2232.3,monload-611_runway,,,,,,,,2.4,,,0.9301250000000001
86,0.0,,106.96,,0.0,25.3379,106.961,25.3379,-73.0391,2220.05,monload-611_runway,,,,,,,,2.4,,,0.9250208333333334
87,0.0,,106.861,,0.0,25.7854,106.866,25.7854,-73.1342,2229.17,monload-611_runway,,,,,,,,2.4,,,0.9288208333333333
88,0.0,,106.77,,0.0,25.6564,106.77,25.6564,-73.2296,2224.46,monload-611_runway,,,,,,,,2.4,,,0.9268583333333333
89,0.0,,106.567,,0.0,26.7189,106.567,26.7189,-73.4329,2213.82,monload-611_runway,,,,,,,,2.4,,,0.922425
90,0.0,,106.49,,0.0,32.7066,106.49,32.7066,-73.5102,2208.68,monload-611_runway,,,,,,,,2.4,,,0.9202833333333332
91,0.0,,107.659,,0.0,41.2069,107.659,41.2069,-72.3408,2266.66,monload-611_runway,,,,,,,,2.4,,,0.9444416666666666
92,0.0,,107.676,,0.0,44.2905,107.676,44.2905,-72.3237,2267.66,monload-611_runway,,,,,,,,2.4,,,0.9448583333333332
93,0.0,,108.479,,0.0,49.2734,108.476,49.2734,-71.5236,2307.05,monload-611_runway,,,,,,,,2.4,,,0.9612708333333334
94,0.0,,108.898,,0.0,46.4184,108.896,46.4184,-71.1037,2327.67,monload-611_runway,,,,,,,,2.4,,,0.9698625000000001
95,0.0,,109.897,,0.0,34.3923,109.902,34.3923,-70.0981,2360.49,monload-611_runway,,,,,,,,2.4,,,0.9835375
96,0.0,,110.28,,0.0,24.0131,110.275,24.0131,-69.725,2378.65,monload-611_runway,,,,,,,,2.4,,,0.9911041666666667
97,0.0,,110.5,,0.0,21.7964,110.497,21.7964,-69.5026,2389.22,monload-611_runway,,,,,,,,2.4,,,0.9955083333333332
98,0.0,,110.552,,0.0,20.8093,110.546,20.8093,-69.4542,2391.66,monload-611_runway,,,,,,,,2.4,,,0.996525
99,0.0,,110.595,,0.0,19.5335,110.59,19.5335,-69.4097,2393.69,monload-611_runway,,,,,,,,2.4,,,0.9973708333333333
100,0.0,,110.656,,0.0,19.3539,110.655,19.3539,-69.3449,2396.52,monload-611_runway,,,,,,,,2.4,,,0.9985499999999999
101,0.0,,109.933,,0.0,19.795,109.934,19.795,-70.0656,2362.34,monload-611_runway,,,,,,,,2.4,,,0.9843083333333333
102,0.0,,109.632,,0.0,23.6849,109.636,23.6849,-70.3636,2347.88,monload-611_runway,,,,,,,,2.4,,,0.9782833333333334
103,0.0,,107.636,,0.0,37.9235,107.637,37.9235,-72.3629,2251.95,monload-611_runway,,,,,,,,2.4,,,0.9383124999999999
104,0.0,,106.886,,0.0,41.711,106.891,41.711,-73.1092,2229.59,monload-611_runway,,,,,,,,2.4,,,0.9289958333333334
105,0.0,,106.675,,0.0,38.6529,106.675,38.6529,-73.3246,2219.58,monload-611_runway,,,,,,,,2.4,,,0.924825
106,0.0,,106.255,,0.0,40.8583,106.256,40.8583,-73.7439,2198.57,monload-611_runway,,,,,,,,2.4,,,0.9160708333333334
107,0.0,,106.159,,0.0,35.2968,106.159,35.2968,-73.8407,2193.18,monload-611_runway,,,,,,,,2.4,,,0.9138249999999999
108,0.0,,106.299,,0.0,33.6396,106.306,33.6396,-73.6939,2200.43,monload-611_runway,,,,,,,,2.4,,,0.9168458333333332
109,0.0,,106.545,,0.0,34.2256,106.544,34.2256,-73.4557,2212.43,monload-611_runway,,,,,,,,2.4,,,0.9218458333333333
110,0.0,,106.314,,0.0,34.8247,106.303,34.8247,-73.6968,2200.98,monload-611_runway,,,,,,,,2.4,,,0.917075
111,0.0,,106.281,,0.0,35.1886,106.281,35.1886,-73.7195,2199.15,monload-611_runway,,,,,,,,2.4,,,0.9163125000000001
112,0.0,,106.301,,0.0,34.5173,106.301,34.5173,-73.699,2200.07,monload-611_runway,,,,,,,,2.4,,,0.9166958333333334
113,0.0,,106.224,,0.0,35.8665,106.224,35.8665,-73.776,2195.67,monload-611_runway,,,,,,,,2.4,,,0.9148625
114,0.0,,106.373,,0.0,40.8283,106.373,40.8283,-73.627,2202.2,monload-611_runway,,,,,,,,2.4,,,0.9175833333333333
115,0.0,,107.729,,0.0,48.0622,107.728,48.0622,-72.2716,2269.61,monload-611_runway,,,,,,,,2.4,,,0.9456708333333333
116,0.0,,107.783,,0.0,50.7065,107.783,50.7065,-72.2175,2272.53,monload-611_runway,,,,,,,,2.4,,,0.9468875000000001
117,0.0,,108.602,,0.0,55.1034,108.6,55.1034,-71.4005,2312.64,monload-611_runway,,,,,,,,2.4,,,0.9635999999999999
118,0.0,,109.037,,0.0,52.4571,109.035,52.4571,-70.9646,2334.03,monload-611_runway,,,,,,,,2.4,,,0.9725125000000001
119,0.0,,110.084,,0.0,40.733,110.088,40.733,-69.9116,2369.09,monload-611_runway,,,,,,,,2.4,,,0.9871208333333334
120,0.0,,110.527,,0.0,29.5798,110.522,29.5798,-69.478,2390.1,monload-611_runway,,,,,,,,2.4,,,0.995875
121,0.0,,110.803,,0.0,25.8806,110.806,25.8806,-69.1937,2388.06,monload-611_runway,,,,,,,,2.4,,,0.9950249999999999
122,0.0,,110.853,,0.0,24.5759,110.848,24.5759,-69.1517,2390.41,monload-611_runway,,,,,,,,2.4,,,0.9960041666666666
123,0.0,,110.902,,0.0,22.9971,110.897,22.9971,-69.1027,2392.67,monload-611_runway,,,,,,,,2.4,,,0.9969458333333333
124,0.0,,110.925,,0.0,22.3842,110.923,22.3842,-69.0775,2393.78,monload-611_runway,,,,,,,,2.4,,,0.9974083333333335
125,0.0,,110.104,,0.0,22.8134,110.105,22.8134,-69.8952,2355.34,monload-611_runway,,,,,,,,2.4,,,0.9813916666666668
126,0.0,,109.849,,0.0,26.7316,109.852,26.7316,-70.1479,2343.17,monload-611_runway,,,,,,,,2.4,,,0.9763208333333334
127,0.0,,107.856,,0.0,40.976,107.86,40.976,-72.1395,2262.66,monload-611_runway,,,,,,,,2.4,,,0.9427749999999999
128,0.0,,107.069,,0.0,44.3761,107.07,44.3761,-72.9296,2224.3,monload-611_runway,,,,,,,,2.4,,,0.9267916666666668
129,0.0,,106.616,,0.0,42.7541,106.621,42.7541,-73.3792,2215.9,monload-611_runway,,,,,,,,2.4,,,0.9232916666666667
130,0.0,,106.36,,0.0,42.7809,106.36,42.7809,-73.6396,2203.23,monload-611_runway,,,,,,,,2.4,,,0.9180125
131,0.0,,106.314,,0.0,36.903,106.314,36.903,-73.6864,2200.28,monload-611_runway,,,,,,,,2.4,,,0.9167833333333334
132,0.0,,106.194,,0.0,37.4959,106.194,37.4959,-73.806,2194.08,monload-611_runway,,,,,,,,2.4,,,0.9142
133,0.0,,106.343,,0.0,38.3027,106.343,38.3027,-73.6567,2201.28,monload-611_runway,,,,,,,,2.4,,,0.9172000000000001
134,0.0,,106.102,,0.0,38.6297,106.103,38.6297,-73.8974,2189.4,monload-611_runway,,,,,,,,2.4,,,0.91225
135,0.0,,106.129,,0.0,38.3642,106.129,38.3642,-73.8713,2190.75,monload-611_runway,,,,,,,,2.4,,,0.9128125
136,0.0,,106.18,,0.0,37.1962,106.18,37.1962,-73.8199,2193.33,monload-611_runway,,,,,,,,2.4,,,0.9138875
137,0.0,,106.161,,0.0,36.32,106.161,36.32,-73.8393,2192.24,monload-611_runway,,,,,,,,2.4,,,0.9134333333333332
138,0.0,,106.305,,0.0,41.2815,106.304,41.2815,-73.6955,2198.5,monload-611_runway,,,,,,,,2.4,,,0.9160416666666666
139,0.0,,107.509,,0.0,49.4763,107.508,49.4763,-72.4915,2258.34,monload-611_runway,,,,,,,,2.4,,,0.940975
140,0.0,,107.552,,0.0,52.2078,107.552,52.2078,-72.4478,2260.72,monload-611_runway,,,,,,,,2.4,,,0.9419666666666666
141,0.0,,108.296,,0.0,57.1881,108.294,57.1881,-71.7056,2297.26,monload-611_runway,,,,,,,,2.4,,,0.9571916666666668
142,0.0,,109.021,,0.0,51.6617,109.018,51.6617,-70.9821,2333.18,monload-611_runway,,,,,,,,2.4,,,0.9721583333333332
143,0.0,,110.28,,0.0,37.0848,110.284,37.0848,-69.7159,2378.57,monload-611_runway,,,,,,,,2.4,,,0.9910708333333335
144,0.0,,110.711,,0.0,25.3175,110.706,25.3175,-69.2935,2398.91,monload-611_runway,,,,,,,,2.4,,,0.9995458333333332
145,0.0,,110.884,,0.0,23.1146,110.888,23.1146,-69.1123,2391.91,monload-611_runway,,,,,,,,2.4,,,0.9966291666666666
146,0.0,,110.873,,0.0,22.7156,110.874,22.7156,-69.1257,2391.44,monload-611_runway,,,,,,,,2.4,,,0.9964333333333334
147,0.0,,110.935,,0.0,19.4987,110.93,19.4987,-69.0704,2394.24,monload-611_runway,,,,,,,,2.4,,,0.9975999999999999
148,0.0,,110.95,,0.0,19.1538,110.948,19.1538,-69.0515,2394.93,monload-611_runway,,,,,,,,2.4,,,0.9978874999999999
149,0.0,,110.724,,0.0,19.44,110.726,19.44,-69.274,2384.29,monload-611_runway,,,,,,,,2.4,,,0.9934541666666666
150,0.0,,110.576,,0.0,20.7921,110.577,20.7921,-69.4229,2377.12,monload-611_runway,,,,,,,,2.4,,,0.9904666666666666
151,0.0,,109.71,,0.0,30.6613,109.711,30.6613,-70.2886,2336.67,monload-611_runway,,,,,,,,2.4,,,0.9736125
152,0.0,,109.059,,0.0,32.5578,109.06,32.5578,-70.9398,2305.86,monload-611_runway,,,,,,,,2.4,,,0.960775
153,0.0,,108.927,,0.0,45.5458,108.928,45.5458,-71.0717,2300.2,monload-611_runway,,,,,,,,2.4,,,0.9584166666666666
154,0.0,,108.389,,0.0,40.5158,108.384,40.5158,-71.6163,2274.6,monload-611_runway,,,,,,,,2.4,,,0.94775
155,0.0,,108.504,,0.0,31.8154,108.504,31.8154,-71.4961,2279.83,monload-611_runway,,,,,,,,2.4,,,0.9499291666666666
156,0.0,,108.436,,0.0,31.2881,108.428,31.2881,-71.5722,2276.3,monload-611_runway,,,,,,,,2.4,,,0.9484583333333334
157,0.0,,108.619,,0.0,32.0281,108.617,32.0281,-71.3826,2284.72,monload-611_runway,,,,,,,,2.4,,,0.9519666666666666
158,0.0,,108.701,,0.0,31.7662,108.7,31.7662,-71.3001,2288.74,monload-611_runway,,,,,,,,2.4,,,0.9536416666666666
159,0.0,,108.679,,0.0,32.0361,108.679,32.0361,-71.3208,2287.56,monload-611_runway,,,,,,,,2.4,,,0.9531499999999999
160,0.0,,109.007,,0.0,33.0122,109.003,33.0122,-70.9968,2302.93,monload-611_runway,,,,,,,,2.4,,,0.9595541666666666
161,0.0,,108.866,,0.0,33.2851,108.868,33.2851,-71.132,2295.68,monload-611_runway,,,,,,,,2.4,,,0.9565333333333332
162,0.0,,108.808,,0.0,36.5459,108.809,36.5459,-71.1911,2292.83,monload-611_runway,,,,,,,,2.4,,,0.9553458333333333
163,0.0,,108.644,,0.0,47.5561,108.646,47.5561,-71.3539,2285.14,monload-611_runway,,,,,,,,2.4,,,0.9521416666666667
164,0.0,,108.687,,0.0,49.2997,108.686,49.2997,-71.3139,2287.32,monload-611_runway,,,,,,,,2.4,,,0.9530500000000001
165,0.0,,109.384,,0.0,51.8892,109.384,51.8892,-70.6163,2320.61,monload-611_runway,,,,,,,,2.4,,,0.9669208333333333
166,0.0,,109.568,,0.0,51.0972,109.566,51.0972,-70.4336,2329.71,monload-611_runway,,,,,,,,2.4,,,0.9707125
167,0.0,,110.178,,0.0,40.8171,110.178,40.8171,-69.8224,2358.71,monload-611_runway,,,,,,,,2.4,,,0.9827958333333333
168,0.0,,110.641,,0.0,27.8677,110.637,27.8677,-69.3629,2380.43,monload-611_runway,,,,,,,,2.4,,,0.9918458333333333
169,0.0,,111.006,,0.0,23.6005,111.003,23.6005,-68.9972,2397.56,monload-611_runway,,,,,,,,2.4,,,0.9989833333333333
170,0.0,,111.038,,0.0,23.0303,111.035,23.0303,-68.9648,2399.1,monload-611_runway,,,,,,,,2.4,,,0.999625
171,0.0,,111.123,,0.0,19.8099,111.123,19.8099,-68.8773,2402.97,monload-611_runway,,,,,,,,2.4,,,1.0012375
172,0.0,,111.13,,0.0,19.6465,111.129,19.6465,-68.8708,2403.27,monload-611_runway,,,,,,,,2.4,,,1.0013625
173,0.0,,110.879,,0.0,20.1694,110.881,20.1694,-69.1186,2391.52,monload-611_runway,,,,,,,,2.4,,,0.9964666666666666
174,0.0,,110.712,,0.0,21.5583,110.714,21.5583,-69.2863,2383.49,monload-611_runway,,,,,,,,2.4,,,0.9931208333333332
175,0.0,,109.836,,0.0,31.2002,109.837,31.2002,-70.163,2342.38,monload-611_runway,,,,,,,,2.4,,,0.9759916666666667
176,0.0,,109.963,,0.0,33.3904,109.962,33.3904,-70.0379,2348.29,monload-611_runway,,,,,,,,2.4,,,0.9784541666666666
177,0.0,,109.182,,0.0,49.5935,109.183,49.5935,-70.8167,2311.62,monload-611_runway,,,,,,,,2.4,,,0.963175
178,0.0,,109.009,,0.0,48.4258,109.011,48.4258,-70.9889,2302.86,monload-611_runway,,,,,,,,2.4,,,0.9595250000000001
179,0.0,,109.028,,0.0,39.6712,109.029,39.6712,-70.9708,2303.21,monload-611_runway,,,,,,,,2.4,,,0.9596708333333334
