hour,t(sec),V1,VAngle1,V2,VAngle2,I1,IAngle1,I2,IAngle2,V3,Name,VAngle3,I3,IAngle3,V4,VAngle4,I4,IAngle4,kv,V1(PU),V2(PU),V3(PU)
1,0.0,,111.165,,0.0,20.2518,111.168,20.2518,-68.8322,2404.75,monload-611_runway,,,,,,,,2.4,,,1.0019791666666666
2,0.0,,111.154,,0.0,21.49,111.155,21.49,-68.8454,2404.39,monload-611_runway,,,,,,,,2.4,,,1.0018291666666665
3,0.0,,111.18,,0.0,18.735,111.178,18.735,-68.8216,2405.55,monload-611_runway,,,,,,,,2.4,,,1.0023125000000002
4,0.0,,111.186,,0.0,18.1696,111.185,18.1696,-68.8146,2405.8,monload-611_runway,,,,,,,,2.4,,,1.0024166666666667
5,0.0,,110.956,,0.0,18.3433,110.958,18.3433,-69.0419,2395.04,monload-611_runway,,,,,,,,2.4,,,0.9979333333333333
6,0.0,,110.811,,0.0,19.8621,110.813,19.8621,-69.1873,2388.05,monload-611_runway,,,,,,,,2.4,,,0.9950208333333334
7,0.0,,109.955,,0.0,29.8483,109.956,29.8483,-70.0443,2347.92,monload-611_runway,,,,,,,,2.4,,,0.9783000000000001
8,0.0,,110.086,,0.0,31.8618,110.085,31.8618,-69.9155,2354.03,monload-611_runway,,,,,,,,2.4,,,0.9808458333333334
9,0.0,,109.561,,0.0,44.0268,109.562,44.0268,-70.438,2329.8,monload-611_runway,,,,,,,,2.4,,,0.9707500000000001
10,0.0,,109.813,,0.0,37.8158,109.81,37.8158,-70.1899,2341.73,monload-611_runway,,,,,,,,2.4,,,0.9757208333333334
11,0.0,,110.097,,0.0,26.7204,110.094,26.7204,-69.906,2354.98,monload-611_runway,,,,,,,,2.4,,,0.9812416666666667
12,0.0,,110.115,,0.0,25.0426,110.115,25.0426,-69.8851,2355.76,monload-611_runway,,,,,,,,2.4,,,0.9815666666666668
13,0.0,,110.149,,0.0,24.9564,110.149,24.9564,-69.851,2357.35,monload-611_runway,,,,,,,,2.4,,,0.9822291666666666
14,0.0,,110.207,,0.0,24.9959,110.206,24.9959,-69.7941,2360.06,monload-611_runway,,,,,,,,2.4,,,0.9833583333333333
15,0.0,,110.2,,0.0,24.9268,110.2,24.9268,-69.7998,2359.75,monload-611_runway,,,,,,,,2.4,,,0.9832291666666667
16,0.0,,110.161,,0.0,24.7866,110.165,24.7866,-69.8352,2357.86,monload-611_runway,,,,,,,,2.4,,,0.9824416666666668
17,0.0,,110.052,,0.0,25.989,110.054,25.989,-69.9464,2352.26,monload-611_runway,,,,,,,,2.4,,,0.9801083333333335
18,0.0,,109.802,,0.0,31.4301,109.804,31.4301,-70.1959,2340.08,monload-611_runway,,,,,,,,2.4,,,0.9750333333333333
19,0.0,,109.533,,0.0,43.1551,109.535,43.1551,-70.4654,2327.47,monload-611_runway,,,,,,,,2.4,,,0.9697791666666666
20,0.0,,109.545,,0.0,45.3034,109.545,45.3034,-70.4554,2328.18,monload-611_runway,,,,,,,,2.4,,,0.9700749999999999
21,0.0,,109.712,,0.0,47.8087,109.71,47.8087,-70.2897,2336.15,monload-611_runway,,,,,,,,2.4,,,0.9733958333333333
22,0.0,,109.908,,0.0,46.4444,109.907,46.4444,-70.0932,2345.74,monload-611_runway,,,,,,,,2.4,,,0.9773916666666665
23,0.0,,110.472,,0.0,35.6973,110.468,35.6973,-69.5322,2372.34,monload-611_runway,,,,,,,,2.4,,,0.9884750000000001
24,0.0,,110.879,,0.0,22.9122,110.876,22.9122,-69.1244,2391.24,monload-611_runway,,,,,,,,2.4,,,0.99635
25,0.0,,111.024,,0.0,18.6667,111.023,18.6667,-68.9769,2398.13,monload-611_runway,,,,,,,,2.4,,,0.9992208333333333
26,0.0,,111.032,,0.0,17.8494,111.032,17.8494,-68.9682,2398.5,monload-611_runway,,,,,,,,2.4,,,0.999375
27,0.0,,111.05,,0.0,16.9263,111.049,16.9263,-68.9515,2399.27,monload-611_runway,,,,,,,,2.4,,,0.9996958333333333
28,0.0,,111.052,,0.0,17.0116,111.052,17.0116,-68.9485,2399.35,monload-611_runway,,,,,,,,2.4,,,0.9997291666666667
29,0.0,,110.238,,0.0,17.6802,110.239,17.6802,-69.7613,2361.33,monload-611_runway,,,,,,,,2.4,,,0.9838874999999999
30,0.0,,109.927,,0.0,21.26,109.929,21.26,-70.0707,2346.53,monload-611_runway,,,,,,,,2.4,,,0.9777208333333334
31,0.0,,108.051,,0.0,33.062,108.055,33.062,-71.9455,2272.07,monload-611_runway,,,,,,,,2.4,,,0.9466958333333334
32,0.0,,107.383,,0.0,34.2012,107.383,34.2012,-72.6165,2239.62,monload-611_runway,,,,,,,,2.4,,,0.933175
33,0.0,,107.263,,0.0,30.1235,107.263,30.1235,-72.7372,2234.24,monload-611_runway,,,,,,,,2.4,,,0.9309333333333333
34,0.0,,107.085,,0.0,30.3199,107.086,30.3199,-72.9144,2225.98,monload-611_runway,,,,,,,,2.4,,,0.9274916666666667
35,0.0,,107.15,,0.0,24.5447,107.15,24.5447,-72.8502,2229.28,monload-611_runway,,,,,,,,2.4,,,0.9288666666666667
36,0.0,,106.983,,0.0,25.2919,106.971,25.2919,-73.0288,2220.96,monload-611_runway,,,,,,,,2.4,,,0.9254
37,0.0,,107.12,,0.0,25.7734,107.128,25.7734,-72.8715,2227.7,monload-611_runway,,,,,,,,2.4,,,0.9282083333333333
38,0.0,,106.982,,0.0,24.6818,106.982,24.6818,-73.0179,2220.98,monload-611_runway,,,,,,,,2.4,,,0.9254083333333334
39,0.0,,107.015,,0.0,23.856,107.014,23.856,-72.9856,2222.52,monload-611_runway,,,,,,,,2.4,,,0.92605
40,0.0,,106.977,,0.0,24.0664,106.977,24.0664,-73.0232,2220.51,monload-611_runway,,,,,,,,2.4,,,0.9252125000000001
41,0.0,,106.805,,0.0,25.2204,106.809,25.2204,-73.1906,2225.66,monload-611_runway,,,,,,,,2.4,,,0.9273583333333333
42,0.0,,106.759,,0.0,30.8131,106.756,30.8131,-73.2438,2222.09,monload-611_runway,,,,,,,,2.4,,,0.9258708333333334
43,0.0,,107.89,,0.0,38.7616,107.889,38.7616,-72.1107,2277.93,monload-611_runway,,,,,,,,2.4,,,0.9491375
44,0.0,,107.885,,0.0,41.1364,107.885,41.1364,-72.1152,2277.82,monload-611_runway,,,,,,,,2.4,,,0.9490916666666668
45,0.0,,108.71,,0.0,45.1231,108.706,45.1231,-71.2937,2318.1,monload-611_runway,,,,,,,,2.4,,,0.9658749999999999
46,0.0,,109.142,,0.0,42.3023,109.14,42.3023,-70.8596,2339.28,monload-611_runway,,,,,,,,2.4,,,0.9747000000000001
47,0.0,,110.148,,0.0,30.8497,110.152,30.8497,-69.8478,2372.12,monload-611_runway,,,,,,,,2.4,,,0.9883833333333333
48,0.0,,110.507,,0.0,21.1497,110.503,21.1497,-69.4972,2389.03,monload-611_runway,,,,,,,,2.4,,,0.9954291666666667
49,0.0,,110.66,,0.0,18.8942,110.658,18.8942,-69.3417,2396.39,monload-611_runway,,,,,,,,2.4,,,0.9984958333333332
50,0.0,,110.704,,0.0,18.3946,110.699,18.3946,-69.3007,2398.44,monload-611_runway,,,,,,,,2.4,,,0.9993500000000001
51,0.0,,110.758,,0.0,17.8874,110.752,17.8874,-69.2478,2400.94,monload-611_runway,,,,,,,,2.4,,,1.0003916666666668
52,0.0,,110.754,,0.0,18.4384,110.754,18.4384,-69.2461,2400.72,monload-611_runway,,,,,,,,2.4,,,1.0003
53,0.0,,109.926,,0.0,19.6598,109.927,19.6598,-70.0727,2361.66,monload-611_runway,,,,,,,,2.4,,,0.9840249999999999
54,0.0,,109.596,,0.0,23.9779,109.6,23.9779,-70.4002,2345.78,monload-611_runway,,,,,,,,2.4,,,0.9774083333333334
55,0.0,,107.763,,0.0,35.3532,107.765,35.3532,-72.2354,2257.93,monload-611_runway,,,,,,,,2.4,,,0.9408041666666666
56,0.0,,107.121,,0.0,35.0867,107.129,35.0867,-72.8715,2226.64,monload-611_runway,,,,,,,,2.4,,,0.9277666666666666
57,0.0,,107.054,,0.0,30.7361,107.043,30.7361,-72.9572,2223.83,monload-611_runway,,,,,,,,2.4,,,0.9265958333333333
58,0.0,,106.917,,0.0,30.5595,106.921,30.5595,-73.0786,2231.83,monload-611_runway,,,,,,,,2.4,,,0.9299291666666666
59,0.0,,107.085,,0.0,24.3263,107.087,24.3263,-72.9128,2240.22,monload-611_runway,,,,,,,,2.4,,,0.933425
60,0.0,,0.0,,0.0,0.0,0.0,0.0,0.0,0.0,monload-611_runway,,,,,,,,2.4,,,0.0
61,0.0,,0.0,,0.0,0.0,0.0,0.0,0.0,0.0,monload-611_runway,,,,,,,,2.4,,,0.0
62,0.0,,0.0,,0.0,0.0,0.0,0.0,0.0,0.0,monload-611_runway,,,,,,,,2.4,,,0.0
63,0.0,,0.0,,0.0,0.0,0.0,0.0,0.0,0.0,monload-611_runway,,,,,,,,2.4,,,0.0
64,0.0,,0.0,,0.0,0.0,0.0,0.0,0.0,0.0,monload-611_runway,,,,,,,,2.4,,,0.0
65,0.0,,0.0,,0.0,0.0,0.0,0.0,0.0,0.0,monload-611_runway,,,,,,,,2.4,,,0.0
66,0.0,,0.0,,0.0,0.0,0.0,0.0,0.0,0.0,monload-611_runway,,,,,,,,2.4,,,0.0
67,0.0,,0.0,,0.0,0.0,0.0,0.0,0.0,0.0,monload-611_runway,,,,,,,,2.4,,,0.0
68,0.0,,0.0,,0.0,0.0,0.0,0.0,0.0,0.0,monload-611_runway,,,,,,,,2.4,,,0.0
69,0.0,,0.0,,0.0,0.0,0.0,0.0,0.0,0.0,monload-611_runway,,,,,,,,2.4,,,0.0
70,0.0,,0.0,,0.0,0.0,0.0,0.0,0.0,0.0,monload-611_runway,,,,,,,,2.4,,,0.0
71,0.0,,0.0,,0.0,0.0,0.0,0.0,0.0,0.0,monload-611_runway,,,,,,,,2.4,,,0.0
72,0.0,,0.0,,0.0,0.0,0.0,0.0,0.0,0.0,monload-611_runway,,,,,,,,2.4,,,0.0
73,0.0,,0.0,,0.0,0.0,0.0,0.0,0.0,0.0,monload-611_runway,,,,,,,,2.4,,,0.0
74,0.0,,0.0,,0.0,0.0,0.0,0.0,0.0,0.0,monload-611_runway,,,,,,,,2.4,,,0.0
75,0.0,,0.0,,0.0,0.0,0.0,0.0,0.0,0.0,monload-611_runway,,,,,,,,2.4,,,0.0
76,0.0,,0.0,,0.0,0.0,0.0,0.0,0.0,0.0,monload-611_runway,,,,,,,,2.4,,,0.0
77,0.0,,0.0,,0.0,0.0,0.0,0.0,0.0,0.0,monload-611_runway,,,,,,,,2.4,,,0.0
78,0.0,,0.0,,0.0,0.0,0.0,0.0,0.0,0.0,monload-611_runway,,,,,,,,2.4,,,0.0
79,0.0,,0.0,,0.0,0.0,0.0,0.0,0.0,0.0,monload-611_runway,,,,,,,,2.4,,,0.0
80,0.0,,0.0,,0.0,0.0,0.0,0.0,0.0,0.0,monload-611_runway,,,,,,,,2.4,,,0.0
81,0.0,,0.0,,0.0,0.0,0.0,0.0,0.0,0.0,monload-611_runway,,,,,,,,2.4,,,0.0
82,0.0,,0.0,,0.0,0.0,0.0,0.0,0.0,0.0,monload-611_runway,,,,,,,,2.4,,,0.0
83,0.0,,0.0,,0.0,0.0,0.0,0.0,0.0,0.0,monload-611_runway,,,,,,,,2.4,,,0.0
84,0.0,,0.0,,0.0,0.0,0.0,0.0,0.0,0.0,monload-611_runway,,,,,,,,2.4,,,0.0
85,0.0,,0.0,,0.0,0.0,0.0,0.0,0.0,0.0,monload-611_runway,,,,,,,,2.4,,,0.0
86,0.0,,0.0,,0.0,0.0,0.0,0.0,0.0,0.0,monload-611_runway,,,,,,,,2.4,,,0.0
87,0.0,,0.0,,0.0,0.0,0.0,0.0,0.0,0.0,monload-611_runway,,,,,,,,2.4,,,0.0
88,0.0,,0.0,,0.0,0.0,0.0,0.0,0.0,0.0,monload-611_runway,,,,,,,,2.4,,,0.0
89,0.0,,0.0,,0.0,0.0,0.0,0.0,0.0,0.0,monload-611_runway,,,,,,,,2.4,,,0.0
90,0.0,,0.0,,0.0,0.0,0.0,0.0,0.0,0.0,monload-611_runway,,,,,,,,2.4,,,0.0
91,0.0,,0.0,,0.0,0.0,0.0,0.0,0.0,0.0,monload-611_runway,,,,,,,,2.4,,,0.0
92,0.0,,0.0,,0.0,0.0,0.0,0.0,0.0,0.0,monload-611_runway,,,,,,,,2.4,,,0.0
93,0.0,,0.0,,0.0,0.0,0.0,0.0,0.0,0.0,monload-611_runway,,,,,,,,2.4,,,0.0
94,0.0,,0.0,,0.0,0.0,0.0,0.0,0.0,0.0,monload-611_runway,,,,,,,,2.4,,,0.0
95,0.0,,0.0,,0.0,0.0,0.0,0.0,0.0,0.0,monload-611_runway,,,,,,,,2.4,,,0.0
96,0.0,,0.0,,0.0,0.0,0.0,0.0,0.0,0.0,monload-611_runway,,,,,,,,2.4,,,0.0
97,0.0,,0.0,,0.0,0.0,0.0,0.0,0.0,0.0,monload-611_runway,,,,,,,,2.4,,,0.0
98,0.0,,0.0,,0.0,0.0,0.0,0.0,0.0,0.0,monload-611_runway,,,,,,,,2.4,,,0.0
99,0.0,,0.0,,0.0,0.0,0.0,0.0,0.0,0.0,monload-611_runway,,,,,,,,2.4,,,0.0
100,0.0,,0.0,,0.0,0.0,0.0,0.0,0.0,0.0,monload-611_runway,,,,,,,,2.4,,,0.0
101,0.0,,0.0,,0.0,0.0,0.0,0.0,0.0,0.0,monload-611_runway,,,,,,,,2.4,,,0.0
102,0.0,,0.0,,0.0,0.0,0.0,0.0,0.0,0.0,monload-611_runway,,,,,,,,2.4,,,0.0
103,0.0,,0.0,,0.0,0.0,0.0,0.0,0.0,0.0,monload-611_runway,,,,,,,,2.4,,,0.0
104,0.0,,0.0,,0.0,0.0,0.0,0.0,0.0,0.0,monload-611_runway,,,,,,,,2.4,,,0.0
105,0.0,,0.0,,0.0,0.0,0.0,0.0,0.0,0.0,monload-611_runway,,,,,,,,2.4,,,0.0
106,0.0,,0.0,,0.0,0.0,0.0,0.0,0.0,0.0,monload-611_runway,,,,,,,,2.4,,,0.0
107,0.0,,0.0,,0.0,0.0,0.0,0.0,0.0,0.0,monload-611_runway,,,,,,,,2.4,,,0.0
108,0.0,,0.0,,0.0,0.0,0.0,0.0,0.0,0.0,monload-611_runway,,,,,,,,2.4,,,0.0
109,0.0,,0.0,,0.0,0.0,0.0,0.0,0.0,0.0,monload-611_runway,,,,,,,,2.4,,,0.0
110,0.0,,0.0,,0.0,0.0,0.0,0.0,0.0,0.0,monload-611_runway,,,,,,,,2.4,,,0.0
111,0.0,,0.0,,0.0,0.0,0.0,0.0,0.0,0.0,monload-611_runway,,,,,,,,2.4,,,0.0
112,0.0,,0.0,,0.0,0.0,0.0,0.0,0.0,0.0,monload-611_runway,,,,,,,,2.4,,,0.0
113,0.0,,0.0,,0.0,0.0,0.0,0.0,0.0,0.0,monload-611_runway,,,,,,,,2.4,,,0.0
114,0.0,,0.0,,0.0,0.0,0.0,0.0,0.0,0.0,monload-611_runway,,,,,,,,2.4,,,0.0
115,0.0,,0.0,,0.0,0.0,0.0,0.0,0.0,0.0,monload-611_runway,,,,,,,,2.4,,,0.0
116,0.0,,0.0,,0.0,0.0,0.0,0.0,0.0,0.0,monload-611_runway,,,,,,,,2.4,,,0.0
117,0.0,,0.0,,0.0,0.0,0.0,0.0,0.0,0.0,monload-611_runway,,,,,,,,2.4,,,0.0
118,0.0,,0.0,,0.0,0.0,0.0,0.0,0.0,0.0,monload-611_runway,,,,,,,,2.4,,,0.0
119,0.0,,0.0,,0.0,0.0,0.0,0.0,0.0,0.0,monload-611_runway,,,,,,,,2.4,,,0.0
120,0.0,,0.0,,0.0,0.0,0.0,0.0,0.0,0.0,monload-611_runway,,,,,,,,2.4,,,0.0
121,0.0,,0.0,,0.0,0.0,0.0,0.0,0.0,0.0,monload-611_runway,,,,,,,,2.4,,,0.0
122,0.0,,0.0,,0.0,0.0,0.0,0.0,0.0,0.0,monload-611_runway,,,,,,,,2.4,,,0.0
123,0.0,,0.0,,0.0,0.0,0.0,0.0,0.0,0.0,monload-611_runway,,,,,,,,2.4,,,0.0
124,0.0,,0.0,,0.0,0.0,0.0,0.0,0.0,0.0,monload-611_runway,,,,,,,,2.4,,,0.0
125,0.0,,0.0,,0.0,0.0,0.0,0.0,0.0,0.0,monload-611_runway,,,,,,,,2.4,,,0.0
126,0.0,,0.0,,0.0,0.0,0.0,0.0,0.0,0.0,monload-611_runway,,,,,,,,2.4,,,0.0
127,0.0,,0.0,,0.0,0.0,0.0,0.0,0.0,0.0,monload-611_runway,,,,,,,,2.4,,,0.0
128,0.0,,0.0,,0.0,0.0,0.0,0.0,0.0,0.0,monload-611_runway,,,,,,,,2.4,,,0.0
129,0.0,,0.0,,0.0,0.0,0.0,0.0,0.0,0.0,monload-611_runway,,,,,,,,2.4,,,0.0
130,0.0,,0.0,,0.0,0.0,0.0,0.0,0.0,0.0,monload-611_runway,,,,,,,,2.4,,,0.0
131,0.0,,0.0,,0.0,0.0,0.0,0.0,0.0,0.0,monload-611_runway,,,,,,,,2.4,,,0.0
132,0.0,,0.0,,0.0,0.0,0.0,0.0,0.0,0.0,monload-611_runway,,,,,,,,2.4,,,0.0
133,0.0,,0.0,,0.0,0.0,0.0,0.0,0.0,0.0,monload-611_runway,,,,,,,,2.4,,,0.0
134,0.0,,0.0,,0.0,0.0,0.0,0.0,0.0,0.0,monload-611_runway,,,,,,,,2.4,,,0.0
135,0.0,,0.0,,0.0,0.0,0.0,0.0,0.0,0.0,monload-611_runway,,,,,,,,2.4,,,0.0
136,0.0,,0.0,,0.0,0.0,0.0,0.0,0.0,0.0,monload-611_runway,,,,,,,,2.4,,,0.0
137,0.0,,0.0,,0.0,0.0,0.0,0.0,0.0,0.0,monload-611_runway,,,,,,,,2.4,,,0.0
138,0.0,,0.0,,0.0,0.0,0.0,0.0,0.0,0.0,monload-611_runway,,,,,,,,2.4,,,0.0
139,0.0,,0.0,,0.0,0.0,0.0,0.0,0.0,0.0,monload-611_runway,,,,,,,,2.4,,,0.0
140,0.0,,0.0,,0.0,0.0,0.0,0.0,0.0,0.0,monload-611_runway,,,,,,,,2.4,,,0.0
141,0.0,,0.0,,0.0,0.0,0.0,0.0,0.0,0.0,monload-611_runway,,,,,,,,2.4,,,0.0
142,0.0,,0.0,,0.0,0.0,0.0,0.0,0.0,0.0,monload-611_runway,,,,,,,,2.4,,,0.0
143,0.0,,0.0,,0.0,0.0,0.0,0.0,0.0,0.0,monload-611_runway,,,,,,,,2.4,,,0.0
144,0.0,,0.0,,0.0,0.0,0.0,0.0,0.0,0.0,monload-611_runway,,,,,,,,2.4,,,0.0
145,0.0,,0.0,,0.0,0.0,0.0,0.0,0.0,0.0,monload-611_runway,,,,,,,,2.4,,,0.0
146,0.0,,0.0,,0.0,0.0,0.0,0.0,0.0,0.0,monload-611_runway,,,,,,,,2.4,,,0.0
147,0.0,,0.0,,0.0,0.0,0.0,0.0,0.0,0.0,monload-611_runway,,,,,,,,2.4,,,0.0
148,0.0,,0.0,,0.0,0.0,0.0,0.0,0.0,0.0,monload-611_runway,,,,,,,,2.4,,,0.0
149,0.0,,0.0,,0.0,0.0,0.0,0.0,0.0,0.0,monload-611_runway,,,,,,,,2.4,,,0.0
150,0.0,,0.0,,0.0,0.0,0.0,0.0,0.0,0.0,monload-611_runway,,,,,,,,2.4,,,0.0
151,0.0,,0.0,,0.0,0.0,0.0,0.0,0.0,0.0,monload-611_runway,,,,,,,,2.4,,,0.0
152,0.0,,0.0,,0.0,0.0,0.0,0.0,0.0,0.0,monload-611_runway,,,,,,,,2.4,,,0.0
153,0.0,,0.0,,0.0,0.0,0.0,0.0,0.0,0.0,monload-611_runway,,,,,,,,2.4,,,0.0
154,0.0,,0.0,,0.0,0.0,0.0,0.0,0.0,0.0,monload-611_runway,,,,,,,,2.4,,,0.0
155,0.0,,0.0,,0.0,0.0,0.0,0.0,0.0,0.0,monload-611_runway,,,,,,,,2.4,,,0.0
156,0.0,,0.0,,0.0,0.0,0.0,0.0,0.0,0.0,monload-611_runway,,,,,,,,2.4,,,0.0
157,0.0,,0.0,,0.0,0.0,0.0,0.0,0.0,0.0,monload-611_runway,,,,,,,,2.4,,,0.0
158,0.0,,0.0,,0.0,0.0,0.0,0.0,0.0,0.0,monload-611_runway,,,,,,,,2.4,,,0.0
159,0.0,,0.0,,0.0,0.0,0.0,0.0,0.0,0.0,monload-611_runway,,,,,,,,2.4,,,0.0
160,0.0,,0.0,,0.0,0.0,0.0,0.0,0.0,0.0,monload-611_runway,,,,,,,,2.4,,,0.0
161,0.0,,0.0,,0.0,0.0,0.0,0.0,0.0,0.0,monload-611_runway,,,,,,,,2.4,,,0.0
162,0.0,,0.0,,0.0,0.0,0.0,0.0,0.0,0.0,monload-611_runway,,,,,,,,2.4,,,0.0
163,0.0,,0.0,,0.0,0.0,0.0,0.0,0.0,0.0,monload-611_runway,,,,,,,,2.4,,,0.0
164,0.0,,0.0,,0.0,0.0,0.0,0.0,0.0,0.0,monload-611_runway,,,,,,,,2.4,,,0.0
165,0.0,,0.0,,0.0,0.0,0.0,0.0,0.0,0.0,monload-611_runway,,,,,,,,2.4,,,0.0
166,0.0,,0.0,,0.0,0.0,0.0,0.0,0.0,0.0,monload-611_runway,,,,,,,,2.4,,,0.0
167,0.0,,0.0,,0.0,0.0,0.0,0.0,0.0,0.0,monload-611_runway,,,,,,,,2.4,,,0.0
168,0.0,,0.0,,0.0,0.0,0.0,0.0,0.0,0.0,monload-611_runway,,,,,,,,2.4,,,0.0
169,0.0,,0.0,,0.0,0.0,0.0,0.0,0.0,0.0,monload-611_runway,,,,,,,,2.4,,,0.0
170,0.0,,0.0,,0.0,0.0,0.0,0.0,0.0,0.0,monload-611_runway,,,,,,,,2.4,,,0.0
171,0.0,,0.0,,0.0,0.0,0.0,0.0,0.0,0.0,monload-611_runway,,,,,,,,2.4,,,0.0
172,0.0,,0.0,,0.0,0.0,0.0,0.0,0.0,0.0,monload-611_runway,,,,,,,,2.4,,,0.0
173,0.0,,0.0,,0.0,0.0,0.0,0.0,0.0,0.0,monload-611_runway,,,,,,,,2.4,,,0.0
174,0.0,,0.0,,0.0,0.0,0.0,0.0,0.0,0.0,monload-611_runway,,,,,,,,2.4,,,0.0
175,0.0,,0.0,,0.0,0.0,0.0,0.0,0.0,0.0,monload-611_runway,,,,,,,,2.4,,,0.0
176,0.0,,0.0,,0.0,0.0,0.0,0.0,0.0,0.0,monload-611_runway,,,,,,,,2.4,,,0.0
177,0.0,,0.0,,0.0,0.0,0.0,0.0,0.0,0.0,monload-611_runway,,,,,,,,2.4,,,0.0
178,0.0,,0.0,,0.0,0.0,0.0,0.0,0.0,0.0,monload-611_runway,,,,,,,,2.4,,,0.0
179,0.0,,0.0,,0.0,0.0,0.0,0.0,0.0,0.0,monload-611_runway,,,,,,,,2.4,,,0.0
180,0.0,,109.104,,0.0,38.1499,109.104,38.1499,-70.8964,2336.12,monload-611_runway,,,,,,,,2.4,,,0.9733833333333333
181,0.0,,109.073,,0.0,38.4204,109.074,38.4204,-70.9261,2334.6,monload-611_runway,,,,,,,,2.4,,,0.97275
182,0.0,,108.988,,0.0,39.8211,108.99,39.8211,-71.0102,2330.29,monload-611_runway,,,,,,,,2.4,,,0.9709541666666667
183,0.0,,108.833,,0.0,41.1387,108.836,41.1387,-71.1642,2322.57,monload-611_runway,,,,,,,,2.4,,,0.9677375
184,0.0,,108.819,,0.0,40.2542,108.821,40.2542,-71.1789,2321.73,monload-611_runway,,,,,,,,2.4,,,0.9673875
185,0.0,,108.89,,0.0,39.4232,108.889,39.4232,-71.1108,2324.95,monload-611_runway,,,,,,,,2.4,,,0.9687291666666666
186,0.0,,109.02,,0.0,41.61,109.018,41.61,-70.9818,2331.37,monload-611_runway,,,,,,,,2.4,,,0.9714041666666666
187,0.0,,109.045,,0.0,50.661,109.044,50.661,-70.9561,2333.15,monload-611_runway,,,,,,,,2.4,,,0.9721458333333334
188,0.0,,109.265,,0.0,50.936,109.262,50.936,-70.738,2344.23,monload-611_runway,,,,,,,,2.4,,,0.9767625
189,0.0,,109.473,,0.0,52.3523,109.478,52.3523,-70.5222,2339.65,monload-611_runway,,,,,,,,2.4,,,0.9748541666666667
190,0.0,,109.709,,0.0,50.5692,109.706,50.5692,-70.2939,2351.32,monload-611_runway,,,,,,,,2.4,,,0.9797166666666667
191,0.0,,110.334,,0.0,39.6945,110.334,39.6945,-69.6665,2381.18,monload-611_runway,,,,,,,,2.4,,,0.9921583333333333
192,0.0,,110.79,,0.0,26.4536,110.784,26.4536,-69.216,2402.64,monload-611_runway,,,,,,,,2.4,,,1.0010999999999999
193,0.0,,110.954,,0.0,21.0984,110.958,21.0984,-69.0423,2395.13,monload-611_runway,,,,,,,,2.4,,,0.9979708333333334
194,0.0,,110.995,,0.0,19.0118,110.991,19.0118,-69.0086,2396.99,monload-611_runway,,,,,,,,2.4,,,0.9987458333333332
195,0.0,,111.012,,0.0,17.1605,111.011,17.1605,-68.9889,2397.76,monload-611_runway,,,,,,,,2.4,,,0.9990666666666668
196,0.0,,110.988,,0.0,16.8089,110.99,16.8089,-69.0098,2396.6,monload-611_runway,,,,,,,,2.4,,,0.9985833333333333
197,0.0,,110.188,,0.0,17.2796,110.189,17.2796,-69.8108,2359.21,monload-611_runway,,,,,,,,2.4,,,0.9830041666666667
198,0.0,,109.979,,0.0,20.6862,109.981,20.6862,-70.0187,2349.18,monload-611_runway,,,,,,,,2.4,,,0.978825
199,0.0,,108.048,,0.0,33.1357,108.052,33.1357,-71.9483,2271.93,monload-611_runway,,,,,,,,2.4,,,0.9466374999999999
200,0.0,,107.324,,0.0,35.6293,107.325,35.6293,-72.6752,2236.83,monload-611_runway,,,,,,,,2.4,,,0.9320125
201,0.0,,107.17,,0.0,32.4033,107.16,32.4033,-72.8397,2229.81,monload-611_runway,,,,,,,,2.4,,,0.9290875
202,0.0,,106.925,,0.0,34.4146,106.929,34.4146,-73.0708,2232.22,monload-611_runway,,,,,,,,2.4,,,0.9300916666666665
203,0.0,,106.905,,0.0,30.2593,106.904,30.2593,-73.0961,2230.89,monload-611_runway,,,,,,,,2.4,,,0.9295374999999999
204,0.0,,106.688,,0.0,33.0698,106.689,33.0698,-73.3114,2219.82,monload-611_runway,,,,,,,,2.4,,,0.9249250000000001
205,0.0,,106.729,,0.0,35.5327,106.731,35.5327,-73.2694,2221.4,monload-611_runway,,,,,,,,2.4,,,0.9255833333333334
206,0.0,,106.408,,0.0,36.6558,106.409,36.6558,-73.5914,2205.35,monload-611_runway,,,,,,,,2.4,,,0.9188958333333332
207,0.0,,106.278,,0.0,37.5101,106.278,37.5101,-73.7215,2198.51,monload-611_runway,,,,,,,,2.4,,,0.9160458333333334
208,0.0,,106.336,,0.0,35.2501,106.336,35.2501,-73.6641,2201.46,monload-611_runway,,,,,,,,2.4,,,0.9172750000000001
209,0.0,,106.293,,0.0,34.8658,106.293,34.8658,-73.7071,2199.09,monload-611_runway,,,,,,,,2.4,,,0.9162875
210,0.0,,106.482,,0.0,39.4316,106.482,39.4316,-73.5183,2207.63,monload-611_runway,,,,,,,,2.4,,,0.9198458333333334
211,0.0,,107.717,,0.0,46.3005,107.716,46.3005,-72.2837,2269.06,monload-611_runway,,,,,,,,2.4,,,0.9454416666666666
212,0.0,,107.745,,0.0,48.1924,107.745,48.1924,-72.2549,2270.84,monload-611_runway,,,,,,,,2.4,,,0.9461833333333334
213,0.0,,108.509,,0.0,52.3358,108.507,52.3358,-71.4934,2308.35,monload-611_runway,,,,,,,,2.4,,,0.9618125
214,0.0,,108.872,,0.0,49.8536,108.871,49.8536,-71.1292,2326.3,monload-611_runway,,,,,,,,2.4,,,0.9692916666666668
215,0.0,,109.873,,0.0,38.3082,109.877,38.3082,-70.1229,2359.28,monload-611_runway,,,,,,,,2.4,,,0.9830333333333334
216,0.0,,110.284,,0.0,27.4534,110.279,27.4534,-69.7215,2378.81,monload-611_runway,,,,,,,,2.4,,,0.9911708333333333
217,0.0,,110.598,,0.0,24.2756,110.593,24.2756,-69.4065,2393.77,monload-611_runway,,,,,,,,2.4,,,0.9974041666666666
218,0.0,,110.707,,0.0,23.0495,110.706,23.0495,-69.2943,2398.91,monload-611_runway,,,,,,,,2.4,,,0.9995458333333332
219,0.0,,110.772,,0.0,21.3811,110.775,21.3811,-69.2245,2386.68,monload-611_runway,,,,,,,,2.4,,,0.99445
