hour,t(sec),P1(kW),Q1(kvar),P2(kW),Q2(kvar),P3(kW),Name,Q3(kvar),P4(kW),Q4(kvar),V1,VAngle1,V2,VAngle2,V3,VAngle3,I1,IAngle1,I2,IAngle2,I3,IAngle3
1,0.0,,0.0,0.0,0.0,,mongenerator-battery_646,,,,,,,,,,,,,,,
2,0.0,,0.0,0.0,0.0,,mongenerator-battery_646,,,,,,,,,,,,,,,
3,0.0,,0.0,0.0,0.0,,mongenerator-battery_646,,,,,,,,,,,,,,,
4,0.0,,0.0,0.0,0.0,,mongenerator-battery_646,,,,,,,,,,,,,,,
5,0.0,,0.0,0.0,0.0,,mongenerator-battery_646,,,,,,,,,,,,,,,
6,0.0,,0.0,0.0,0.0,,mongenerator-battery_646,,,,,,,,,,,,,,,
7,0.0,,2.60024e-07,-2.00578,0.0,,mongenerator-battery_646,,,,,,,,,,,,,,,
8,0.0,,-1.28483e-06,-10.1504,0.0,,mongenerator-battery_646,,,,,,,,,,,,,,,
9,0.0,,0.0,0.0,0.0,,mongenerator-battery_646,,,,,,,,,,,,,,,
10,0.0,,0.0,0.0,0.0,,mongenerator-battery_646,,,,,,,,,,,,,,,
11,0.0,,2.28414e-07,3.6201199999999996,0.0,,mongenerator-battery_646,,,,,,,,,,,,,,,
12,0.0,,3.65261e-06,32.4166,0.0,,mongenerator-battery_646,,,,,,,,,,,,,,,
13,0.0,,-5.954919999999999e-07,-3.34945,0.0,,mongenerator-battery_646,,,,,,,,,,,,,,,
14,0.0,,3.3157999999999997e-06,3.76681,0.0,,mongenerator-battery_646,,,,,,,,,,,,,,,
15,0.0,,0.0,0.0,0.0,,mongenerator-battery_646,,,,,,,,,,,,,,,
16,0.0,,0.0,0.0,0.0,,mongenerator-battery_646,,,,,,,,,,,,,,,
17,0.0,,0.0,0.0,0.0,,mongenerator-battery_646,,,,,,,,,,,,,,,
18,0.0,,0.0,0.0,0.0,,mongenerator-battery_646,,,,,,,,,,,,,,,
19,0.0,,0.0,0.0,0.0,,mongenerator-battery_646,,,,,,,,,,,,,,,
20,0.0,,0.0,0.0,0.0,,mongenerator-battery_646,,,,,,,,,,,,,,,
21,0.0,,0.0,0.0,0.0,,mongenerator-battery_646,,,,,,,,,,,,,,,
22,0.0,,0.0,0.0,0.0,,mongenerator-battery_646,,,,,,,,,,,,,,,
23,0.0,,0.0,0.0,0.0,,mongenerator-battery_646,,,,,,,,,,,,,,,
24,0.0,,0.0,0.0,0.0,,mongenerator-battery_646,,,,,,,,,,,,,,,
25,0.0,,0.0,0.0,0.0,,mongenerator-battery_646,,,,,,,,,,,,,,,
26,0.0,,0.0,0.0,0.0,,mongenerator-battery_646,,,,,,,,,,,,,,,
27,0.0,,0.0,0.0,0.0,,mongenerator-battery_646,,,,,,,,,,,,,,,
28,0.0,,0.0,0.0,0.0,,mongenerator-battery_646,,,,,,,,,,,,,,,
29,0.0,,0.0,0.0,0.0,,mongenerator-battery_646,,,,,,,,,,,,,,,
30,0.0,,0.0,0.0,0.0,,mongenerator-battery_646,,,,,,,,,,,,,,,
31,0.0,,-6.752919999999999e-06,-13.6766,0.0,,mongenerator-battery_646,,,,,,,,,,,,,,,
32,0.0,,1.1847500000000001e-07,2.89318,0.0,,mongenerator-battery_646,,,,,,,,,,,,,,,
33,0.0,,-3.30236e-06,-21.3399,0.0,,mongenerator-battery_646,,,,,,,,,,,,,,,
34,0.0,,1.50358e-06,7.249160000000001,0.0,,mongenerator-battery_646,,,,,,,,,,,,,,,
35,0.0,,-6.17677e-06,26.1699,0.0,,mongenerator-battery_646,,,,,,,,,,,,,,,
36,0.0,,2.79594e-06,-24.7533,0.0,,mongenerator-battery_646,,,,,,,,,,,,,,,
37,0.0,,1.5674500000000001e-06,9.46241,0.0,,mongenerator-battery_646,,,,,,,,,,,,,,,
38,0.0,,0.0,0.0,0.0,,mongenerator-battery_646,,,,,,,,,,,,,,,
39,0.0,,0.0,0.0,0.0,,mongenerator-battery_646,,,,,,,,,,,,,,,
40,0.0,,0.0,0.0,0.0,,mongenerator-battery_646,,,,,,,,,,,,,,,
41,0.0,,0.0,0.0,0.0,,mongenerator-battery_646,,,,,,,,,,,,,,,
42,0.0,,0.0,0.0,0.0,,mongenerator-battery_646,,,,,,,,,,,,,,,
43,0.0,,0.0,0.0,0.0,,mongenerator-battery_646,,,,,,,,,,,,,,,
44,0.0,,0.0,0.0,0.0,,mongenerator-battery_646,,,,,,,,,,,,,,,
45,0.0,,0.0,0.0,0.0,,mongenerator-battery_646,,,,,,,,,,,,,,,
46,0.0,,0.0,0.0,0.0,,mongenerator-battery_646,,,,,,,,,,,,,,,
47,0.0,,0.0,0.0,0.0,,mongenerator-battery_646,,,,,,,,,,,,,,,
48,0.0,,0.0,0.0,0.0,,mongenerator-battery_646,,,,,,,,,,,,,,,
49,0.0,,0.0,0.0,0.0,,mongenerator-battery_646,,,,,,,,,,,,,,,
50,0.0,,0.0,0.0,0.0,,mongenerator-battery_646,,,,,,,,,,,,,,,
51,0.0,,0.0,0.0,0.0,,mongenerator-battery_646,,,,,,,,,,,,,,,
52,0.0,,0.0,0.0,0.0,,mongenerator-battery_646,,,,,,,,,,,,,,,
53,0.0,,0.0,0.0,0.0,,mongenerator-battery_646,,,,,,,,,,,,,,,
54,0.0,,0.0,0.0,0.0,,mongenerator-battery_646,,,,,,,,,,,,,,,
55,0.0,,-2.3706999999999996e-07,-13.7787,0.0,,mongenerator-battery_646,,,,,,,,,,,,,,,
56,0.0,,0.0,0.0,0.0,,mongenerator-battery_646,,,,,,,,,,,,,,,
57,0.0,,0.0,0.0,0.0,,mongenerator-battery_646,,,,,,,,,,,,,,,
58,0.0,,0.0,0.0,0.0,,mongenerator-battery_646,,,,,,,,,,,,,,,
59,0.0,,0.0,0.0,0.0,,mongenerator-battery_646,,,,,,,,,,,,,,,
60,0.0,,0.0,0.0,0.0,,mongenerator-battery_646,,,,,,,,,,,,,,,
61,0.0,,-2.96759e-07,42.7468,0.0,,mongenerator-battery_646,,,,,,,,,,,,,,,
62,0.0,,0.0,0.0,0.0,,mongenerator-battery_646,,,,,,,,,,,,,,,
63,0.0,,0.0,0.0,0.0,,mongenerator-battery_646,,,,,,,,,,,,,,,
64,0.0,,0.0,0.0,0.0,,mongenerator-battery_646,,,,,,,,,,,,,,,
65,0.0,,0.0,0.0,0.0,,mongenerator-battery_646,,,,,,,,,,,,,,,
66,0.0,,0.0,0.0,0.0,,mongenerator-battery_646,,,,,,,,,,,,,,,
67,0.0,,0.0,0.0,0.0,,mongenerator-battery_646,,,,,,,,,,,,,,,
68,0.0,,0.0,0.0,0.0,,mongenerator-battery_646,,,,,,,,,,,,,,,
69,0.0,,0.0,0.0,0.0,,mongenerator-battery_646,,,,,,,,,,,,,,,
70,0.0,,0.0,0.0,0.0,,mongenerator-battery_646,,,,,,,,,,,,,,,
71,0.0,,0.0,0.0,0.0,,mongenerator-battery_646,,,,,,,,,,,,,,,
72,0.0,,0.0,0.0,0.0,,mongenerator-battery_646,,,,,,,,,,,,,,,
73,0.0,,0.0,0.0,0.0,,mongenerator-battery_646,,,,,,,,,,,,,,,
74,0.0,,0.0,0.0,0.0,,mongenerator-battery_646,,,,,,,,,,,,,,,
75,0.0,,0.0,0.0,0.0,,mongenerator-battery_646,,,,,,,,,,,,,,,
76,0.0,,0.0,0.0,0.0,,mongenerator-battery_646,,,,,,,,,,,,,,,
77,0.0,,0.0,0.0,0.0,,mongenerator-battery_646,,,,,,,,,,,,,,,
78,0.0,,0.0,0.0,0.0,,mongenerator-battery_646,,,,,,,,,,,,,,,
79,0.0,,0.0,0.0,0.0,,mongenerator-battery_646,,,,,,,,,,,,,,,
80,0.0,,0.0,0.0,0.0,,mongenerator-battery_646,,,,,,,,,,,,,,,
81,0.0,,0.0,0.0,0.0,,mongenerator-battery_646,,,,,,,,,,,,,,,
82,0.0,,0.0,0.0,0.0,,mongenerator-battery_646,,,,,,,,,,,,,,,
83,0.0,,-4.51449e-07,-21.8564,0.0,,mongenerator-battery_646,,,,,,,,,,,,,,,
84,0.0,,1.1021699999999999e-07,-20.8904,0.0,,mongenerator-battery_646,,,,,,,,,,,,,,,
85,0.0,,0.0,0.0,0.0,,mongenerator-battery_646,,,,,,,,,,,,,,,
86,0.0,,0.0,0.0,0.0,,mongenerator-battery_646,,,,,,,,,,,,,,,
87,0.0,,0.0,0.0,0.0,,mongenerator-battery_646,,,,,,,,,,,,,,,
88,0.0,,6.36463e-08,12.7281,0.0,,mongenerator-battery_646,,,,,,,,,,,,,,,
89,0.0,,6.04016e-08,30.0188,0.0,,mongenerator-battery_646,,,,,,,,,,,,,,,
90,0.0,,0.0,0.0,0.0,,mongenerator-battery_646,,,,,,,,,,,,,,,
91,0.0,,0.0,0.0,0.0,,mongenerator-battery_646,,,,,,,,,,,,,,,
92,0.0,,0.0,0.0,0.0,,mongenerator-battery_646,,,,,,,,,,,,,,,
93,0.0,,0.0,0.0,0.0,,mongenerator-battery_646,,,,,,,,,,,,,,,
94,0.0,,0.0,0.0,0.0,,mongenerator-battery_646,,,,,,,,,,,,,,,
95,0.0,,0.0,0.0,0.0,,mongenerator-battery_646,,,,,,,,,,,,,,,
96,0.0,,0.0,0.0,0.0,,mongenerator-battery_646,,,,,,,,,,,,,,,
97,0.0,,0.0,0.0,0.0,,mongenerator-battery_646,,,,,,,,,,,,,,,
98,0.0,,0.0,0.0,0.0,,mongenerator-battery_646,,,,,,,,,,,,,,,
99,0.0,,0.0,0.0,0.0,,mongenerator-battery_646,,,,,,,,,,,,,,,
100,0.0,,0.0,0.0,0.0,,mongenerator-battery_646,,,,,,,,,,,,,,,
101,0.0,,0.0,0.0,0.0,,mongenerator-battery_646,,,,,,,,,,,,,,,
102,0.0,,0.0,0.0,0.0,,mongenerator-battery_646,,,,,,,,,,,,,,,
103,0.0,,0.0,0.0,0.0,,mongenerator-battery_646,,,,,,,,,,,,,,,
104,0.0,,0.0,0.0,0.0,,mongenerator-battery_646,,,,,,,,,,,,,,,
105,0.0,,0.0,0.0,0.0,,mongenerator-battery_646,,,,,,,,,,,,,,,
106,0.0,,0.0,0.0,0.0,,mongenerator-battery_646,,,,,,,,,,,,,,,
107,0.0,,-1.37982e-06,-19.465,0.0,,mongenerator-battery_646,,,,,,,,,,,,,,,
108,0.0,,1.2230499999999998e-07,-23.2818,0.0,,mongenerator-battery_646,,,,,,,,,,,,,,,
109,0.0,,0.0,0.0,0.0,,mongenerator-battery_646,,,,,,,,,,,,,,,
110,0.0,,0.0,0.0,0.0,,mongenerator-battery_646,,,,,,,,,,,,,,,
111,0.0,,0.0,0.0,0.0,,mongenerator-battery_646,,,,,,,,,,,,,,,
112,0.0,,-7.710039999999999e-08,24.8505,0.0,,mongenerator-battery_646,,,,,,,,,,,,,,,
113,0.0,,3.06705e-08,17.8963,0.0,,mongenerator-battery_646,,,,,,,,,,,,,,,
114,0.0,,0.0,0.0,0.0,,mongenerator-battery_646,,,,,,,,,,,,,,,
115,0.0,,0.0,0.0,0.0,,mongenerator-battery_646,,,,,,,,,,,,,,,
116,0.0,,0.0,0.0,0.0,,mongenerator-battery_646,,,,,,,,,,,,,,,
117,0.0,,0.0,0.0,0.0,,mongenerator-battery_646,,,,,,,,,,,,,,,
118,0.0,,0.0,0.0,0.0,,mongenerator-battery_646,,,,,,,,,,,,,,,
119,0.0,,0.0,0.0,0.0,,mongenerator-battery_646,,,,,,,,,,,,,,,
120,0.0,,0.0,0.0,0.0,,mongenerator-battery_646,,,,,,,,,,,,,,,
121,0.0,,0.0,0.0,0.0,,mongenerator-battery_646,,,,,,,,,,,,,,,
122,0.0,,0.0,0.0,0.0,,mongenerator-battery_646,,,,,,,,,,,,,,,
123,0.0,,0.0,0.0,0.0,,mongenerator-battery_646,,,,,,,,,,,,,,,
124,0.0,,0.0,0.0,0.0,,mongenerator-battery_646,,,,,,,,,,,,,,,
125,0.0,,0.0,0.0,0.0,,mongenerator-battery_646,,,,,,,,,,,,,,,
126,0.0,,0.0,0.0,0.0,,mongenerator-battery_646,,,,,,,,,,,,,,,
127,0.0,,0.0,0.0,0.0,,mongenerator-battery_646,,,,,,,,,,,,,,,
128,0.0,,0.0,0.0,0.0,,mongenerator-battery_646,,,,,,,,,,,,,,,
129,0.0,,0.0,0.0,0.0,,mongenerator-battery_646,,,,,,,,,,,,,,,
130,0.0,,0.0,0.0,0.0,,mongenerator-battery_646,,,,,,,,,,,,,,,
131,0.0,,-5.66668e-08,-0.832791,0.0,,mongenerator-battery_646,,,,,,,,,,,,,,,
132,0.0,,-3.15444e-09,0.832791,0.0,,mongenerator-battery_646,,,,,,,,,,,,,,,
133,0.0,,-5.4702e-08,-4.44024,0.0,,mongenerator-battery_646,,,,,,,,,,,,,,,
134,0.0,,6.5133299999999995e-09,1.7854700000000001,0.0,,mongenerator-battery_646,,,,,,,,,,,,,,,
135,0.0,,-3.73446e-08,-2.37836,0.0,,mongenerator-battery_646,,,,,,,,,,,,,,,
136,0.0,,-1.46244e-08,5.03313,0.0,,mongenerator-battery_646,,,,,,,,,,,,,,,
137,0.0,,0.0,0.0,0.0,,mongenerator-battery_646,,,,,,,,,,,,,,,
138,0.0,,0.0,0.0,0.0,,mongenerator-battery_646,,,,,,,,,,,,,,,
139,0.0,,0.0,0.0,0.0,,mongenerator-battery_646,,,,,,,,,,,,,,,
140,0.0,,0.0,0.0,0.0,,mongenerator-battery_646,,,,,,,,,,,,,,,
141,0.0,,0.0,0.0,0.0,,mongenerator-battery_646,,,,,,,,,,,,,,,
142,0.0,,0.0,0.0,0.0,,mongenerator-battery_646,,,,,,,,,,,,,,,
143,0.0,,0.0,0.0,0.0,,mongenerator-battery_646,,,,,,,,,,,,,,,
144,0.0,,0.0,0.0,0.0,,mongenerator-battery_646,,,,,,,,,,,,,,,
145,0.0,,0.0,0.0,0.0,,mongenerator-battery_646,,,,,,,,,,,,,,,
146,0.0,,0.0,0.0,0.0,,mongenerator-battery_646,,,,,,,,,,,,,,,
147,0.0,,0.0,0.0,0.0,,mongenerator-battery_646,,,,,,,,,,,,,,,
148,0.0,,0.0,0.0,0.0,,mongenerator-battery_646,,,,,,,,,,,,,,,
149,0.0,,0.0,0.0,0.0,,mongenerator-battery_646,,,,,,,,,,,,,,,
150,0.0,,0.0,0.0,0.0,,mongenerator-battery_646,,,,,,,,,,,,,,,
151,0.0,,0.0,0.0,0.0,,mongenerator-battery_646,,,,,,,,,,,,,,,
152,0.0,,0.0,0.0,0.0,,mongenerator-battery_646,,,,,,,,,,,,,,,
153,0.0,,0.0,0.0,0.0,,mongenerator-battery_646,,,,,,,,,,,,,,,
154,0.0,,0.0,0.0,0.0,,mongenerator-battery_646,,,,,,,,,,,,,,,
155,0.0,,-8.07103e-07,-42.7468,0.0,,mongenerator-battery_646,,,,,,,,,,,,,,,
156,0.0,,0.0,0.0,0.0,,mongenerator-battery_646,,,,,,,,,,,,,,,
157,0.0,,0.0,0.0,0.0,,mongenerator-battery_646,,,,,,,,,,,,,,,
158,0.0,,0.0,0.0,0.0,,mongenerator-battery_646,,,,,,,,,,,,,,,
159,0.0,,-4.4453800000000005e-23,1.15167e-14,0.0,,mongenerator-battery_646,,,,,,,,,,,,,,,
160,0.0,,0.0,0.0,0.0,,mongenerator-battery_646,,,,,,,,,,,,,,,
161,0.0,,7.47009e-09,11.7664,0.0,,mongenerator-battery_646,,,,,,,,,,,,,,,
162,0.0,,-1.26973e-07,30.9805,0.0,,mongenerator-battery_646,,,,,,,,,,,,,,,
163,0.0,,0.0,0.0,0.0,,mongenerator-battery_646,,,,,,,,,,,,,,,
164,0.0,,0.0,0.0,0.0,,mongenerator-battery_646,,,,,,,,,,,,,,,
165,0.0,,0.0,0.0,0.0,,mongenerator-battery_646,,,,,,,,,,,,,,,
166,0.0,,0.0,0.0,0.0,,mongenerator-battery_646,,,,,,,,,,,,,,,
167,0.0,,0.0,0.0,0.0,,mongenerator-battery_646,,,,,,,,,,,,,,,
168,0.0,,0.0,0.0,0.0,,mongenerator-battery_646,,,,,,,,,,,,,,,
169,0.0,,0.0,0.0,0.0,,mongenerator-battery_646,,,,,,,,,,,,,,,
170,0.0,,0.0,0.0,0.0,,mongenerator-battery_646,,,,,,,,,,,,,,,
171,0.0,,0.0,0.0,0.0,,mongenerator-battery_646,,,,,,,,,,,,,,,
172,0.0,,0.0,0.0,0.0,,mongenerator-battery_646,,,,,,,,,,,,,,,
173,0.0,,0.0,0.0,0.0,,mongenerator-battery_646,,,,,,,,,,,,,,,
174,0.0,,0.0,0.0,0.0,,mongenerator-battery_646,,,,,,,,,,,,,,,
175,0.0,,0.0,0.0,0.0,,mongenerator-battery_646,,,,,,,,,,,,,,,
176,0.0,,0.0,0.0,0.0,,mongenerator-battery_646,,,,,,,,,,,,,,,
177,0.0,,-1.92316e-07,-26.3647,0.0,,mongenerator-battery_646,,,,,,,,,,,,,,,
178,0.0,,6.795020000000001e-08,-16.3821,0.0,,mongenerator-battery_646,,,,,,,,,,,,,,,
179,0.0,,-2.71961e-08,9.7292,0.0,,mongenerator-battery_646,,,,,,,,,,,,,,,
180,0.0,,1.6543199999999998e-05,-6.12073,0.0,,mongenerator-battery_646,,,,,,,,,,,,,,,
181,0.0,,4.97537e-08,4.70608,0.0,,mongenerator-battery_646,,,,,,,,,,,,,,,
182,0.0,,0.0,0.0,0.0,,mongenerator-battery_646,,,,,,,,,,,,,,,
183,0.0,,0.0,0.0,0.0,,mongenerator-battery_646,,,,,,,,,,,,,,,
184,0.0,,0.0,0.0,0.0,,mongenerator-battery_646,,,,,,,,,,,,,,,
185,0.0,,0.0,0.0,0.0,,mongenerator-battery_646,,,,,,,,,,,,,,,
186,0.0,,0.0,0.0,0.0,,mongenerator-battery_646,,,,,,,,,,,,,,,
187,0.0,,0.0,0.0,0.0,,mongenerator-battery_646,,,,,,,,,,,,,,,
188,0.0,,0.0,0.0,0.0,,mongenerator-battery_646,,,,,,,,,,,,,,,
189,0.0,,0.0,0.0,0.0,,mongenerator-battery_646,,,,,,,,,,,,,,,
190,0.0,,0.0,0.0,0.0,,mongenerator-battery_646,,,,,,,,,,,,,,,
191,0.0,,0.0,0.0,0.0,,mongenerator-battery_646,,,,,,,,,,,,,,,
192,0.0,,0.0,0.0,0.0,,mongenerator-battery_646,,,,,,,,,,,,,,,
193,0.0,,0.0,0.0,0.0,,mongenerator-battery_646,,,,,,,,,,,,,,,
194,0.0,,0.0,0.0,0.0,,mongenerator-battery_646,,,,,,,,,,,,,,,
195,0.0,,0.0,0.0,0.0,,mongenerator-battery_646,,,,,,,,,,,,,,,
196,0.0,,0.0,0.0,0.0,,mongenerator-battery_646,,,,,,,,,,,,,,,
197,0.0,,0.0,0.0,0.0,,mongenerator-battery_646,,,,,,,,,,,,,,,
198,0.0,,0.0,0.0,0.0,,mongenerator-battery_646,,,,,,,,,,,,,,,
199,0.0,,0.0,0.0,0.0,,mongenerator-battery_646,,,,,,,,,,,,,,,
200,0.0,,0.0,0.0,0.0,,mongenerator-battery_646,,,,,,,,,,,,,,,
201,0.0,,0.0,0.0,0.0,,mongenerator-battery_646,,,,,,,,,,,,,,,
202,0.0,,0.0,0.0,0.0,,mongenerator-battery_646,,,,,,,,,,,,,,,
203,0.0,,0.0,0.0,0.0,,mongenerator-battery_646,,,,,,,,,,,,,,,
204,0.0,,0.0,0.0,0.0,,mongenerator-battery_646,,,,,,,,,,,,,,,
205,0.0,,0.0,0.0,0.0,,mongenerator-battery_646,,,,,,,,,,,,,,,
206,0.0,,0.0,0.0,0.0,,mongenerator-battery_646,,,,,,,,,,,,,,,
207,0.0,,0.0,0.0,0.0,,mongenerator-battery_646,,,,,,,,,,,,,,,
208,0.0,,0.0,0.0,0.0,,mongenerator-battery_646,,,,,,,,,,,,,,,
209,0.0,,5.2438e-07,-4.24576,0.0,,mongenerator-battery_646,,,,,,,,,,,,,,,
210,0.0,,0.0,0.0,0.0,,mongenerator-battery_646,,,,,,,,,,,,,,,
211,0.0,,0.0,0.0,0.0,,mongenerator-battery_646,,,,,,,,,,,,,,,
212,0.0,,0.0,0.0,0.0,,mongenerator-battery_646,,,,,,,,,,,,,,,
213,0.0,,0.0,0.0,0.0,,mongenerator-battery_646,,,,,,,,,,,,,,,
214,0.0,,0.0,0.0,0.0,,mongenerator-battery_646,,,,,,,,,,,,,,,
215,0.0,,0.0,0.0,0.0,,mongenerator-battery_646,,,,,,,,,,,,,,,
216,0.0,,0.0,0.0,0.0,,mongenerator-battery_646,,,,,,,,,,,,,,,
217,0.0,,0.0,0.0,0.0,,mongenerator-battery_646,,,,,,,,,,,,,,,
218,0.0,,0.0,0.0,0.0,,mongenerator-battery_646,,,,,,,,,,,,,,,
219,0.0,,0.0,0.0,0.0,,mongenerator-battery_646,,,,,,,,,,,,,,,
220,0.0,,0.0,0.0,0.0,,mongenerator-battery_646,,,,,,,,,,,,,,,
221,0.0,,0.0,0.0,0.0,,mongenerator-battery_646,,,,,,,,,,,,,,,
222,0.0,,0.0,0.0,0.0,,mongenerator-battery_646,,,,,,,,,,,,,,,
223,0.0,,0.0,0.0,0.0,,mongenerator-battery_646,,,,,,,,,,,,,,,
224,0.0,,0.0,0.0,0.0,,mongenerator-battery_646,,,,,,,,,,,,,,,
225,0.0,,0.0,0.0,0.0,,mongenerator-battery_646,,,,,,,,,,,,,,,
226,0.0,,0.0,0.0,0.0,,mongenerator-battery_646,,,,,,,,,,,,,,,
227,0.0,,0.0,0.0,0.0,,mongenerator-battery_646,,,,,,,,,,,,,,,
228,0.0,,-1.12251e-09,0.166946,0.0,,mongenerator-battery_646,,,,,,,,,,,,,,,
229,0.0,,0.0,0.0,0.0,,mongenerator-battery_646,,,,,,,,,,,,,,,
230,0.0,,0.0,0.0,0.0,,mongenerator-battery_646,,,,,,,,,,,,,,,
231,0.0,,0.0,0.0,0.0,,mongenerator-battery_646,,,,,,,,,,,,,,,
232,0.0,,0.0,0.0,0.0,,mongenerator-battery_646,,,,,,,,,,,,,,,
233,0.0,,0.0,0.0,0.0,,mongenerator-battery_646,,,,,,,,,,,,,,,
234,0.0,,0.0,0.0,0.0,,mongenerator-battery_646,,,,,,,,,,,,,,,
235,0.0,,0.0,0.0,0.0,,mongenerator-battery_646,,,,,,,,,,,,,,,
236,0.0,,0.0,0.0,0.0,,mongenerator-battery_646,,,,,,,,,,,,,,,
237,0.0,,0.0,0.0,0.0,,mongenerator-battery_646,,,,,,,,,,,,,,,
238,0.0,,0.0,0.0,0.0,,mongenerator-battery_646,,,,,,,,,,,,,,,
239,0.0,,0.0,0.0,0.0,,mongenerator-battery_646,,,,,,,,,,,,,,,
240,0.0,,0.0,0.0,0.0,,mongenerator-battery_646,,,,,,,,,,,,,,,
241,0.0,,0.0,0.0,0.0,,mongenerator-battery_646,,,,,,,,,,,,,,,
242,0.0,,0.0,0.0,0.0,,mongenerator-battery_646,,,,,,,,,,,,,,,
243,0.0,,0.0,0.0,0.0,,mongenerator-battery_646,,,,,,,,,,,,,,,
244,0.0,,0.0,0.0,0.0,,mongenerator-battery_646,,,,,,,,,,,,,,,
245,0.0,,0.0,0.0,0.0,,mongenerator-battery_646,,,,,,,,,,,,,,,
246,0.0,,0.0,0.0,0.0,,mongenerator-battery_646,,,,,,,,,,,,,,,
247,0.0,,0.0,0.0,0.0,,mongenerator-battery_646,,,,,,,,,,,,,,,
248,0.0,,0.0,0.0,0.0,,mongenerator-battery_646,,,,,,,,,,,,,,,
249,0.0,,-3.4015300000000004e-06,-12.7721,0.0,,mongenerator-battery_646,,,,,,,,,,,,,,,
250,0.0,,0.0,0.0,0.0,,mongenerator-battery_646,,,,,,,,,,,,,,,
251,0.0,,-1.3456199999999998e-05,32.4166,0.0,,mongenerator-battery_646,,,,,,,,,,,,,,,
252,0.0,,-2.77744e-06,3.65984,0.0,,mongenerator-battery_646,,,,,,,,,,,,,,,
253,0.0,,0.0,0.0,0.0,,mongenerator-battery_646,,,,,,,,,,,,,,,
254,0.0,,0.0,0.0,0.0,,mongenerator-battery_646,,,,,,,,,,,,,,,
255,0.0,,0.0,0.0,0.0,,mongenerator-battery_646,,,,,,,,,,,,,,,
256,0.0,,0.0,0.0,0.0,,mongenerator-battery_646,,,,,,,,,,,,,,,
257,0.0,,0.0,0.0,0.0,,mongenerator-battery_646,,,,,,,,,,,,,,,
258,0.0,,0.0,0.0,0.0,,mongenerator-battery_646,,,,,,,,,,,,,,,
259,0.0,,0.0,0.0,0.0,,mongenerator-battery_646,,,,,,,,,,,,,,,
260,0.0,,0.0,0.0,0.0,,mongenerator-battery_646,,,,,,,,,,,,,,,
261,0.0,,0.0,0.0,0.0,,mongenerator-battery_646,,,,,,,,,,,,,,,
262,0.0,,0.0,0.0,0.0,,mongenerator-battery_646,,,,,,,,,,,,,,,
263,0.0,,0.0,0.0,0.0,,mongenerator-battery_646,,,,,,,,,,,,,,,
264,0.0,,0.0,0.0,0.0,,mongenerator-battery_646,,,,,,,,,,,,,,,
265,0.0,,0.0,0.0,0.0,,mongenerator-battery_646,,,,,,,,,,,,,,,
266,0.0,,0.0,0.0,0.0,,mongenerator-battery_646,,,,,,,,,,,,,,,
267,0.0,,0.0,0.0,0.0,,mongenerator-battery_646,,,,,,,,,,,,,,,
268,0.0,,0.0,0.0,0.0,,mongenerator-battery_646,,,,,,,,,,,,,,,
269,0.0,,0.0,0.0,0.0,,mongenerator-battery_646,,,,,,,,,,,,,,,
270,0.0,,0.0,0.0,0.0,,mongenerator-battery_646,,,,,,,,,,,,,,,
271,0.0,,0.0,0.0,0.0,,mongenerator-battery_646,,,,,,,,,,,,,,,
272,0.0,,0.0,0.0,0.0,,mongenerator-battery_646,,,,,,,,,,,,,,,
273,0.0,,0.0,0.0,0.0,,mongenerator-battery_646,,,,,,,,,,,,,,,
274,0.0,,-1.72378e-07,-32.4166,0.0,,mongenerator-battery_646,,,,,,,,,,,,,,,
275,0.0,,-1.7083599999999998e-06,3.7757300000000003,0.0,,mongenerator-battery_646,,,,,,,,,,,,,,,
276,0.0,,-1.0331500000000001e-05,32.3008,0.0,,mongenerator-battery_646,,,,,,,,,,,,,,,
277,0.0,,0.0,0.0,0.0,,mongenerator-battery_646,,,,,,,,,,,,,,,
278,0.0,,0.0,0.0,0.0,,mongenerator-battery_646,,,,,,,,,,,,,,,
279,0.0,,0.0,0.0,0.0,,mongenerator-battery_646,,,,,,,,,,,,,,,
280,0.0,,0.0,0.0,0.0,,mongenerator-battery_646,,,,,,,,,,,,,,,
281,0.0,,0.0,0.0,0.0,,mongenerator-battery_646,,,,,,,,,,,,,,,
282,0.0,,0.0,0.0,0.0,,mongenerator-battery_646,,,,,,,,,,,,,,,
283,0.0,,0.0,0.0,0.0,,mongenerator-battery_646,,,,,,,,,,,,,,,
284,0.0,,0.0,0.0,0.0,,mongenerator-battery_646,,,,,,,,,,,,,,,
285,0.0,,0.0,0.0,0.0,,mongenerator-battery_646,,,,,,,,,,,,,,,
286,0.0,,0.0,0.0,0.0,,mongenerator-battery_646,,,,,,,,,,,,,,,
287,0.0,,0.0,0.0,0.0,,mongenerator-battery_646,,,,,,,,,,,,,,,
288,0.0,,0.0,0.0,0.0,,mongenerator-battery_646,,,,,,,,,,,,,,,
289,0.0,,0.0,0.0,0.0,,mongenerator-battery_646,,,,,,,,,,,,,,,
290,0.0,,0.0,0.0,0.0,,mongenerator-battery_646,,,,,,,,,,,,,,,
291,0.0,,0.0,0.0,0.0,,mongenerator-battery_646,,,,,,,,,,,,,,,
292,0.0,,0.0,0.0,0.0,,mongenerator-battery_646,,,,,,,,,,,,,,,
293,0.0,,0.0,0.0,0.0,,mongenerator-battery_646,,,,,,,,,,,,,,,
294,0.0,,0.0,0.0,0.0,,mongenerator-battery_646,,,,,,,,,,,,,,,
295,0.0,,-6.41543e-07,-7.33345,0.0,,mongenerator-battery_646,,,,,,,,,,,,,,,
296,0.0,,0.0,0.0,0.0,,mongenerator-battery_646,,,,,,,,,,,,,,,
297,0.0,,0.0,0.0,0.0,,mongenerator-battery_646,,,,,,,,,,,,,,,
298,0.0,,-1.18189e-08,-25.0832,0.0,,mongenerator-battery_646,,,,,,,,,,,,,,,
299,0.0,,-9.69704e-06,21.4096,0.0,,mongenerator-battery_646,,,,,,,,,,,,,,,
300,0.0,,-3.42166e-06,4.19796,0.0,,mongenerator-battery_646,,,,,,,,,,,,,,,
1,0.0,,0.0,0.0,0.0,,mongenerator-battery_646_existing,,,,,,,,,,,,,,,
2,0.0,,0.0,0.0,0.0,,mongenerator-battery_646_existing,,,,,,,,,,,,,,,
