hour,t(sec),P1(kW),Q1(kvar),P2(kW),Q2(kvar),P3(kW),Q3(kvar),P4(kW),Q4(kvar),Name
1,0.0,0.0,0.0,0.0,0.0,0.0,0.0,0,0,mongenerator-battery_bus_fault
2,0.0,0.0,0.0,0.0,0.0,0.0,0.0,0,0,mongenerator-battery_bus_fault
3,0.0,0.0,0.0,0.0,0.0,0.0,0.0,0,0,mongenerator-battery_bus_fault
4,0.0,0.0,0.0,0.0,0.0,0.0,0.0,0,0,mongenerator-battery_bus_fault
5,0.0,0.0,0.0,0.0,0.0,0.0,0.0,0,0,mongenerator-battery_bus_fault
6,0.0,0.0,0.0,0.0,0.0,0.0,0.0,0,0,mongenerator-battery_bus_fault
7,0.0,0.0,0.0,0.0,0.0,0.0,0.0,0,0,mongenerator-battery_bus_fault
8,0.0,0.0,0.0,0.0,0.0,0.0,0.0,0,0,mongenerator-battery_bus_fault
9,0.0,0.0,0.0,0.0,0.0,0.0,0.0,0,0,mongenerator-battery_bus_fault
10,0.0,0.0,0.0,0.0,0.0,0.0,0.0,0,0,mongenerator-battery_bus_fault
11,0.0,0.0,0.0,0.0,0.0,0.0,0.0,0,0,mongenerator-battery_bus_fault
12,0.0,0.0,0.0,0.0,0.0,0.0,0.0,0,0,mongenerator-battery_bus_fault
13,0.0,0.0,0.0,0.0,0.0,0.0,0.0,0,0,mongenerator-battery_bus_fault
14,0.0,0.0,0.0,0.0,0.0,0.0,0.0,0,0,mongenerator-battery_bus_fault
15,0.0,0.0,0.0,0.0,0.0,0.0,0.0,0,0,mongenerator-battery_bus_fault
16,0.0,0.0,0.0,0.0,0.0,0.0,0.0,0,0,mongenerator-battery_bus_fault
17,0.0,0.0,0.0,0.0,0.0,0.0,0.0,0,0,mongenerator-battery_bus_fault
18,0.0,0.0,0.0,0.0,0.0,0.0,0.0,0,0,mongenerator-battery_bus_fault
19,0.0,0.0,0.0,0.0,0.0,0.0,0.0,0,0,mongenerator-battery_bus_fault
20,0.0,0.0,0.0,0.0,0.0,0.0,0.0,0,0,mongenerator-battery_bus_fault
21,0.0,0.0,0.0,0.0,0.0,0.0,0.0,0,0,mongenerator-battery_bus_fault
22,0.0,-44.2077,0.000545097,-44.2977,0.000810181,-44.3226,0.00135166,0,0,mongenerator-battery_bus_fault
23,0.0,0.0,0.0,0.0,0.0,0.0,0.0,0,0,mongenerator-battery_bus_fault
24,0.0,109.082,-0.00315235,109.144,-0.00124215,109.182,-0.00169773,0,0,mongenerator-battery_bus_fault
25,0.0,0.0,0.0,0.0,0.0,0.0,0.0,0,0,mongenerator-battery_bus_fault
26,0.0,0.0,0.0,0.0,0.0,0.0,0.0,0,0,mongenerator-battery_bus_fault
27,0.0,0.0,0.0,0.0,0.0,0.0,0.0,0,0,mongenerator-battery_bus_fault
28,0.0,0.0,0.0,0.0,0.0,0.0,0.0,0,0,mongenerator-battery_bus_fault
29,0.0,0.0,0.0,0.0,0.0,0.0,0.0,0,0,mongenerator-battery_bus_fault
30,0.0,0.0,0.0,0.0,0.0,0.0,0.0,0,0,mongenerator-battery_bus_fault
31,0.0,0.0,0.0,0.0,0.0,0.0,0.0,0,0,mongenerator-battery_bus_fault
32,0.0,0.0,0.0,0.0,0.0,0.0,0.0,0,0,mongenerator-battery_bus_fault
33,0.0,0.0,0.0,0.0,0.0,0.0,0.0,0,0,mongenerator-battery_bus_fault
34,0.0,-48.9494,-5.37932e-06,-49.0117,-3.92624e-06,-49.0756,-3.6291e-06,0,0,mongenerator-battery_bus_fault
35,0.0,54.6469,-8.65131e-06,54.811,-4.34911e-06,54.821,-8.20847e-06,0,0,mongenerator-battery_bus_fault
36,0.0,0.0,0.0,0.0,0.0,0.0,0.0,0,0,mongenerator-battery_bus_fault
37,0.0,-108.687,-9.45064e-06,-109.006,-4.03989e-06,-109.308,6.4772e-07,0,0,mongenerator-battery_bus_fault
38,0.0,109.493,2.78384e-06,109.654,-3.5768e-06,109.836,-5.02162e-06,0,0,mongenerator-battery_bus_fault
39,0.0,0.0,0.0,0.0,0.0,0.0,0.0,0,0,mongenerator-battery_bus_fault
40,0.0,0.0,0.0,0.0,0.0,0.0,0.0,0,0,mongenerator-battery_bus_fault
41,0.0,0.0,0.0,0.0,0.0,0.0,0.0,0,0,mongenerator-battery_bus_fault
42,0.0,0.0,0.0,0.0,0.0,0.0,0.0,0,0,mongenerator-battery_bus_fault
43,0.0,0.0,0.0,0.0,0.0,0.0,0.0,0,0,mongenerator-battery_bus_fault
44,0.0,0.0,0.0,0.0,0.0,0.0,0.0,0,0,mongenerator-battery_bus_fault
45,0.0,0.0,0.0,0.0,0.0,0.0,0.0,0,0,mongenerator-battery_bus_fault
46,0.0,-108.828,1.58133e-05,-109.004,1.41359e-05,-109.13,1.66063e-05,0,0,mongenerator-battery_bus_fault
47,0.0,1.27581,2.03577e-05,1.27579,-6.89027e-07,1.2791,2.09747e-05,0,0,mongenerator-battery_bus_fault
48,0.0,109.037,3.30228e-05,109.168,7.06235e-05,109.34,3.18445e-05,0,0,mongenerator-battery_bus_fault
49,0.0,0.0,0.0,0.0,0.0,0.0,0.0,0,0,mongenerator-battery_bus_fault
50,0.0,0.0,0.0,0.0,0.0,0.0,0.0,0,0,mongenerator-battery_bus_fault
51,0.0,0.0,0.0,0.0,0.0,0.0,0.0,0,0,mongenerator-battery_bus_fault
52,0.0,0.0,0.0,0.0,0.0,0.0,0.0,0,0,mongenerator-battery_bus_fault
53,0.0,0.0,0.0,0.0,0.0,0.0,0.0,0,0,mongenerator-battery_bus_fault
54,0.0,0.0,0.0,0.0,0.0,0.0,0.0,0,0,mongenerator-battery_bus_fault
55,0.0,0.0,0.0,0.0,0.0,0.0,0.0,0,0,mongenerator-battery_bus_fault
56,0.0,0.0,0.0,0.0,0.0,0.0,0.0,0,0,mongenerator-battery_bus_fault
57,0.0,0.0,0.0,0.0,0.0,0.0,0.0,0,0,mongenerator-battery_bus_fault
58,0.0,0.0,0.0,0.0,0.0,0.0,0.0,0,0,mongenerator-battery_bus_fault
59,0.0,-97.455,-1.92067e-06,-97.7572,4.30441e-06,-97.7858,3.12047e-06,0,0,mongenerator-battery_bus_fault
60,0.0,84.9822,-3.78435e-07,84.9916,4.12437e-07,84.9934,8.40701e-08,0,0,mongenerator-battery_bus_fault
61,0.0,0.0,0.0,0.0,0.0,0.0,0.0,0,0,mongenerator-battery_bus_fault
62,0.0,0.0,0.0,0.0,0.0,0.0,0.0,0,0,mongenerator-battery_bus_fault
63,0.0,0.0,0.0,0.0,0.0,0.0,0.0,0,0,mongenerator-battery_bus_fault
64,0.0,0.0,0.0,0.0,0.0,0.0,0.0,0,0,mongenerator-battery_bus_fault
65,0.0,0.0,0.0,0.0,0.0,0.0,0.0,0,0,mongenerator-battery_bus_fault
66,0.0,0.0,0.0,0.0,0.0,0.0,0.0,0,0,mongenerator-battery_bus_fault
67,0.0,0.0,0.0,0.0,0.0,0.0,0.0,0,0,mongenerator-battery_bus_fault
68,0.0,0.0,0.0,0.0,0.0,0.0,0.0,0,0,mongenerator-battery_bus_fault
69,0.0,0.0,0.0,0.0,0.0,0.0,0.0,0,0,mongenerator-battery_bus_fault
70,0.0,0.0,0.0,0.0,0.0,0.0,0.0,0,0,mongenerator-battery_bus_fault
71,0.0,0.0,0.0,0.0,0.0,0.0,0.0,0,0,mongenerator-battery_bus_fault
72,0.0,0.0,0.0,0.0,0.0,0.0,0.0,0,0,mongenerator-battery_bus_fault
73,0.0,0.0,0.0,0.0,0.0,0.0,0.0,0,0,mongenerator-battery_bus_fault
74,0.0,0.0,0.0,0.0,0.0,0.0,0.0,0,0,mongenerator-battery_bus_fault
75,0.0,0.0,0.0,0.0,0.0,0.0,0.0,0,0,mongenerator-battery_bus_fault
76,0.0,0.0,0.0,0.0,0.0,0.0,0.0,0,0,mongenerator-battery_bus_fault
77,0.0,0.0,0.0,0.0,0.0,0.0,0.0,0,0,mongenerator-battery_bus_fault
78,0.0,0.0,0.0,0.0,0.0,0.0,0.0,0,0,mongenerator-battery_bus_fault
79,0.0,0.0,0.0,0.0,0.0,0.0,0.0,0,0,mongenerator-battery_bus_fault
80,0.0,0.0,0.0,0.0,0.0,0.0,0.0,0,0,mongenerator-battery_bus_fault
81,0.0,0.0,0.0,0.0,0.0,0.0,0.0,0,0,mongenerator-battery_bus_fault
82,0.0,0.0,0.0,0.0,0.0,0.0,0.0,0,0,mongenerator-battery_bus_fault
83,0.0,0.0,0.0,0.0,0.0,0.0,0.0,0,0,mongenerator-battery_bus_fault
84,0.0,0.0,0.0,0.0,0.0,0.0,0.0,0,0,mongenerator-battery_bus_fault
85,0.0,0.0,0.0,0.0,0.0,0.0,0.0,0,0,mongenerator-battery_bus_fault
86,0.0,0.0,0.0,0.0,0.0,0.0,0.0,0,0,mongenerator-battery_bus_fault
87,0.0,0.0,0.0,0.0,0.0,0.0,0.0,0,0,mongenerator-battery_bus_fault
88,0.0,0.0,0.0,0.0,0.0,0.0,0.0,0,0,mongenerator-battery_bus_fault
89,0.0,0.0,0.0,0.0,0.0,0.0,0.0,0,0,mongenerator-battery_bus_fault
90,0.0,0.0,0.0,0.0,0.0,0.0,0.0,0,0,mongenerator-battery_bus_fault
91,0.0,0.0,0.0,0.0,0.0,0.0,0.0,0,0,mongenerator-battery_bus_fault
92,0.0,0.0,0.0,0.0,0.0,0.0,0.0,0,0,mongenerator-battery_bus_fault
93,0.0,0.0,0.0,0.0,0.0,0.0,0.0,0,0,mongenerator-battery_bus_fault
94,0.0,0.0,0.0,0.0,0.0,0.0,0.0,0,0,mongenerator-battery_bus_fault
95,0.0,0.0,0.0,0.0,0.0,0.0,0.0,0,0,mongenerator-battery_bus_fault
96,0.0,0.0,0.0,0.0,0.0,0.0,0.0,0,0,mongenerator-battery_bus_fault
97,0.0,0.0,0.0,0.0,0.0,0.0,0.0,0,0,mongenerator-battery_bus_fault
98,0.0,0.0,0.0,0.0,0.0,0.0,0.0,0,0,mongenerator-battery_bus_fault
99,0.0,0.0,0.0,0.0,0.0,0.0,0.0,0,0,mongenerator-battery_bus_fault
100,0.0,0.0,0.0,0.0,0.0,0.0,0.0,0,0,mongenerator-battery_bus_fault
101,0.0,0.0,0.0,0.0,0.0,0.0,0.0,0,0,mongenerator-battery_bus_fault
102,0.0,0.0,0.0,0.0,0.0,0.0,0.0,0,0,mongenerator-battery_bus_fault
103,0.0,0.0,0.0,0.0,0.0,0.0,0.0,0,0,mongenerator-battery_bus_fault
104,0.0,0.0,0.0,0.0,0.0,0.0,0.0,0,0,mongenerator-battery_bus_fault
105,0.0,0.0,0.0,0.0,0.0,0.0,0.0,0,0,mongenerator-battery_bus_fault
106,0.0,0.0,0.0,0.0,0.0,0.0,0.0,0,0,mongenerator-battery_bus_fault
107,0.0,0.0,0.0,0.0,0.0,0.0,0.0,0,0,mongenerator-battery_bus_fault
108,0.0,0.0,0.0,0.0,0.0,0.0,0.0,0,0,mongenerator-battery_bus_fault
109,0.0,0.0,0.0,0.0,0.0,0.0,0.0,0,0,mongenerator-battery_bus_fault
110,0.0,0.0,0.0,0.0,0.0,0.0,0.0,0,0,mongenerator-battery_bus_fault
111,0.0,0.0,0.0,0.0,0.0,0.0,0.0,0,0,mongenerator-battery_bus_fault
112,0.0,0.0,0.0,0.0,0.0,0.0,0.0,0,0,mongenerator-battery_bus_fault
113,0.0,0.0,0.0,0.0,0.0,0.0,0.0,0,0,mongenerator-battery_bus_fault
114,0.0,0.0,0.0,0.0,0.0,0.0,0.0,0,0,mongenerator-battery_bus_fault
115,0.0,0.0,0.0,0.0,0.0,0.0,0.0,0,0,mongenerator-battery_bus_fault
116,0.0,0.0,0.0,0.0,0.0,0.0,0.0,0,0,mongenerator-battery_bus_fault
117,0.0,0.0,0.0,0.0,0.0,0.0,0.0,0,0,mongenerator-battery_bus_fault
118,0.0,0.0,0.0,0.0,0.0,0.0,0.0,0,0,mongenerator-battery_bus_fault
119,0.0,0.0,0.0,0.0,0.0,0.0,0.0,0,0,mongenerator-battery_bus_fault
120,0.0,0.0,0.0,0.0,0.0,0.0,0.0,0,0,mongenerator-battery_bus_fault
121,0.0,0.0,0.0,0.0,0.0,0.0,0.0,0,0,mongenerator-battery_bus_fault
122,0.0,0.0,0.0,0.0,0.0,0.0,0.0,0,0,mongenerator-battery_bus_fault
123,0.0,0.0,0.0,0.0,0.0,0.0,0.0,0,0,mongenerator-battery_bus_fault
124,0.0,0.0,0.0,0.0,0.0,0.0,0.0,0,0,mongenerator-battery_bus_fault
125,0.0,0.0,0.0,0.0,0.0,0.0,0.0,0,0,mongenerator-battery_bus_fault
126,0.0,0.0,0.0,0.0,0.0,0.0,0.0,0,0,mongenerator-battery_bus_fault
127,0.0,0.0,0.0,0.0,0.0,0.0,0.0,0,0,mongenerator-battery_bus_fault
128,0.0,0.0,0.0,0.0,0.0,0.0,0.0,0,0,mongenerator-battery_bus_fault
129,0.0,0.0,0.0,0.0,0.0,0.0,0.0,0,0,mongenerator-battery_bus_fault
130,0.0,0.0,0.0,0.0,0.0,0.0,0.0,0,0,mongenerator-battery_bus_fault
131,0.0,0.0,0.0,0.0,0.0,0.0,0.0,0,0,mongenerator-battery_bus_fault
132,0.0,0.0,0.0,0.0,0.0,0.0,0.0,0,0,mongenerator-battery_bus_fault
133,0.0,0.0,0.0,0.0,0.0,0.0,0.0,0,0,mongenerator-battery_bus_fault
134,0.0,0.0,0.0,0.0,0.0,0.0,0.0,0,0,mongenerator-battery_bus_fault
135,0.0,0.0,0.0,0.0,0.0,0.0,0.0,0,0,mongenerator-battery_bus_fault
136,0.0,0.0,0.0,0.0,0.0,0.0,0.0,0,0,mongenerator-battery_bus_fault
137,0.0,0.0,0.0,0.0,0.0,0.0,0.0,0,0,mongenerator-battery_bus_fault
138,0.0,0.0,0.0,0.0,0.0,0.0,0.0,0,0,mongenerator-battery_bus_fault
139,0.0,0.0,0.0,0.0,0.0,0.0,0.0,0,0,mongenerator-battery_bus_fault
140,0.0,0.0,0.0,0.0,0.0,0.0,0.0,0,0,mongenerator-battery_bus_fault
141,0.0,0.0,0.0,0.0,0.0,0.0,0.0,0,0,mongenerator-battery_bus_fault
142,0.0,0.0,0.0,0.0,0.0,0.0,0.0,0,0,mongenerator-battery_bus_fault
143,0.0,0.0,0.0,0.0,0.0,0.0,0.0,0,0,mongenerator-battery_bus_fault
144,0.0,0.0,0.0,0.0,0.0,0.0,0.0,0,0,mongenerator-battery_bus_fault
145,0.0,0.0,0.0,0.0,0.0,0.0,0.0,0,0,mongenerator-battery_bus_fault
146,0.0,0.0,0.0,0.0,0.0,0.0,0.0,0,0,mongenerator-battery_bus_fault
147,0.0,0.0,0.0,0.0,0.0,0.0,0.0,0,0,mongenerator-battery_bus_fault
148,0.0,0.0,0.0,0.0,0.0,0.0,0.0,0,0,mongenerator-battery_bus_fault
149,0.0,0.0,0.0,0.0,0.0,0.0,0.0,0,0,mongenerator-battery_bus_fault
150,0.0,0.0,0.0,0.0,0.0,0.0,0.0,0,0,mongenerator-battery_bus_fault
151,0.0,0.0,0.0,0.0,0.0,0.0,0.0,0,0,mongenerator-battery_bus_fault
152,0.0,0.0,0.0,0.0,0.0,0.0,0.0,0,0,mongenerator-battery_bus_fault
153,0.0,0.0,0.0,0.0,0.0,0.0,0.0,0,0,mongenerator-battery_bus_fault
154,0.0,0.0,0.0,0.0,0.0,0.0,0.0,0,0,mongenerator-battery_bus_fault
155,0.0,0.0,0.0,0.0,0.0,0.0,0.0,0,0,mongenerator-battery_bus_fault
156,0.0,0.0,0.0,0.0,0.0,0.0,0.0,0,0,mongenerator-battery_bus_fault
157,0.0,0.0,0.0,0.0,0.0,0.0,0.0,0,0,mongenerator-battery_bus_fault
158,0.0,0.0,0.0,0.0,0.0,0.0,0.0,0,0,mongenerator-battery_bus_fault
159,0.0,0.0,0.0,0.0,0.0,0.0,0.0,0,0,mongenerator-battery_bus_fault
160,0.0,0.0,0.0,0.0,0.0,0.0,0.0,0,0,mongenerator-battery_bus_fault
161,0.0,0.0,0.0,0.0,0.0,0.0,0.0,0,0,mongenerator-battery_bus_fault
162,0.0,0.0,0.0,0.0,0.0,0.0,0.0,0,0,mongenerator-battery_bus_fault
163,0.0,0.0,0.0,0.0,0.0,0.0,0.0,0,0,mongenerator-battery_bus_fault
164,0.0,0.0,0.0,0.0,0.0,0.0,0.0,0,0,mongenerator-battery_bus_fault
165,0.0,0.0,0.0,0.0,0.0,0.0,0.0,0,0,mongenerator-battery_bus_fault
166,0.0,0.0,0.0,0.0,0.0,0.0,0.0,0,0,mongenerator-battery_bus_fault
167,0.0,0.0,0.0,0.0,0.0,0.0,0.0,0,0,mongenerator-battery_bus_fault
168,0.0,0.0,0.0,0.0,0.0,0.0,0.0,0,0,mongenerator-battery_bus_fault
169,0.0,0.0,0.0,0.0,0.0,0.0,0.0,0,0,mongenerator-battery_bus_fault
170,0.0,0.0,0.0,0.0,0.0,0.0,0.0,0,0,mongenerator-battery_bus_fault
171,0.0,0.0,0.0,0.0,0.0,0.0,0.0,0,0,mongenerator-battery_bus_fault
172,0.0,0.0,0.0,0.0,0.0,0.0,0.0,0,0,mongenerator-battery_bus_fault
173,0.0,0.0,0.0,0.0,0.0,0.0,0.0,0,0,mongenerator-battery_bus_fault
174,0.0,0.0,0.0,0.0,0.0,0.0,0.0,0,0,mongenerator-battery_bus_fault
175,0.0,0.0,0.0,0.0,0.0,0.0,0.0,0,0,mongenerator-battery_bus_fault
176,0.0,0.0,0.0,0.0,0.0,0.0,0.0,0,0,mongenerator-battery_bus_fault
177,0.0,0.0,0.0,0.0,0.0,0.0,0.0,0,0,mongenerator-battery_bus_fault
178,0.0,0.0,0.0,0.0,0.0,0.0,0.0,0,0,mongenerator-battery_bus_fault
179,0.0,0.0,0.0,0.0,0.0,0.0,0.0,0,0,mongenerator-battery_bus_fault
180,0.0,0.0,0.0,0.0,0.0,0.0,0.0,0,0,mongenerator-battery_bus_fault
181,0.0,0.0,0.0,0.0,0.0,0.0,0.0,0,0,mongenerator-battery_bus_fault
182,0.0,0.0,0.0,0.0,0.0,0.0,0.0,0,0,mongenerator-battery_bus_fault
183,0.0,0.0,0.0,0.0,0.0,0.0,0.0,0,0,mongenerator-battery_bus_fault
184,0.0,0.0,0.0,0.0,0.0,0.0,0.0,0,0,mongenerator-battery_bus_fault
185,0.0,0.0,0.0,0.0,0.0,0.0,0.0,0,0,mongenerator-battery_bus_fault
186,0.0,0.0,0.0,0.0,0.0,0.0,0.0,0,0,mongenerator-battery_bus_fault
187,0.0,0.0,0.0,0.0,0.0,0.0,0.0,0,0,mongenerator-battery_bus_fault
188,0.0,0.0,0.0,0.0,0.0,0.0,0.0,0,0,mongenerator-battery_bus_fault
189,0.0,0.0,0.0,0.0,0.0,0.0,0.0,0,0,mongenerator-battery_bus_fault
190,0.0,0.0,0.0,0.0,0.0,0.0,0.0,0,0,mongenerator-battery_bus_fault
191,0.0,-108.867,0.00312069,-109.057,0.00277219,-109.119,0.00433744,0,0,mongenerator-battery_bus_fault
192,0.0,57.6705,0.000530154,57.7571,0.000411371,57.8255,0.00074589,0,0,mongenerator-battery_bus_fault
193,0.0,0.0,0.0,0.0,0.0,0.0,0.0,0,0,mongenerator-battery_bus_fault
194,0.0,0.0,0.0,0.0,0.0,0.0,0.0,0,0,mongenerator-battery_bus_fault
195,0.0,0.0,0.0,0.0,0.0,0.0,0.0,0,0,mongenerator-battery_bus_fault
196,0.0,0.0,0.0,0.0,0.0,0.0,0.0,0,0,mongenerator-battery_bus_fault
197,0.0,0.0,0.0,0.0,0.0,0.0,0.0,0,0,mongenerator-battery_bus_fault
198,0.0,0.0,0.0,0.0,0.0,0.0,0.0,0,0,mongenerator-battery_bus_fault
199,0.0,0.0,0.0,0.0,0.0,0.0,0.0,0,0,mongenerator-battery_bus_fault
200,0.0,0.0,0.0,0.0,0.0,0.0,0.0,0,0,mongenerator-battery_bus_fault
201,0.0,0.0,0.0,0.0,0.0,0.0,0.0,0,0,mongenerator-battery_bus_fault
202,0.0,0.0,0.0,0.0,0.0,0.0,0.0,0,0,mongenerator-battery_bus_fault
203,0.0,0.0,0.0,0.0,0.0,0.0,0.0,0,0,mongenerator-battery_bus_fault
204,0.0,-109.378,-4.65787e-06,-109.376,-5.99901e-06,-108.411,-9.72016e-06,0,0,mongenerator-battery_bus_fault
205,0.0,110.157,0.00243042,110.094,0.00247252,110.352,0.000194014,0,0,mongenerator-battery_bus_fault
206,0.0,0.0,0.0,0.0,0.0,0.0,0.0,0,0,mongenerator-battery_bus_fault
207,0.0,-97.0321,4.53204e-05,-96.9321,3.49913e-05,-97.238,3.80183e-05,0,0,mongenerator-battery_bus_fault
208,0.0,108.919,-1.24785e-05,108.993,-7.18931e-06,109.222,-9.5983e-06,0,0,mongenerator-battery_bus_fault
209,0.0,0.0,0.0,0.0,0.0,0.0,0.0,0,0,mongenerator-battery_bus_fault
210,0.0,0.0,0.0,0.0,0.0,0.0,0.0,0,0,mongenerator-battery_bus_fault
211,0.0,0.0,0.0,0.0,0.0,0.0,0.0,0,0,mongenerator-battery_bus_fault
212,0.0,0.0,0.0,0.0,0.0,0.0,0.0,0,0,mongenerator-battery_bus_fault
213,0.0,0.0,0.0,0.0,0.0,0.0,0.0,0,0,mongenerator-battery_bus_fault
214,0.0,0.0,0.0,0.0,0.0,0.0,0.0,0,0,mongenerator-battery_bus_fault
215,0.0,-108.839,-8.13103e-06,-109.12,-6.06445e-06,-109.139,-7.85444e-06,0,0,mongenerator-battery_bus_fault
216,0.0,82.1551,0.00105015,82.27,0.00025963,82.3526,0.00100033,0,0,mongenerator-battery_bus_fault
217,0.0,0.0,0.0,0.0,0.0,0.0,0.0,0,0,mongenerator-battery_bus_fault
218,0.0,0.0,0.0,0.0,0.0,0.0,0.0,0,0,mongenerator-battery_bus_fault
219,0.0,0.0,0.0,0.0,0.0,0.0,0.0,0,0,mongenerator-battery_bus_fault
220,0.0,0.0,0.0,0.0,0.0,0.0,0.0,0,0,mongenerator-battery_bus_fault
221,0.0,0.0,0.0,0.0,0.0,0.0,0.0,0,0,mongenerator-battery_bus_fault
222,0.0,0.0,0.0,0.0,0.0,0.0,0.0,0,0,mongenerator-battery_bus_fault
223,0.0,0.0,0.0,0.0,0.0,0.0,0.0,0,0,mongenerator-battery_bus_fault
224,0.0,0.0,0.0,0.0,0.0,0.0,0.0,0,0,mongenerator-battery_bus_fault
225,0.0,0.0,0.0,0.0,0.0,0.0,0.0,0,0,mongenerator-battery_bus_fault
226,0.0,-97.21,5.88235e-06,-97.3505,3.739e-06,-97.5682,9.42819e-06,0,0,mongenerator-battery_bus_fault
227,0.0,109.701,-2.88311e-05,109.751,-3.22458e-05,110.03,-3.32144e-05,0,0,mongenerator-battery_bus_fault
228,0.0,0.0,0.0,0.0,0.0,0.0,0.0,0,0,mongenerator-battery_bus_fault
229,0.0,0.0,0.0,0.0,0.0,0.0,0.0,0,0,mongenerator-battery_bus_fault
230,0.0,-43.0861,0.000115502,-43.179,0.000152431,-43.2674,-8.33658e-05,0,0,mongenerator-battery_bus_fault
231,0.0,48.0544,0.000539513,48.1386,0.000307937,48.2241,0.000300813,0,0,mongenerator-battery_bus_fault
232,0.0,0.0,0.0,0.0,0.0,0.0,0.0,0,0,mongenerator-battery_bus_fault
233,0.0,0.0,0.0,0.0,0.0,0.0,0.0,0,0,mongenerator-battery_bus_fault
234,0.0,0.0,0.0,0.0,0.0,0.0,0.0,0,0,mongenerator-battery_bus_fault
235,0.0,0.0,0.0,0.0,0.0,0.0,0.0,0,0,mongenerator-battery_bus_fault
236,0.0,0.0,0.0,0.0,0.0,0.0,0.0,0,0,mongenerator-battery_bus_fault
237,0.0,0.0,0.0,0.0,0.0,0.0,0.0,0,0,mongenerator-battery_bus_fault
238,0.0,-7.28275,6.36452e-07,-7.21409,3.00907e-08,-7.21523,-4.51564e-08,0,0,mongenerator-battery_bus_fault
239,0.0,-102.893,-6.64149e-05,-101.809,-2.01923e-05,-101.907,-9.97587e-05,0,0,mongenerator-battery_bus_fault
240,0.0,64.7651,0.000382145,64.0877,0.000427439,64.1356,0.000364462,0,0,mongenerator-battery_bus_fault
241,0.0,0.0,0.0,0.0,0.0,0.0,0.0,0,0,mongenerator-battery_bus_fault
242,0.0,0.0,0.0,0.0,0.0,0.0,0.0,0,0,mongenerator-battery_bus_fault
243,0.0,0.0,0.0,0.0,0.0,0.0,0.0,0,0,mongenerator-battery_bus_fault
244,0.0,0.0,0.0,0.0,0.0,0.0,0.0,0,0,mongenerator-battery_bus_fault
245,0.0,0.0,0.0,0.0,0.0,0.0,0.0,0,0,mongenerator-battery_bus_fault
246,0.0,0.0,0.0,0.0,0.0,0.0,0.0,0,0,mongenerator-battery_bus_fault
247,0.0,0.0,0.0,0.0,0.0,0.0,0.0,0,0,mongenerator-battery_bus_fault
248,0.0,0.0,0.0,0.0,0.0,0.0,0.0,0,0,mongenerator-battery_bus_fault
249,0.0,0.0,0.0,0.0,0.0,0.0,0.0,0,0,mongenerator-battery_bus_fault
250,0.0,-109.483,-9.48336e-06,-109.646,-1.07018e-05,-108.53,-1.11006e-05,0,0,mongenerator-battery_bus_fault
251,0.0,110.812,-2.84753e-05,111.007,-3.18599e-05,109.791,-2.93966e-05,0,0,mongenerator-battery_bus_fault
252,0.0,0.0,0.0,0.0,0.0,0.0,0.0,0,0,mongenerator-battery_bus_fault
253,0.0,0.0,0.0,0.0,0.0,0.0,0.0,0,0,mongenerator-battery_bus_fault
254,0.0,0.0,0.0,0.0,0.0,0.0,0.0,0,0,mongenerator-battery_bus_fault
255,0.0,0.0,0.0,0.0,0.0,0.0,0.0,0,0,mongenerator-battery_bus_fault
256,0.0,0.0,0.0,0.0,0.0,0.0,0.0,0,0,mongenerator-battery_bus_fault
257,0.0,0.0,0.0,0.0,0.0,0.0,0.0,0,0,mongenerator-battery_bus_fault
258,0.0,0.0,0.0,0.0,0.0,0.0,0.0,0,0,mongenerator-battery_bus_fault
259,0.0,0.0,0.0,0.0,0.0,0.0,0.0,0,0,mongenerator-battery_bus_fault
260,0.0,0.0,0.0,0.0,0.0,0.0,0.0,0,0,mongenerator-battery_bus_fault
261,0.0,0.0,0.0,0.0,0.0,0.0,0.0,0,0,mongenerator-battery_bus_fault
262,0.0,0.0,0.0,0.0,0.0,0.0,0.0,0,0,mongenerator-battery_bus_fault
263,0.0,-76.2727,-2.31238e-06,-75.5347,-3.12395e-06,-76.4664,-3.88417e-06,0,0,mongenerator-battery_bus_fault
264,0.0,0.0,0.0,0.0,0.0,0.0,0.0,0,0,mongenerator-battery_bus_fault
265,0.0,0.0,0.0,0.0,0.0,0.0,0.0,0,0,mongenerator-battery_bus_fault
266,0.0,29.8383,8.43878e-05,29.5204,0.000188243,29.9319,4.63261e-05,0,0,mongenerator-battery_bus_fault
267,0.0,51.8694,0.000340623,51.3224,0.00042506,52.0306,0.000211578,0,0,mongenerator-battery_bus_fault
268,0.0,0.0,0.0,0.0,0.0,0.0,0.0,0,0,mongenerator-battery_bus_fault
269,0.0,0.0,0.0,0.0,0.0,0.0,0.0,0,0,mongenerator-battery_bus_fault
270,0.0,0.0,0.0,0.0,0.0,0.0,0.0,0,0,mongenerator-battery_bus_fault
271,0.0,0.0,0.0,0.0,0.0,0.0,0.0,0,0,mongenerator-battery_bus_fault
272,0.0,0.0,0.0,0.0,0.0,0.0,0.0,0,0,mongenerator-battery_bus_fault
273,0.0,-109.274,-1.47967e-05,-109.455,-6.66934e-06,-109.688,-7.84193e-06,0,0,mongenerator-battery_bus_fault
274,0.0,53.9238,-4.91267e-06,54.0038,-3.7702e-06,54.1488,-4.34755e-06,0,0,mongenerator-battery_bus_fault
275,0.0,0.0,0.0,0.0,0.0,0.0,0.0,0,0,mongenerator-battery_bus_fault
276,0.0,0.0,0.0,0.0,0.0,0.0,0.0,0,0,mongenerator-battery_bus_fault
277,0.0,0.0,0.0,0.0,0.0,0.0,0.0,0,0,mongenerator-battery_bus_fault
278,0.0,0.0,0.0,0.0,0.0,0.0,0.0,0,0,mongenerator-battery_bus_fault
279,0.0,0.0,0.0,0.0,0.0,0.0,0.0,0,0,mongenerator-battery_bus_fault
280,0.0,0.0,0.0,0.0,0.0,0.0,0.0,0,0,mongenerator-battery_bus_fault
