hour,t(sec),V1,VAngle1,V2,VAngle2,I1,IAngle1,I2,IAngle2,V3,Name,VAngle3,I3,IAngle3,V4,VAngle4,I4,IAngle4,kv,V1(PU),V2(PU),V3(PU)
1,0.0,,114.747,,0.0,20.2518,114.744,20.2518,-65.2564,2368.79,monload-611_runway,,,,,,,,2.4,,,0.9869958333333333
2,0.0,,114.697,,0.0,21.49,114.701,21.49,-65.2992,2366.87,monload-611_runway,,,,,,,,2.4,,,0.9861958333333333
3,0.0,,114.722,,0.0,18.735,114.72,18.735,-65.2798,2367.87,monload-611_runway,,,,,,,,2.4,,,0.9866125
4,0.0,,114.726,,0.0,18.1696,114.726,18.1696,-65.2739,2368.05,monload-611_runway,,,,,,,,2.4,,,0.9866875
5,0.0,,114.565,,0.0,18.3433,114.566,18.3433,-65.4336,2361.61,monload-611_runway,,,,,,,,2.4,,,0.9840041666666667
6,0.0,,114.524,,0.0,19.8621,114.528,19.8621,-65.4723,2359.84,monload-611_runway,,,,,,,,2.4,,,0.9832666666666667
7,0.0,,113.826,,0.0,29.8483,113.827,29.8483,-66.1728,2331.95,monload-611_runway,,,,,,,,2.4,,,0.9716458333333332
8,0.0,,113.816,,0.0,31.8618,113.817,31.8618,-66.1833,2331.55,monload-611_runway,,,,,,,,2.4,,,0.9714791666666668
9,0.0,,113.223,,0.0,44.0268,113.223,44.0268,-66.7767,2307.84,monload-611_runway,,,,,,,,2.4,,,0.9616
10,0.0,,113.419,,0.0,37.8158,113.416,37.8158,-66.5838,2315.82,monload-611_runway,,,,,,,,2.4,,,0.964925
11,0.0,,113.651,,0.0,26.7204,113.648,26.7204,-66.3523,2325.19,monload-611_runway,,,,,,,,2.4,,,0.9688291666666667
12,0.0,,113.673,,0.0,25.0426,113.673,25.0426,-66.327,2326.06,monload-611_runway,,,,,,,,2.4,,,0.9691916666666667
13,0.0,,113.699,,0.0,24.9564,113.699,24.9564,-66.3009,2327.09,monload-611_runway,,,,,,,,2.4,,,0.9696208333333334
14,0.0,,113.741,,0.0,24.9959,113.736,24.9959,-66.2641,2328.77,monload-611_runway,,,,,,,,2.4,,,0.9703208333333333
15,0.0,,113.733,,0.0,24.9268,113.734,24.9268,-66.2662,2328.45,monload-611_runway,,,,,,,,2.4,,,0.9701874999999999
16,0.0,,113.726,,0.0,24.7866,113.727,24.7866,-66.2733,2328.12,monload-611_runway,,,,,,,,2.4,,,0.97005
17,0.0,,113.776,,0.0,25.989,113.77,25.989,-66.23,2329.88,monload-611_runway,,,,,,,,2.4,,,0.9707833333333333
18,0.0,,113.785,,0.0,31.4301,113.785,31.4301,-66.2147,2330.01,monload-611_runway,,,,,,,,2.4,,,0.9708375000000001
19,0.0,,113.656,,0.0,43.1551,113.657,43.1551,-66.3427,2324.68,monload-611_runway,,,,,,,,2.4,,,0.9686166666666666
20,0.0,,113.64,,0.0,45.3034,113.641,45.3034,-66.3587,2324.09,monload-611_runway,,,,,,,,2.4,,,0.9683708333333334
21,0.0,,113.774,,0.0,47.8087,113.772,47.8087,-66.2282,2329.45,monload-611_runway,,,,,,,,2.4,,,0.9706041666666666
22,0.0,,113.851,,0.0,46.4444,113.85,46.4444,-66.1498,2332.74,monload-611_runway,,,,,,,,2.4,,,0.9719749999999999
23,0.0,,114.275,,0.0,35.6973,114.27,35.6973,-65.7299,2349.86,monload-611_runway,,,,,,,,2.4,,,0.9791083333333334
24,0.0,,114.582,,0.0,22.9122,114.578,22.9122,-65.4217,2362.13,monload-611_runway,,,,,,,,2.4,,,0.9842208333333334
25,0.0,,114.667,,0.0,18.6667,114.666,18.6667,-65.3337,2365.63,monload-611_runway,,,,,,,,2.4,,,0.9856791666666667
26,0.0,,114.68,,0.0,17.8494,114.678,17.8494,-65.3217,2366.12,monload-611_runway,,,,,,,,2.4,,,0.9858833333333333
27,0.0,,114.705,,0.0,16.9263,114.702,16.9263,-65.2979,2367.12,monload-611_runway,,,,,,,,2.4,,,0.9863
28,0.0,,114.713,,0.0,17.0116,114.712,17.0116,-65.2875,2367.44,monload-611_runway,,,,,,,,2.4,,,0.9864333333333334
29,0.0,,114.033,,0.0,17.6802,114.034,17.6802,-65.9661,2340.43,monload-611_runway,,,,,,,,2.4,,,0.9751791666666666
30,0.0,,113.844,,0.0,21.26,113.847,21.26,-66.153,2332.78,monload-611_runway,,,,,,,,2.4,,,0.9719916666666667
31,0.0,,112.211,,0.0,33.1809,112.21,33.1809,-67.7899,2280.95,monload-611_runway,,,,,,,,2.4,,,0.9503958333333332
32,0.0,,111.557,,0.0,34.4315,111.557,34.4315,-68.4433,2253.91,monload-611_runway,,,,,,,,2.4,,,0.9391291666666666
33,0.0,,111.489,,0.0,30.3659,111.49,30.3659,-68.5105,2251.25,monload-611_runway,,,,,,,,2.4,,,0.9380208333333333
34,0.0,,111.3,,0.0,30.5712,111.3,30.5712,-68.6999,2243.44,monload-611_runway,,,,,,,,2.4,,,0.9347666666666666
35,0.0,,111.322,,0.0,24.721,111.323,24.721,-68.6773,2244.42,monload-611_runway,,,,,,,,2.4,,,0.935175
36,0.0,,111.176,,0.0,25.502,111.177,25.502,-68.8233,2238.25,monload-611_runway,,,,,,,,2.4,,,0.9326041666666667
37,0.0,,111.272,,0.0,25.9501,111.272,25.9501,-68.728,2242.25,monload-611_runway,,,,,,,,2.4,,,0.9342708333333334
38,0.0,,111.146,,0.0,24.8695,111.137,24.8695,-68.8629,2237.02,monload-611_runway,,,,,,,,2.4,,,0.9320916666666667
39,0.0,,111.165,,0.0,24.03,111.166,24.03,-68.8335,2237.85,monload-611_runway,,,,,,,,2.4,,,0.9324374999999999
40,0.0,,111.149,,0.0,24.2567,111.148,24.2567,-68.8522,2237.12,monload-611_runway,,,,,,,,2.4,,,0.9321333333333333
41,0.0,,111.11,,0.0,25.3326,111.107,25.3326,-68.8934,2235.28,monload-611_runway,,,,,,,,2.4,,,0.9313666666666668
42,0.0,,111.037,,0.0,30.9556,111.037,30.9556,-68.9629,2231.73,monload-611_runway,,,,,,,,2.4,,,0.9298875
43,0.0,,112.148,,0.0,38.7611,112.148,38.7611,-67.852,2277.9,monload-611_runway,,,,,,,,2.4,,,0.949125
44,0.0,,112.129,,0.0,41.1241,112.129,41.1241,-67.8707,2277.17,monload-611_runway,,,,,,,,2.4,,,0.9488208333333333
45,0.0,,112.882,,0.0,45.1231,112.88,45.1231,-67.1204,2308.04,monload-611_runway,,,,,,,,2.4,,,0.9616833333333333
46,0.0,,113.189,,0.0,42.3023,113.183,42.3023,-66.817,2320.74,monload-611_runway,,,,,,,,2.4,,,0.9669749999999999
47,0.0,,114.053,,0.0,30.8497,114.051,30.8497,-65.9486,2355.66,monload-611_runway,,,,,,,,2.4,,,0.981525
48,0.0,,114.31,,0.0,21.1497,114.305,21.1497,-65.6946,2366.04,monload-611_runway,,,,,,,,2.4,,,0.98585
49,0.0,,114.399,,0.0,18.8942,114.398,18.8942,-65.6024,2369.72,monload-611_runway,,,,,,,,2.4,,,0.9873833333333333
50,0.0,,114.443,,0.0,18.3946,114.437,18.3946,-65.5633,2371.47,monload-611_runway,,,,,,,,2.4,,,0.9881125
51,0.0,,114.504,,0.0,17.8874,114.495,17.8874,-65.5049,2373.89,monload-611_runway,,,,,,,,2.4,,,0.9891208333333332
52,0.0,,114.503,,0.0,18.4384,114.503,18.4384,-65.4966,2373.85,monload-611_runway,,,,,,,,2.4,,,0.9891041666666667
53,0.0,,113.814,,0.0,19.6598,113.815,19.6598,-66.1849,2346.21,monload-611_runway,,,,,,,,2.4,,,0.9775875
54,0.0,,113.601,,0.0,23.9779,113.605,23.9779,-66.3953,2337.48,monload-611_runway,,,,,,,,2.4,,,0.97395
55,0.0,,111.974,,0.0,35.5707,111.974,35.5707,-68.0263,2271.08,monload-611_runway,,,,,,,,2.4,,,0.9462833333333333
56,0.0,,111.341,,0.0,35.3896,111.306,35.3896,-68.6942,2244.8,monload-611_runway,,,,,,,,2.4,,,0.9353333333333335
57,0.0,,111.301,,0.0,31.0218,111.301,31.0218,-68.699,2243.34,monload-611_runway,,,,,,,,2.4,,,0.934725
58,0.0,,111.161,,0.0,30.6395,111.161,30.6395,-68.839,2237.59,monload-611_runway,,,,,,,,2.4,,,0.9323291666666668
59,0.0,,111.285,,0.0,24.3562,111.292,24.3562,-68.7077,2242.85,monload-611_runway,,,,,,,,2.4,,,0.9345208333333332
60,0.0,,0.0,,0.0,0.0,0.0,0.0,0.0,0.0,monload-611_runway,,,,,,,,2.4,,,0.0
61,0.0,,0.0,,0.0,0.0,0.0,0.0,0.0,0.0,monload-611_runway,,,,,,,,2.4,,,0.0
62,0.0,,0.0,,0.0,0.0,0.0,0.0,0.0,0.0,monload-611_runway,,,,,,,,2.4,,,0.0
63,0.0,,0.0,,0.0,0.0,0.0,0.0,0.0,0.0,monload-611_runway,,,,,,,,2.4,,,0.0
64,0.0,,0.0,,0.0,0.0,0.0,0.0,0.0,0.0,monload-611_runway,,,,,,,,2.4,,,0.0
65,0.0,,0.0,,0.0,0.0,0.0,0.0,0.0,0.0,monload-611_runway,,,,,,,,2.4,,,0.0
66,0.0,,0.0,,0.0,0.0,0.0,0.0,0.0,0.0,monload-611_runway,,,,,,,,2.4,,,0.0
67,0.0,,0.0,,0.0,0.0,0.0,0.0,0.0,0.0,monload-611_runway,,,,,,,,2.4,,,0.0
68,0.0,,0.0,,0.0,0.0,0.0,0.0,0.0,0.0,monload-611_runway,,,,,,,,2.4,,,0.0
69,0.0,,0.0,,0.0,0.0,0.0,0.0,0.0,0.0,monload-611_runway,,,,,,,,2.4,,,0.0
70,0.0,,0.0,,0.0,0.0,0.0,0.0,0.0,0.0,monload-611_runway,,,,,,,,2.4,,,0.0
71,0.0,,0.0,,0.0,0.0,0.0,0.0,0.0,0.0,monload-611_runway,,,,,,,,2.4,,,0.0
72,0.0,,0.0,,0.0,0.0,0.0,0.0,0.0,0.0,monload-611_runway,,,,,,,,2.4,,,0.0
73,0.0,,0.0,,0.0,0.0,0.0,0.0,0.0,0.0,monload-611_runway,,,,,,,,2.4,,,0.0
74,0.0,,0.0,,0.0,0.0,0.0,0.0,0.0,0.0,monload-611_runway,,,,,,,,2.4,,,0.0
75,0.0,,0.0,,0.0,0.0,0.0,0.0,0.0,0.0,monload-611_runway,,,,,,,,2.4,,,0.0
76,0.0,,0.0,,0.0,0.0,0.0,0.0,0.0,0.0,monload-611_runway,,,,,,,,2.4,,,0.0
77,0.0,,0.0,,0.0,0.0,0.0,0.0,0.0,0.0,monload-611_runway,,,,,,,,2.4,,,0.0
78,0.0,,0.0,,0.0,0.0,0.0,0.0,0.0,0.0,monload-611_runway,,,,,,,,2.4,,,0.0
79,0.0,,0.0,,0.0,0.0,0.0,0.0,0.0,0.0,monload-611_runway,,,,,,,,2.4,,,0.0
80,0.0,,0.0,,0.0,0.0,0.0,0.0,0.0,0.0,monload-611_runway,,,,,,,,2.4,,,0.0
81,0.0,,0.0,,0.0,0.0,0.0,0.0,0.0,0.0,monload-611_runway,,,,,,,,2.4,,,0.0
82,0.0,,0.0,,0.0,0.0,0.0,0.0,0.0,0.0,monload-611_runway,,,,,,,,2.4,,,0.0
83,0.0,,0.0,,0.0,0.0,0.0,0.0,0.0,0.0,monload-611_runway,,,,,,,,2.4,,,0.0
84,0.0,,0.0,,0.0,0.0,0.0,0.0,0.0,0.0,monload-611_runway,,,,,,,,2.4,,,0.0
85,0.0,,0.0,,0.0,0.0,0.0,0.0,0.0,0.0,monload-611_runway,,,,,,,,2.4,,,0.0
86,0.0,,0.0,,0.0,0.0,0.0,0.0,0.0,0.0,monload-611_runway,,,,,,,,2.4,,,0.0
87,0.0,,0.0,,0.0,0.0,0.0,0.0,0.0,0.0,monload-611_runway,,,,,,,,2.4,,,0.0
88,0.0,,0.0,,0.0,0.0,0.0,0.0,0.0,0.0,monload-611_runway,,,,,,,,2.4,,,0.0
89,0.0,,0.0,,0.0,0.0,0.0,0.0,0.0,0.0,monload-611_runway,,,,,,,,2.4,,,0.0
90,0.0,,0.0,,0.0,0.0,0.0,0.0,0.0,0.0,monload-611_runway,,,,,,,,2.4,,,0.0
91,0.0,,0.0,,0.0,0.0,0.0,0.0,0.0,0.0,monload-611_runway,,,,,,,,2.4,,,0.0
92,0.0,,0.0,,0.0,0.0,0.0,0.0,0.0,0.0,monload-611_runway,,,,,,,,2.4,,,0.0
93,0.0,,0.0,,0.0,0.0,0.0,0.0,0.0,0.0,monload-611_runway,,,,,,,,2.4,,,0.0
94,0.0,,0.0,,0.0,0.0,0.0,0.0,0.0,0.0,monload-611_runway,,,,,,,,2.4,,,0.0
95,0.0,,0.0,,0.0,0.0,0.0,0.0,0.0,0.0,monload-611_runway,,,,,,,,2.4,,,0.0
96,0.0,,0.0,,0.0,0.0,0.0,0.0,0.0,0.0,monload-611_runway,,,,,,,,2.4,,,0.0
97,0.0,,0.0,,0.0,0.0,0.0,0.0,0.0,0.0,monload-611_runway,,,,,,,,2.4,,,0.0
98,0.0,,0.0,,0.0,0.0,0.0,0.0,0.0,0.0,monload-611_runway,,,,,,,,2.4,,,0.0
99,0.0,,0.0,,0.0,0.0,0.0,0.0,0.0,0.0,monload-611_runway,,,,,,,,2.4,,,0.0
100,0.0,,0.0,,0.0,0.0,0.0,0.0,0.0,0.0,monload-611_runway,,,,,,,,2.4,,,0.0
101,0.0,,0.0,,0.0,0.0,0.0,0.0,0.0,0.0,monload-611_runway,,,,,,,,2.4,,,0.0
102,0.0,,0.0,,0.0,0.0,0.0,0.0,0.0,0.0,monload-611_runway,,,,,,,,2.4,,,0.0
103,0.0,,0.0,,0.0,0.0,0.0,0.0,0.0,0.0,monload-611_runway,,,,,,,,2.4,,,0.0
104,0.0,,0.0,,0.0,0.0,0.0,0.0,0.0,0.0,monload-611_runway,,,,,,,,2.4,,,0.0
105,0.0,,0.0,,0.0,0.0,0.0,0.0,0.0,0.0,monload-611_runway,,,,,,,,2.4,,,0.0
106,0.0,,0.0,,0.0,0.0,0.0,0.0,0.0,0.0,monload-611_runway,,,,,,,,2.4,,,0.0
107,0.0,,0.0,,0.0,0.0,0.0,0.0,0.0,0.0,monload-611_runway,,,,,,,,2.4,,,0.0
108,0.0,,0.0,,0.0,0.0,0.0,0.0,0.0,0.0,monload-611_runway,,,,,,,,2.4,,,0.0
109,0.0,,0.0,,0.0,0.0,0.0,0.0,0.0,0.0,monload-611_runway,,,,,,,,2.4,,,0.0
110,0.0,,0.0,,0.0,0.0,0.0,0.0,0.0,0.0,monload-611_runway,,,,,,,,2.4,,,0.0
111,0.0,,0.0,,0.0,0.0,0.0,0.0,0.0,0.0,monload-611_runway,,,,,,,,2.4,,,0.0
112,0.0,,0.0,,0.0,0.0,0.0,0.0,0.0,0.0,monload-611_runway,,,,,,,,2.4,,,0.0
113,0.0,,0.0,,0.0,0.0,0.0,0.0,0.0,0.0,monload-611_runway,,,,,,,,2.4,,,0.0
114,0.0,,0.0,,0.0,0.0,0.0,0.0,0.0,0.0,monload-611_runway,,,,,,,,2.4,,,0.0
115,0.0,,0.0,,0.0,0.0,0.0,0.0,0.0,0.0,monload-611_runway,,,,,,,,2.4,,,0.0
116,0.0,,0.0,,0.0,0.0,0.0,0.0,0.0,0.0,monload-611_runway,,,,,,,,2.4,,,0.0
117,0.0,,0.0,,0.0,0.0,0.0,0.0,0.0,0.0,monload-611_runway,,,,,,,,2.4,,,0.0
118,0.0,,0.0,,0.0,0.0,0.0,0.0,0.0,0.0,monload-611_runway,,,,,,,,2.4,,,0.0
119,0.0,,0.0,,0.0,0.0,0.0,0.0,0.0,0.0,monload-611_runway,,,,,,,,2.4,,,0.0
120,0.0,,0.0,,0.0,0.0,0.0,0.0,0.0,0.0,monload-611_runway,,,,,,,,2.4,,,0.0
121,0.0,,0.0,,0.0,0.0,0.0,0.0,0.0,0.0,monload-611_runway,,,,,,,,2.4,,,0.0
122,0.0,,0.0,,0.0,0.0,0.0,0.0,0.0,0.0,monload-611_runway,,,,,,,,2.4,,,0.0
123,0.0,,0.0,,0.0,0.0,0.0,0.0,0.0,0.0,monload-611_runway,,,,,,,,2.4,,,0.0
124,0.0,,0.0,,0.0,0.0,0.0,0.0,0.0,0.0,monload-611_runway,,,,,,,,2.4,,,0.0
125,0.0,,0.0,,0.0,0.0,0.0,0.0,0.0,0.0,monload-611_runway,,,,,,,,2.4,,,0.0
126,0.0,,0.0,,0.0,0.0,0.0,0.0,0.0,0.0,monload-611_runway,,,,,,,,2.4,,,0.0
127,0.0,,0.0,,0.0,0.0,0.0,0.0,0.0,0.0,monload-611_runway,,,,,,,,2.4,,,0.0
128,0.0,,0.0,,0.0,0.0,0.0,0.0,0.0,0.0,monload-611_runway,,,,,,,,2.4,,,0.0
129,0.0,,0.0,,0.0,0.0,0.0,0.0,0.0,0.0,monload-611_runway,,,,,,,,2.4,,,0.0
130,0.0,,0.0,,0.0,0.0,0.0,0.0,0.0,0.0,monload-611_runway,,,,,,,,2.4,,,0.0
131,0.0,,0.0,,0.0,0.0,0.0,0.0,0.0,0.0,monload-611_runway,,,,,,,,2.4,,,0.0
132,0.0,,0.0,,0.0,0.0,0.0,0.0,0.0,0.0,monload-611_runway,,,,,,,,2.4,,,0.0
133,0.0,,0.0,,0.0,0.0,0.0,0.0,0.0,0.0,monload-611_runway,,,,,,,,2.4,,,0.0
134,0.0,,0.0,,0.0,0.0,0.0,0.0,0.0,0.0,monload-611_runway,,,,,,,,2.4,,,0.0
135,0.0,,0.0,,0.0,0.0,0.0,0.0,0.0,0.0,monload-611_runway,,,,,,,,2.4,,,0.0
136,0.0,,0.0,,0.0,0.0,0.0,0.0,0.0,0.0,monload-611_runway,,,,,,,,2.4,,,0.0
137,0.0,,0.0,,0.0,0.0,0.0,0.0,0.0,0.0,monload-611_runway,,,,,,,,2.4,,,0.0
138,0.0,,0.0,,0.0,0.0,0.0,0.0,0.0,0.0,monload-611_runway,,,,,,,,2.4,,,0.0
139,0.0,,0.0,,0.0,0.0,0.0,0.0,0.0,0.0,monload-611_runway,,,,,,,,2.4,,,0.0
140,0.0,,0.0,,0.0,0.0,0.0,0.0,0.0,0.0,monload-611_runway,,,,,,,,2.4,,,0.0
141,0.0,,0.0,,0.0,0.0,0.0,0.0,0.0,0.0,monload-611_runway,,,,,,,,2.4,,,0.0
142,0.0,,0.0,,0.0,0.0,0.0,0.0,0.0,0.0,monload-611_runway,,,,,,,,2.4,,,0.0
143,0.0,,0.0,,0.0,0.0,0.0,0.0,0.0,0.0,monload-611_runway,,,,,,,,2.4,,,0.0
144,0.0,,0.0,,0.0,0.0,0.0,0.0,0.0,0.0,monload-611_runway,,,,,,,,2.4,,,0.0
145,0.0,,0.0,,0.0,0.0,0.0,0.0,0.0,0.0,monload-611_runway,,,,,,,,2.4,,,0.0
146,0.0,,0.0,,0.0,0.0,0.0,0.0,0.0,0.0,monload-611_runway,,,,,,,,2.4,,,0.0
147,0.0,,0.0,,0.0,0.0,0.0,0.0,0.0,0.0,monload-611_runway,,,,,,,,2.4,,,0.0
148,0.0,,0.0,,0.0,0.0,0.0,0.0,0.0,0.0,monload-611_runway,,,,,,,,2.4,,,0.0
149,0.0,,0.0,,0.0,0.0,0.0,0.0,0.0,0.0,monload-611_runway,,,,,,,,2.4,,,0.0
150,0.0,,0.0,,0.0,0.0,0.0,0.0,0.0,0.0,monload-611_runway,,,,,,,,2.4,,,0.0
151,0.0,,0.0,,0.0,0.0,0.0,0.0,0.0,0.0,monload-611_runway,,,,,,,,2.4,,,0.0
152,0.0,,0.0,,0.0,0.0,0.0,0.0,0.0,0.0,monload-611_runway,,,,,,,,2.4,,,0.0
153,0.0,,0.0,,0.0,0.0,0.0,0.0,0.0,0.0,monload-611_runway,,,,,,,,2.4,,,0.0
154,0.0,,0.0,,0.0,0.0,0.0,0.0,0.0,0.0,monload-611_runway,,,,,,,,2.4,,,0.0
155,0.0,,0.0,,0.0,0.0,0.0,0.0,0.0,0.0,monload-611_runway,,,,,,,,2.4,,,0.0
156,0.0,,0.0,,0.0,0.0,0.0,0.0,0.0,0.0,monload-611_runway,,,,,,,,2.4,,,0.0
157,0.0,,0.0,,0.0,0.0,0.0,0.0,0.0,0.0,monload-611_runway,,,,,,,,2.4,,,0.0
158,0.0,,0.0,,0.0,0.0,0.0,0.0,0.0,0.0,monload-611_runway,,,,,,,,2.4,,,0.0
159,0.0,,0.0,,0.0,0.0,0.0,0.0,0.0,0.0,monload-611_runway,,,,,,,,2.4,,,0.0
160,0.0,,0.0,,0.0,0.0,0.0,0.0,0.0,0.0,monload-611_runway,,,,,,,,2.4,,,0.0
161,0.0,,0.0,,0.0,0.0,0.0,0.0,0.0,0.0,monload-611_runway,,,,,,,,2.4,,,0.0
162,0.0,,0.0,,0.0,0.0,0.0,0.0,0.0,0.0,monload-611_runway,,,,,,,,2.4,,,0.0
163,0.0,,0.0,,0.0,0.0,0.0,0.0,0.0,0.0,monload-611_runway,,,,,,,,2.4,,,0.0
164,0.0,,0.0,,0.0,0.0,0.0,0.0,0.0,0.0,monload-611_runway,,,,,,,,2.4,,,0.0
165,0.0,,0.0,,0.0,0.0,0.0,0.0,0.0,0.0,monload-611_runway,,,,,,,,2.4,,,0.0
166,0.0,,0.0,,0.0,0.0,0.0,0.0,0.0,0.0,monload-611_runway,,,,,,,,2.4,,,0.0
167,0.0,,0.0,,0.0,0.0,0.0,0.0,0.0,0.0,monload-611_runway,,,,,,,,2.4,,,0.0
168,0.0,,0.0,,0.0,0.0,0.0,0.0,0.0,0.0,monload-611_runway,,,,,,,,2.4,,,0.0
169,0.0,,0.0,,0.0,0.0,0.0,0.0,0.0,0.0,monload-611_runway,,,,,,,,2.4,,,0.0
170,0.0,,0.0,,0.0,0.0,0.0,0.0,0.0,0.0,monload-611_runway,,,,,,,,2.4,,,0.0
171,0.0,,0.0,,0.0,0.0,0.0,0.0,0.0,0.0,monload-611_runway,,,,,,,,2.4,,,0.0
172,0.0,,0.0,,0.0,0.0,0.0,0.0,0.0,0.0,monload-611_runway,,,,,,,,2.4,,,0.0
173,0.0,,0.0,,0.0,0.0,0.0,0.0,0.0,0.0,monload-611_runway,,,,,,,,2.4,,,0.0
174,0.0,,0.0,,0.0,0.0,0.0,0.0,0.0,0.0,monload-611_runway,,,,,,,,2.4,,,0.0
175,0.0,,0.0,,0.0,0.0,0.0,0.0,0.0,0.0,monload-611_runway,,,,,,,,2.4,,,0.0
176,0.0,,0.0,,0.0,0.0,0.0,0.0,0.0,0.0,monload-611_runway,,,,,,,,2.4,,,0.0
177,0.0,,0.0,,0.0,0.0,0.0,0.0,0.0,0.0,monload-611_runway,,,,,,,,2.4,,,0.0
178,0.0,,0.0,,0.0,0.0,0.0,0.0,0.0,0.0,monload-611_runway,,,,,,,,2.4,,,0.0
179,0.0,,0.0,,0.0,0.0,0.0,0.0,0.0,0.0,monload-611_runway,,,,,,,,2.4,,,0.0
180,0.0,,113.51,,0.0,38.1499,113.514,38.1499,-66.4856,2333.94,monload-611_runway,,,,,,,,2.4,,,0.972475
181,0.0,,113.23,,0.0,38.4204,113.235,38.4204,-66.7649,2321.76,monload-611_runway,,,,,,,,2.4,,,0.9674
182,0.0,,113.217,,0.0,39.8211,113.219,39.8211,-66.7814,2321.1,monload-611_runway,,,,,,,,2.4,,,0.967125
183,0.0,,113.163,,0.0,41.1387,113.163,41.1387,-66.8366,2318.76,monload-611_runway,,,,,,,,2.4,,,0.9661500000000001
184,0.0,,113.177,,0.0,40.2542,113.176,40.2542,-66.8244,2319.29,monload-611_runway,,,,,,,,2.4,,,0.9663708333333333
185,0.0,,113.305,,0.0,39.4232,113.303,39.4232,-66.6966,2324.4,monload-611_runway,,,,,,,,2.4,,,0.9685
186,0.0,,113.444,,0.0,41.61,113.442,41.61,-66.5583,2330.04,monload-611_runway,,,,,,,,2.4,,,0.97085
187,0.0,,113.431,,0.0,50.661,113.431,50.661,-66.5694,2329.67,monload-611_runway,,,,,,,,2.4,,,0.9706958333333333
188,0.0,,113.498,,0.0,50.936,113.497,50.936,-66.5031,2332.58,monload-611_runway,,,,,,,,2.4,,,0.9719083333333333
189,0.0,,113.632,,0.0,52.3523,113.63,52.3523,-66.3699,2338.13,monload-611_runway,,,,,,,,2.4,,,0.9742208333333334
190,0.0,,113.707,,0.0,50.5692,113.706,50.5692,-66.2942,2341.4,monload-611_runway,,,,,,,,2.4,,,0.9755833333333334
191,0.0,,114.136,,0.0,39.6945,114.131,39.6945,-65.8687,2358.95,monload-611_runway,,,,,,,,2.4,,,0.9828958333333333
192,0.0,,114.458,,0.0,26.4536,114.454,26.4536,-65.5457,2371.97,monload-611_runway,,,,,,,,2.4,,,0.9883208333333332
193,0.0,,114.575,,0.0,21.0984,114.574,21.0984,-65.4264,2376.77,monload-611_runway,,,,,,,,2.4,,,0.9903208333333333
194,0.0,,114.618,,0.0,19.0118,114.614,19.0118,-65.3865,2378.51,monload-611_runway,,,,,,,,2.4,,,0.9910458333333334
195,0.0,,114.645,,0.0,17.1605,114.642,17.1605,-65.3577,2379.58,monload-611_runway,,,,,,,,2.4,,,0.9914916666666667
196,0.0,,114.632,,0.0,16.8089,114.634,16.8089,-65.3664,2379.05,monload-611_runway,,,,,,,,2.4,,,0.9912708333333334
197,0.0,,113.972,,0.0,17.2796,113.974,17.2796,-66.0265,2352.68,monload-611_runway,,,,,,,,2.4,,,0.9802833333333333
198,0.0,,113.871,,0.0,20.6862,113.872,20.6862,-66.1276,2348.47,monload-611_runway,,,,,,,,2.4,,,0.9785291666666666
199,0.0,,112.143,,0.0,33.2284,112.142,33.2284,-67.8578,2278.12,monload-611_runway,,,,,,,,2.4,,,0.9492166666666666
200,0.0,,111.442,,0.0,35.8347,111.444,35.8347,-68.5556,2249.13,monload-611_runway,,,,,,,,2.4,,,0.9371375000000001
201,0.0,,111.357,,0.0,32.6494,111.357,32.6494,-68.6426,2245.7,monload-611_runway,,,,,,,,2.4,,,0.9357083333333333
202,0.0,,111.167,,0.0,34.501,111.168,34.501,-68.8325,2237.77,monload-611_runway,,,,,,,,2.4,,,0.9324041666666667
203,0.0,,111.206,,0.0,30.3806,111.209,30.3806,-68.791,2239.32,monload-611_runway,,,,,,,,2.4,,,0.93305
204,0.0,,111.118,,0.0,33.3153,111.119,33.3153,-68.8813,2235.43,monload-611_runway,,,,,,,,2.4,,,0.9314291666666666
205,0.0,,111.226,,0.0,35.8439,111.238,35.8439,-68.7619,2239.79,monload-611_runway,,,,,,,,2.4,,,0.9332458333333333
206,0.0,,111.017,,0.0,37.1048,111.018,37.1048,-68.9817,2230.93,monload-611_runway,,,,,,,,2.4,,,0.9295541666666666
207,0.0,,110.953,,0.0,38.2963,110.953,38.2963,-69.0471,2242.08,monload-611_runway,,,,,,,,2.4,,,0.9341999999999999
208,0.0,,110.956,,0.0,35.941,110.956,35.941,-69.0444,2242.25,monload-611_runway,,,,,,,,2.4,,,0.9342708333333334
209,0.0,,110.949,,0.0,35.5841,110.949,35.5841,-69.0509,2241.93,monload-611_runway,,,,,,,,2.4,,,0.9341375
210,0.0,,110.96,,0.0,40.0808,110.96,40.0808,-69.0404,2242.0,monload-611_runway,,,,,,,,2.4,,,0.9341666666666667
211,0.0,,112.155,,0.0,46.536,112.153,46.536,-67.8468,2292.08,monload-611_runway,,,,,,,,2.4,,,0.9550333333333333
212,0.0,,112.086,,0.0,48.3977,112.088,48.3977,-67.912,2289.39,monload-611_runway,,,,,,,,2.4,,,0.9539124999999999
213,0.0,,112.765,,0.0,52.3358,112.763,52.3358,-67.2373,2317.49,monload-611_runway,,,,,,,,2.4,,,0.9656208333333333
214,0.0,,112.983,,0.0,49.8536,112.978,49.8536,-67.0221,2326.69,monload-611_runway,,,,,,,,2.4,,,0.9694541666666667
215,0.0,,113.804,,0.0,38.3082,113.802,38.3082,-66.198,2360.26,monload-611_runway,,,,,,,,2.4,,,0.9834416666666668
216,0.0,,114.078,,0.0,27.4534,114.072,27.4534,-65.9281,2371.5,monload-611_runway,,,,,,,,2.4,,,0.988125
217,0.0,,114.237,,0.0,24.2756,114.242,24.2756,-65.7582,2363.28,monload-611_runway,,,,,,,,2.4,,,0.9847000000000001
218,0.0,,114.325,,0.0,23.0495,114.324,23.0495,-65.6763,2366.8,monload-611_runway,,,,,,,,2.4,,,0.9861666666666667
219,0.0,,114.405,,0.0,21.3811,114.405,21.3811,-65.5955,2370.03,monload-611_runway,,,,,,,,2.4,,,0.9875125000000001
220,0.0,,114.429,,0.0,21.1438,114.427,21.1438,-65.5733,2370.99,monload-611_runway,,,,,,,,2.4,,,0.9879124999999999
