hour,t(sec),V1,VAngle1,V2,VAngle2,V3,VAngle3,I1,IAngle1,I2,IAngle2,I3,IAngle3,Name,P1(kW),P2(kW),P3(kW)
1,0.0,2460.87,-1.85515,,,,,0.0,0.0,,,,,monisource-isource_newbattery675_1_shape,0.0,,
2,0.0,2460.42,-1.8723400000000001,,,,,0.0,0.0,,,,,monisource-isource_newbattery675_1_shape,0.0,,
3,0.0,2459.87,-1.88133,,,,,0.0,0.0,,,,,monisource-isource_newbattery675_1_shape,0.0,,
4,0.0,2459.71,-1.88425,,,,,0.0,0.0,,,,,monisource-isource_newbattery675_1_shape,0.0,,
5,0.0,2458.79,-1.9244599999999998,,,,,0.0,0.0,,,,,monisource-isource_newbattery675_1_shape,0.0,,
6,0.0,2458.96,-1.92344,,,,,0.0,0.0,,,,,monisource-isource_newbattery675_1_shape,0.0,,
7,0.0,2455.79,-2.07976,,,,,0.0,0.0,,,,,monisource-isource_newbattery675_1_shape,0.0,,
8,0.0,2457.48,-2.04757,,,,,0.0,0.0,,,,,monisource-isource_newbattery675_1_shape,0.0,,
9,0.0,2456.63,-2.20016,,,,,0.0,0.0,,,,,monisource-isource_newbattery675_1_shape,0.0,,
10,0.0,2459.61,-2.22562,,,,,0.0,0.0,,,,,monisource-isource_newbattery675_1_shape,0.0,,
11,0.0,2453.4,-2.3925099999999997,,,,,0.0,0.0,,,,,monisource-isource_newbattery675_1_shape,0.0,,
12,0.0,2455.61,-2.8264299999999998,,,,,0.0,0.0,,,,,monisource-isource_newbattery675_1_shape,0.0,,
13,0.0,2446.0,-2.4655299999999998,,,,,0.0,0.0,,,,,monisource-isource_newbattery675_1_shape,0.0,,
14,0.0,2448.41,-2.63029,,,,,0.0,0.0,,,,,monisource-isource_newbattery675_1_shape,0.0,,
15,0.0,2451.33,-2.76287,,,,,0.0,0.0,,,,,monisource-isource_newbattery675_1_shape,0.0,,
16,0.0,2452.29,-2.78777,,,,,0.0,0.0,,,,,monisource-isource_newbattery675_1_shape,0.0,,
17,0.0,2448.91,-2.53614,,,,,0.0,0.0,,,,,monisource-isource_newbattery675_1_shape,0.0,,
18,0.0,2449.16,-2.2360900000000004,,,,,0.0,0.0,,,,,monisource-isource_newbattery675_1_shape,0.0,,
19,0.0,2449.15,-2.2269200000000002,,,,,0.0,0.0,,,,,monisource-isource_newbattery675_1_shape,0.0,,
20,0.0,2451.25,-2.18655,,,,,0.0,0.0,,,,,monisource-isource_newbattery675_1_shape,0.0,,
21,0.0,2453.32,-2.12562,,,,,0.0,0.0,,,,,monisource-isource_newbattery675_1_shape,0.0,,
22,0.0,2456.34,-2.05646,,,,,0.0,0.0,,,,,monisource-isource_newbattery675_1_shape,0.0,,
23,0.0,2462.86,-1.8683400000000001,,,,,0.0,0.0,,,,,monisource-isource_newbattery675_1_shape,0.0,,
24,0.0,2457.65,-1.9419099999999998,,,,,0.0,0.0,,,,,monisource-isource_newbattery675_1_shape,0.0,,
25,0.0,2460.23,-1.8785900000000002,,,,,0.0,0.0,,,,,monisource-isource_newbattery675_1_shape,0.0,,
26,0.0,2461.38,-1.85274,,,,,0.0,0.0,,,,,monisource-isource_newbattery675_1_shape,0.0,,
27,0.0,2461.65,-1.8435700000000002,,,,,0.0,0.0,,,,,monisource-isource_newbattery675_1_shape,0.0,,
28,0.0,2461.85,-1.83808,,,,,0.0,0.0,,,,,monisource-isource_newbattery675_1_shape,0.0,,
29,0.0,2461.66,-1.93398,,,,,0.0,0.0,,,,,monisource-isource_newbattery675_1_shape,0.0,,
30,0.0,2462.11,-1.9464099999999998,,,,,0.0,0.0,,,,,monisource-isource_newbattery675_1_shape,0.0,,
31,0.0,2458.22,-2.25921,,,,,0.0,0.0,,,,,monisource-isource_newbattery675_1_shape,0.0,,
32,0.0,2458.37,-2.35426,,,,,0.0,0.0,,,,,monisource-isource_newbattery675_1_shape,0.0,,
33,0.0,2446.63,-2.74717,,,,,0.0,0.0,,,,,monisource-isource_newbattery675_1_shape,0.0,,
34,0.0,2442.0,-3.09017,,,,,0.0,0.0,,,,,monisource-isource_newbattery675_1_shape,0.0,,
35,0.0,2443.99,-3.19712,,,,,0.0,0.0,,,,,monisource-isource_newbattery675_1_shape,0.0,,
36,0.0,2434.03,-2.92705,,,,,0.0,0.0,,,,,monisource-isource_newbattery675_1_shape,0.0,,
37,0.0,2449.33,-3.6797800000000005,,,,,0.0,0.0,,,,,monisource-isource_newbattery675_1_shape,0.0,,
38,0.0,2440.16,-3.18135,,,,,0.0,0.0,,,,,monisource-isource_newbattery675_1_shape,0.0,,
39,0.0,2452.72,-3.95623,,,,,0.0,0.0,,,,,monisource-isource_newbattery675_1_shape,0.0,,
40,0.0,2447.76,-3.61395,,,,,0.0,0.0,,,,,monisource-isource_newbattery675_1_shape,0.0,,
41,0.0,2442.25,-3.26473,,,,,0.0,0.0,,,,,monisource-isource_newbattery675_1_shape,0.0,,
42,0.0,2440.75,-2.8285299999999998,,,,,0.0,0.0,,,,,monisource-isource_newbattery675_1_shape,0.0,,
43,0.0,2443.12,-2.56763,,,,,0.0,0.0,,,,,monisource-isource_newbattery675_1_shape,0.0,,
44,0.0,2445.27,-2.52743,,,,,0.0,0.0,,,,,monisource-isource_newbattery675_1_shape,0.0,,
45,0.0,2449.5,-2.3337,,,,,0.0,0.0,,,,,monisource-isource_newbattery675_1_shape,0.0,,
46,0.0,2458.47,-2.11085,,,,,0.0,0.0,,,,,monisource-isource_newbattery675_1_shape,0.0,,
47,0.0,2463.98,-1.88208,,,,,0.0,0.0,,,,,monisource-isource_newbattery675_1_shape,0.0,,
48,0.0,2458.87,-1.95943,,,,,0.0,0.0,,,,,monisource-isource_newbattery675_1_shape,0.0,,
49,0.0,2462.06,-1.88192,,,,,0.0,0.0,,,,,monisource-isource_newbattery675_1_shape,0.0,,
50,0.0,2462.85,-1.85895,,,,,0.0,0.0,,,,,monisource-isource_newbattery675_1_shape,0.0,,
51,0.0,2462.7,-1.85352,,,,,0.0,0.0,,,,,monisource-isource_newbattery675_1_shape,0.0,,
52,0.0,2462.84,-1.8501299999999998,,,,,0.0,0.0,,,,,monisource-isource_newbattery675_1_shape,0.0,,
53,0.0,2460.75,-1.98921,,,,,0.0,0.0,,,,,monisource-isource_newbattery675_1_shape,0.0,,
54,0.0,2461.42,-2.00115,,,,,0.0,0.0,,,,,monisource-isource_newbattery675_1_shape,0.0,,
55,0.0,2457.19,-2.31307,,,,,0.0,0.0,,,,,monisource-isource_newbattery675_1_shape,0.0,,
56,0.0,2458.16,-2.38937,,,,,0.0,0.0,,,,,monisource-isource_newbattery675_1_shape,0.0,,
57,0.0,2450.62,-2.97127,,,,,0.0,0.0,,,,,monisource-isource_newbattery675_1_shape,0.0,,
58,0.0,2450.38,-3.5583199999999997,,,,,0.0,0.0,,,,,monisource-isource_newbattery675_1_shape,0.0,,
59,0.0,2454.59,-3.7818300000000002,,,,,0.0,0.0,,,,,monisource-isource_newbattery675_1_shape,0.0,,
60,0.0,599.224,-174.405,,,,,5.0106,60.0,,,,,monisource-isource_newbattery675_1_shape,3.0024717744000005,,
61,0.0,989.737,-175.704,,,,,5.0106,60.0,,,,,monisource-isource_newbattery675_1_shape,4.9591762122,,
62,0.0,973.194,-174.513,,,,,5.0106,60.0,,,,,monisource-isource_newbattery675_1_shape,4.8762858564,,
63,0.0,816.1060000000001,-174.465,,,,,5.0106,60.0,,,,,monisource-isource_newbattery675_1_shape,4.089180723600001,,
64,0.0,723.822,-174.433,,,,,5.0106,60.0,,,,,monisource-isource_newbattery675_1_shape,3.6267825132000002,,
65,0.0,435.125,-174.32,,,,,5.0106,60.0,,,,,monisource-isource_newbattery675_1_shape,2.1802373250000002,,
66,0.0,147.891,-177.518,,,,,5.0106,60.0,,,,,monisource-isource_newbattery675_1_shape,0.7410226446,,
67,0.0,130.29,175.59799999999998,,,,,5.0106,60.0,,,,,monisource-isource_newbattery675_1_shape,0.652831074,,
68,0.0,130.018,175.83900000000003,,,,,5.0106,60.0,,,,,monisource-isource_newbattery675_1_shape,0.6514681908,,
69,0.0,133.635,172.375,,,,,5.0106,60.0,,,,,monisource-isource_newbattery675_1_shape,0.669591531,,
70,0.0,134.248,171.685,,,,,5.0106,60.0,,,,,monisource-isource_newbattery675_1_shape,0.6726630288,,
71,0.0,136.924,169.267,,,,,5.0106,60.0,,,,,monisource-isource_newbattery675_1_shape,0.6860713944,,
72,0.0,136.407,169.199,,,,,5.0106,60.0,,,,,monisource-isource_newbattery675_1_shape,0.6834809142,,
73,0.0,136.695,168.947,,,,,5.0106,60.0,,,,,monisource-isource_newbattery675_1_shape,0.6849239669999999,,
74,0.0,136.64600000000002,168.93400000000003,,,,,5.0106,60.0,,,,,monisource-isource_newbattery675_1_shape,0.6846784476000002,,
75,0.0,136.638,168.942,,,,,5.0106,60.0,,,,,monisource-isource_newbattery675_1_shape,0.6846383628000001,,
76,0.0,136.636,168.946,,,,,5.0106,60.0,,,,,monisource-isource_newbattery675_1_shape,0.6846283416,,
77,0.0,133.5,171.951,,,,,5.0106,60.0,,,,,monisource-isource_newbattery675_1_shape,0.6689151000000001,,
78,0.0,133.988,171.975,,,,,5.0106,60.0,,,,,monisource-isource_newbattery675_1_shape,0.6713602728000001,,
79,0.0,127.22200000000001,178.27,,,,,5.0106,60.0,,,,,monisource-isource_newbattery675_1_shape,0.6374585532000001,,
80,0.0,122.75299999999999,-178.225,,,,,5.0106,60.0,,,,,monisource-isource_newbattery675_1_shape,0.6150661818,,
81,0.0,690.529,-176.174,,,,,5.0106,60.0,,,,,monisource-isource_newbattery675_1_shape,3.4599646074000003,,
82,0.0,1386.65,-173.829,,,,,5.0106,60.0,,,,,monisource-isource_newbattery675_1_shape,6.947948490000001,,
83,0.0,1881.88,-172.31799999999998,,,,,5.0106,60.0,,,,,monisource-isource_newbattery675_1_shape,9.429347928,,
84,0.0,2183.78,-171.50599999999997,,,,,5.0106,60.0,,,,,monisource-isource_newbattery675_1_shape,10.942048068000002,,
85,0.0,2415.45,-175.025,,,,,5.0106,60.0,,,,,monisource-isource_newbattery675_1_shape,12.10285377,,
86,0.0,2235.79,-171.095,,,,,5.0106,60.0,,,,,monisource-isource_newbattery675_1_shape,11.202649374,,
87,0.0,1980.85,-171.088,,,,,5.0106,60.0,,,,,monisource-isource_newbattery675_1_shape,9.92524701,,
88,0.0,1558.4,-171.71599999999998,,,,,5.0106,60.0,,,,,monisource-isource_newbattery675_1_shape,7.808519040000001,,
89,0.0,915.3480000000001,-172.912,,,,,5.0106,60.0,,,,,monisource-isource_newbattery675_1_shape,4.586442688800001,,
90,0.0,282.637,-175.87,,,,,5.0106,60.0,,,,,monisource-isource_newbattery675_1_shape,1.4161809522000002,,
91,0.0,127.331,177.641,,,,,5.0106,60.0,,,,,monisource-isource_newbattery675_1_shape,0.6380047086,,
92,0.0,128.095,177.555,,,,,5.0106,60.0,,,,,monisource-isource_newbattery675_1_shape,0.641832807,,
93,0.0,131.94899999999998,174.05700000000002,,,,,5.0106,60.0,,,,,monisource-isource_newbattery675_1_shape,0.6611436594,,
94,0.0,132.711,173.27700000000002,,,,,5.0106,60.0,,,,,monisource-isource_newbattery675_1_shape,0.6649617366000001,,
95,0.0,134.998,170.90099999999998,,,,,5.0106,60.0,,,,,monisource-isource_newbattery675_1_shape,0.6764209788,,
96,0.0,134.899,170.952,,,,,5.0106,60.0,,,,,monisource-isource_newbattery675_1_shape,0.6759249294,,
97,0.0,135.21,170.678,,,,,5.0106,60.0,,,,,monisource-isource_newbattery675_1_shape,0.6774832260000001,,
98,0.0,135.221,170.615,,,,,5.0106,60.0,,,,,monisource-isource_newbattery675_1_shape,0.6775383426000001,,
99,0.0,135.246,170.583,,,,,5.0106,60.0,,,,,monisource-isource_newbattery675_1_shape,0.6776636076000001,,
100,0.0,135.47,170.37099999999998,,,,,5.0106,60.0,,,,,monisource-isource_newbattery675_1_shape,0.678785982,,
101,0.0,132.622,172.98,,,,,5.0106,60.0,,,,,monisource-isource_newbattery675_1_shape,0.6645157932000001,,
102,0.0,132.611,173.33599999999998,,,,,5.0106,60.0,,,,,monisource-isource_newbattery675_1_shape,0.6644606766,,
103,0.0,125.279,179.861,,,,,5.0106,60.0,,,,,monisource-isource_newbattery675_1_shape,0.6277229574000001,,
104,0.0,120.727,-176.704,,,,,5.0106,60.0,,,,,monisource-isource_newbattery675_1_shape,0.6049147062000001,,
105,0.0,727.8430000000001,-174.753,,,,,5.0106,60.0,,,,,monisource-isource_newbattery675_1_shape,3.646930135800001,,
106,0.0,1431.44,-172.25400000000002,,,,,5.0106,60.0,,,,,monisource-isource_newbattery675_1_shape,7.172373264000001,,
107,0.0,1929.36,-170.855,,,,,5.0106,60.0,,,,,monisource-isource_newbattery675_1_shape,9.667251216,,
108,0.0,2237.72,-170.523,,,,,5.0106,60.0,,,,,monisource-isource_newbattery675_1_shape,11.212319831999999,,
109,0.0,2553.32,-176.83900000000003,,,,,5.0106,60.0,,,,,monisource-isource_newbattery675_1_shape,12.793665192,,
110,0.0,2317.4,-171.825,,,,,5.0106,60.0,,,,,monisource-isource_newbattery675_1_shape,11.61156444,,
111,0.0,2024.53,-171.25900000000001,,,,,5.0106,60.0,,,,,monisource-isource_newbattery675_1_shape,10.144110018,,
112,0.0,1590.14,-172.17,,,,,5.0106,60.0,,,,,monisource-isource_newbattery675_1_shape,7.967555484,,
113,0.0,936.395,-174.048,,,,,5.0106,60.0,,,,,monisource-isource_newbattery675_1_shape,4.691900787000001,,
114,0.0,283.731,-177.463,,,,,5.0106,60.0,,,,,monisource-isource_newbattery675_1_shape,1.4216625486,,
115,0.0,129.109,175.623,,,,,5.0106,60.0,,,,,monisource-isource_newbattery675_1_shape,0.6469135554000001,,
116,0.0,130.2,175.699,,,,,5.0106,60.0,,,,,monisource-isource_newbattery675_1_shape,0.6523801199999999,,
117,0.0,133.82,172.18400000000003,,,,,5.0106,60.0,,,,,monisource-isource_newbattery675_1_shape,0.670518492,,
118,0.0,134.52,171.393,,,,,5.0106,60.0,,,,,monisource-isource_newbattery675_1_shape,0.6740259120000001,,
119,0.0,136.754,168.875,,,,,5.0106,60.0,,,,,monisource-isource_newbattery675_1_shape,0.6852195924,,
120,0.0,136.628,168.93400000000003,,,,,5.0106,60.0,,,,,monisource-isource_newbattery675_1_shape,0.6845882567999999,,
121,0.0,136.93,168.665,,,,,5.0106,60.0,,,,,monisource-isource_newbattery675_1_shape,0.6861014580000001,,
122,0.0,136.869,168.65599999999998,,,,,5.0106,60.0,,,,,monisource-isource_newbattery675_1_shape,0.6857958114,,
123,0.0,136.878,168.65099999999998,,,,,5.0106,60.0,,,,,monisource-isource_newbattery675_1_shape,0.6858409068,,
124,0.0,136.811,168.713,,,,,5.0106,60.0,,,,,monisource-isource_newbattery675_1_shape,0.6855051966000001,,
125,0.0,133.658,171.763,,,,,5.0106,60.0,,,,,monisource-isource_newbattery675_1_shape,0.6697067748,,
126,0.0,134.05700000000002,171.885,,,,,5.0106,60.0,,,,,monisource-isource_newbattery675_1_shape,0.6717060042,,
127,0.0,126.97399999999999,178.477,,,,,5.0106,60.0,,,,,monisource-isource_newbattery675_1_shape,0.6362159244,,
128,0.0,122.501,-178.03099999999998,,,,,5.0106,60.0,,,,,monisource-isource_newbattery675_1_shape,0.6138035106,,
129,0.0,608.934,-175.99099999999999,,,,,5.0106,60.0,,,,,monisource-isource_newbattery675_1_shape,3.0511247004,,
130,0.0,1251.14,-174.238,,,,,5.0106,60.0,,,,,monisource-isource_newbattery675_1_shape,6.268962084000001,,
131,0.0,1852.48,-172.50900000000001,,,,,5.0106,60.0,,,,,monisource-isource_newbattery675_1_shape,9.282036288,,
132,0.0,1678.59,-172.79,,,,,5.0106,60.0,,,,,monisource-isource_newbattery675_1_shape,8.410743054000001,,
133,0.0,1901.51,-173.56,,,,,5.0106,60.0,,,,,monisource-isource_newbattery675_1_shape,9.527706006,,
134,0.0,1924.23,-172.247,,,,,5.0106,60.0,,,,,monisource-isource_newbattery675_1_shape,9.641546838,,
135,0.0,1930.35,-172.213,,,,,5.0106,60.0,,,,,monisource-isource_newbattery675_1_shape,9.67221171,,
136,0.0,1510.68,-173.136,,,,,5.0106,60.0,,,,,monisource-isource_newbattery675_1_shape,7.569413208000001,,
137,0.0,882.877,-174.22099999999998,,,,,5.0106,60.0,,,,,monisource-isource_newbattery675_1_shape,4.4237434962,,
138,0.0,270.925,-177.685,,,,,5.0106,60.0,,,,,monisource-isource_newbattery675_1_shape,1.357496805,,
139,0.0,129.114,175.725,,,,,5.0106,60.0,,,,,monisource-isource_newbattery675_1_shape,0.6469386084000001,,
140,0.0,130.10399999999998,175.768,,,,,5.0106,60.0,,,,,monisource-isource_newbattery675_1_shape,0.6518991023999999,,
141,0.0,133.748,172.25900000000001,,,,,5.0106,60.0,,,,,monisource-isource_newbattery675_1_shape,0.6701577288,,
142,0.0,134.46,171.458,,,,,5.0106,60.0,,,,,monisource-isource_newbattery675_1_shape,0.673725276,,
143,0.0,136.668,168.97799999999998,,,,,5.0106,60.0,,,,,monisource-isource_newbattery675_1_shape,0.6847886808000001,,
144,0.0,136.528,169.05200000000002,,,,,5.0106,60.0,,,,,monisource-isource_newbattery675_1_shape,0.6840871968,,
145,0.0,136.779,168.83599999999998,,,,,5.0106,60.0,,,,,monisource-isource_newbattery675_1_shape,0.6853448574000001,,
146,0.0,136.566,168.986,,,,,5.0106,60.0,,,,,monisource-isource_newbattery675_1_shape,0.6842775996,,
147,0.0,136.549,169.04,,,,,5.0106,60.0,,,,,monisource-isource_newbattery675_1_shape,0.6841924194000001,,
148,0.0,136.58,169.021,,,,,5.0106,60.0,,,,,monisource-isource_newbattery675_1_shape,0.6843477480000001,,
149,0.0,135.885,169.678,,,,,5.0106,60.0,,,,,monisource-isource_newbattery675_1_shape,0.6808653809999999,,
150,0.0,136.082,169.63400000000001,,,,,5.0106,60.0,,,,,monisource-isource_newbattery675_1_shape,0.6818524692,,
151,0.0,134.214,171.68599999999998,,,,,5.0106,60.0,,,,,monisource-isource_newbattery675_1_shape,0.6724926684000001,,
152,0.0,131.947,173.763,,,,,5.0106,60.0,,,,,monisource-isource_newbattery675_1_shape,0.6611336382,,
153,0.0,688.242,173.63299999999998,,,,,5.0106,60.0,,,,,monisource-isource_newbattery675_1_shape,3.4485053652,,
154,0.0,658.7289999999999,176.97099999999998,,,,,5.0106,60.0,,,,,monisource-isource_newbattery675_1_shape,3.3006275274,,
155,0.0,1984.94,179.021,,,,,5.0106,60.0,,,,,monisource-isource_newbattery675_1_shape,9.945740364,,
156,0.0,2250.4,179.37900000000002,,,,,5.0106,60.0,,,,,monisource-isource_newbattery675_1_shape,11.275854240000001,,
157,0.0,2069.45,177.207,,,,,5.0106,60.0,,,,,monisource-isource_newbattery675_1_shape,10.369186169999999,,
158,0.0,1991.47,176.963,,,,,5.0106,60.0,,,,,monisource-isource_newbattery675_1_shape,9.978459582000001,,
159,0.0,1705.29,176.482,,,,,5.0106,60.0,,,,,monisource-isource_newbattery675_1_shape,8.544526074,,
160,0.0,953.732,173.03099999999998,,,,,5.0106,60.0,,,,,monisource-isource_newbattery675_1_shape,4.7787695592,,
161,0.0,567.481,172.34900000000002,,,,,5.0106,60.0,,,,,monisource-isource_newbattery675_1_shape,2.8434202986,,
162,0.0,174.80900000000003,171.94299999999998,,,,,5.0106,60.0,,,,,monisource-isource_newbattery675_1_shape,0.8758979754000001,,
163,0.0,132.726,172.611,,,,,5.0106,60.0,,,,,monisource-isource_newbattery675_1_shape,0.6650368956,,
164,0.0,133.464,172.513,,,,,5.0106,60.0,,,,,monisource-isource_newbattery675_1_shape,0.6687347184,,
165,0.0,136.708,169.62599999999998,,,,,5.0106,60.0,,,,,monisource-isource_newbattery675_1_shape,0.6849891048000001,,
166,0.0,136.082,169.592,,,,,5.0106,60.0,,,,,monisource-isource_newbattery675_1_shape,0.6818524692,,
167,0.0,136.827,168.90900000000002,,,,,5.0106,60.0,,,,,monisource-isource_newbattery675_1_shape,0.6855853662000001,,
168,0.0,136.643,168.921,,,,,5.0106,60.0,,,,,monisource-isource_newbattery675_1_shape,0.6846634158,,
169,0.0,137.344,168.269,,,,,5.0106,60.0,,,,,monisource-isource_newbattery675_1_shape,0.6881758464,,
170,0.0,137.17600000000002,168.262,,,,,5.0106,60.0,,,,,monisource-isource_newbattery675_1_shape,0.6873340656000001,,
171,0.0,137.218,168.232,,,,,5.0106,60.0,,,,,monisource-isource_newbattery675_1_shape,0.6875445108,,
172,0.0,137.205,168.236,,,,,5.0106,60.0,,,,,monisource-isource_newbattery675_1_shape,0.6874793730000002,,
173,0.0,136.42600000000002,168.99200000000002,,,,,5.0106,60.0,,,,,monisource-isource_newbattery675_1_shape,0.6835761156000001,,
174,0.0,136.579,169.021,,,,,5.0106,60.0,,,,,monisource-isource_newbattery675_1_shape,0.6843427374000001,,
175,0.0,134.68200000000002,171.174,,,,,5.0106,60.0,,,,,monisource-isource_newbattery675_1_shape,0.6748376292000001,,
176,0.0,136.499,169.545,,,,,5.0106,60.0,,,,,monisource-isource_newbattery675_1_shape,0.6839418894,,
177,0.0,716.6619999999999,171.00400000000002,,,,,5.0106,60.0,,,,,monisource-isource_newbattery675_1_shape,3.5909066172,,
178,0.0,1459.15,171.27700000000002,,,,,5.0106,60.0,,,,,monisource-isource_newbattery675_1_shape,7.311216990000001,,
179,0.0,468.246,170.013,,,,,5.0106,60.0,,,,,monisource-isource_newbattery675_1_shape,2.3461934076,,
180,0.0,2453.5,-2.79561,,,,,5.0106,60.0,,,,,monisource-isource_newbattery675_1_shape,12.293507100000001,,
181,0.0,2454.4,-3.2088099999999997,,,,,0.0,0.0,,,,,monisource-isource_newbattery675_1_shape,0.0,,
182,0.0,2456.18,-3.3345,,,,,0.0,0.0,,,,,monisource-isource_newbattery675_1_shape,0.0,,
183,0.0,2454.56,-3.15712,,,,,0.0,0.0,,,,,monisource-isource_newbattery675_1_shape,0.0,,
184,0.0,2450.86,-2.8871700000000002,,,,,0.0,0.0,,,,,monisource-isource_newbattery675_1_shape,0.0,,
185,0.0,2447.55,-2.63883,,,,,0.0,0.0,,,,,monisource-isource_newbattery675_1_shape,0.0,,
186,0.0,2448.22,-2.31157,,,,,0.0,0.0,,,,,monisource-isource_newbattery675_1_shape,0.0,,
187,0.0,2448.0,-2.2783900000000004,,,,,0.0,0.0,,,,,monisource-isource_newbattery675_1_shape,0.0,,
188,0.0,2450.27,-2.22732,,,,,0.0,0.0,,,,,monisource-isource_newbattery675_1_shape,0.0,,
189,0.0,2452.69,-2.16149,,,,,0.0,0.0,,,,,monisource-isource_newbattery675_1_shape,0.0,,
190,0.0,2456.0,-2.08816,,,,,0.0,0.0,,,,,monisource-isource_newbattery675_1_shape,0.0,,
191,0.0,2462.99,-1.89047,,,,,0.0,0.0,,,,,monisource-isource_newbattery675_1_shape,0.0,,
192,0.0,2458.12,-1.9550599999999998,,,,,0.0,0.0,,,,,monisource-isource_newbattery675_1_shape,0.0,,
193,0.0,2460.86,-1.8848799999999999,,,,,0.0,0.0,,,,,monisource-isource_newbattery675_1_shape,0.0,,
194,0.0,2462.38,-1.8473099999999998,,,,,0.0,0.0,,,,,monisource-isource_newbattery675_1_shape,0.0,,
195,0.0,2462.79,-1.83519,,,,,0.0,0.0,,,,,monisource-isource_newbattery675_1_shape,0.0,,
196,0.0,2463.09,-1.83033,,,,,0.0,0.0,,,,,monisource-isource_newbattery675_1_shape,0.0,,
197,0.0,2462.86,-1.92585,,,,,0.0,0.0,,,,,monisource-isource_newbattery675_1_shape,0.0,,
