hour,t(sec),V1,VAngle1,V2,VAngle2,V3,VAngle3,I1,IAngle1,I2,IAngle2,I3,IAngle3,Name,P1(kW),P2(kW),P3(kW)
1,0.0,277.0,1.93668e-08,,,,,2.9451e-09,108.435,,,,,monvsource-lead_gen_634_1,8.157927e-10,,
2,0.0,277.0,1.93668e-08,,,,,2.9451e-09,108.435,,,,,monvsource-lead_gen_634_1,8.157927e-10,,
3,0.0,277.0,1.93668e-08,,,,,2.9451e-09,108.435,,,,,monvsource-lead_gen_634_1,8.157927e-10,,
4,0.0,277.0,1.93668e-08,,,,,2.9451e-09,108.435,,,,,monvsource-lead_gen_634_1,8.157927e-10,,
5,0.0,277.0,1.93668e-08,,,,,2.9451e-09,108.435,,,,,monvsource-lead_gen_634_1,8.157927e-10,,
6,0.0,277.0,1.93668e-08,,,,,2.9451e-09,108.435,,,,,monvsource-lead_gen_634_1,8.157927e-10,,
7,0.0,277.0,1.93668e-08,,,,,2.9451e-09,108.435,,,,,monvsource-lead_gen_634_1,8.157927e-10,,
8,0.0,277.0,1.93668e-08,,,,,2.9451e-09,108.435,,,,,monvsource-lead_gen_634_1,8.157927e-10,,
9,0.0,277.0,1.93668e-08,,,,,2.9451e-09,108.435,,,,,monvsource-lead_gen_634_1,8.157927e-10,,
10,0.0,277.0,1.93668e-08,,,,,2.9451e-09,108.435,,,,,monvsource-lead_gen_634_1,8.157927e-10,,
11,0.0,277.0,1.93668e-08,,,,,2.9451e-09,108.435,,,,,monvsource-lead_gen_634_1,8.157927e-10,,
12,0.0,277.0,1.93668e-08,,,,,2.9451e-09,108.435,,,,,monvsource-lead_gen_634_1,8.157927e-10,,
13,0.0,277.0,1.93668e-08,,,,,2.9451e-09,108.435,,,,,monvsource-lead_gen_634_1,8.157927e-10,,
14,0.0,277.0,1.93668e-08,,,,,2.9451e-09,108.435,,,,,monvsource-lead_gen_634_1,8.157927e-10,,
15,0.0,277.0,1.93668e-08,,,,,2.9451e-09,108.435,,,,,monvsource-lead_gen_634_1,8.157927e-10,,
16,0.0,277.0,1.93668e-08,,,,,2.9451e-09,108.435,,,,,monvsource-lead_gen_634_1,8.157927e-10,,
17,0.0,277.0,1.93668e-08,,,,,2.9451e-09,108.435,,,,,monvsource-lead_gen_634_1,8.157927e-10,,
18,0.0,277.0,1.93668e-08,,,,,2.9451e-09,108.435,,,,,monvsource-lead_gen_634_1,8.157927e-10,,
19,0.0,277.0,1.93668e-08,,,,,2.9451e-09,108.435,,,,,monvsource-lead_gen_634_1,8.157927e-10,,
20,0.0,277.0,1.93668e-08,,,,,2.9451e-09,108.435,,,,,monvsource-lead_gen_634_1,8.157927e-10,,
21,0.0,277.0,1.93668e-08,,,,,2.9451e-09,108.435,,,,,monvsource-lead_gen_634_1,8.157927e-10,,
22,0.0,277.0,1.93668e-08,,,,,2.9451e-09,108.435,,,,,monvsource-lead_gen_634_1,8.157927e-10,,
23,0.0,277.0,1.93668e-08,,,,,2.9451e-09,108.435,,,,,monvsource-lead_gen_634_1,8.157927e-10,,
24,0.0,277.0,1.93668e-08,,,,,2.9451e-09,108.435,,,,,monvsource-lead_gen_634_1,8.157927e-10,,
25,0.0,277.0,1.93668e-08,,,,,2.9451e-09,108.435,,,,,monvsource-lead_gen_634_1,8.157927e-10,,
26,0.0,277.0,1.93668e-08,,,,,2.9451e-09,108.435,,,,,monvsource-lead_gen_634_1,8.157927e-10,,
27,0.0,277.0,1.93668e-08,,,,,2.9451e-09,108.435,,,,,monvsource-lead_gen_634_1,8.157927e-10,,
28,0.0,277.0,1.93668e-08,,,,,2.9451e-09,108.435,,,,,monvsource-lead_gen_634_1,8.157927e-10,,
29,0.0,277.0,1.93668e-08,,,,,2.9451e-09,108.435,,,,,monvsource-lead_gen_634_1,8.157927e-10,,
30,0.0,277.0,1.93668e-08,,,,,2.9451e-09,108.435,,,,,monvsource-lead_gen_634_1,8.157927e-10,,
31,0.0,277.0,1.93668e-08,,,,,2.9451e-09,108.435,,,,,monvsource-lead_gen_634_1,8.157927e-10,,
32,0.0,277.0,1.93668e-08,,,,,2.9451e-09,108.435,,,,,monvsource-lead_gen_634_1,8.157927e-10,,
33,0.0,277.0,1.93668e-08,,,,,2.9451e-09,108.435,,,,,monvsource-lead_gen_634_1,8.157927e-10,,
34,0.0,277.0,1.93668e-08,,,,,2.9451e-09,108.435,,,,,monvsource-lead_gen_634_1,8.157927e-10,,
35,0.0,277.0,1.93668e-08,,,,,2.9451e-09,108.435,,,,,monvsource-lead_gen_634_1,8.157927e-10,,
36,0.0,277.0,1.93668e-08,,,,,2.9451e-09,108.435,,,,,monvsource-lead_gen_634_1,8.157927e-10,,
37,0.0,277.0,1.93668e-08,,,,,2.9451e-09,108.435,,,,,monvsource-lead_gen_634_1,8.157927e-10,,
38,0.0,277.0,1.93668e-08,,,,,2.9451e-09,108.435,,,,,monvsource-lead_gen_634_1,8.157927e-10,,
39,0.0,277.0,1.93668e-08,,,,,2.9451e-09,108.435,,,,,monvsource-lead_gen_634_1,8.157927e-10,,
40,0.0,277.0,1.93668e-08,,,,,2.9451e-09,108.435,,,,,monvsource-lead_gen_634_1,8.157927e-10,,
41,0.0,277.0,1.93668e-08,,,,,2.9451e-09,108.435,,,,,monvsource-lead_gen_634_1,8.157927e-10,,
42,0.0,277.0,1.93668e-08,,,,,2.9451e-09,108.435,,,,,monvsource-lead_gen_634_1,8.157927e-10,,
43,0.0,277.0,1.93668e-08,,,,,2.9451e-09,108.435,,,,,monvsource-lead_gen_634_1,8.157927e-10,,
44,0.0,277.0,1.93668e-08,,,,,2.9451e-09,108.435,,,,,monvsource-lead_gen_634_1,8.157927e-10,,
45,0.0,277.0,1.93668e-08,,,,,2.9451e-09,108.435,,,,,monvsource-lead_gen_634_1,8.157927e-10,,
46,0.0,277.0,1.93668e-08,,,,,2.9451e-09,108.435,,,,,monvsource-lead_gen_634_1,8.157927e-10,,
47,0.0,277.0,1.93668e-08,,,,,2.9451e-09,108.435,,,,,monvsource-lead_gen_634_1,8.157927e-10,,
48,0.0,277.0,1.93668e-08,,,,,2.9451e-09,108.435,,,,,monvsource-lead_gen_634_1,8.157927e-10,,
49,0.0,277.0,1.93668e-08,,,,,2.9451e-09,108.435,,,,,monvsource-lead_gen_634_1,8.157927e-10,,
50,0.0,277.0,1.93668e-08,,,,,2.9451e-09,108.435,,,,,monvsource-lead_gen_634_1,8.157927e-10,,
51,0.0,277.0,1.93668e-08,,,,,2.9451e-09,108.435,,,,,monvsource-lead_gen_634_1,8.157927e-10,,
52,0.0,277.0,1.93668e-08,,,,,2.9451e-09,108.435,,,,,monvsource-lead_gen_634_1,8.157927e-10,,
53,0.0,277.0,1.93668e-08,,,,,2.9451e-09,108.435,,,,,monvsource-lead_gen_634_1,8.157927e-10,,
54,0.0,277.0,1.93668e-08,,,,,2.9451e-09,108.435,,,,,monvsource-lead_gen_634_1,8.157927e-10,,
55,0.0,277.0,1.93668e-08,,,,,2.9451e-09,108.435,,,,,monvsource-lead_gen_634_1,8.157927e-10,,
56,0.0,277.0,1.93668e-08,,,,,2.9451e-09,108.435,,,,,monvsource-lead_gen_634_1,8.157927e-10,,
57,0.0,277.0,1.93668e-08,,,,,2.9451e-09,108.435,,,,,monvsource-lead_gen_634_1,8.157927e-10,,
58,0.0,277.0,1.93668e-08,,,,,2.9451e-09,108.435,,,,,monvsource-lead_gen_634_1,8.157927e-10,,
59,0.0,277.0,1.93668e-08,,,,,2.9451e-09,108.435,,,,,monvsource-lead_gen_634_1,8.157927e-10,,
60,0.0,276.995,-0.00367683,,,,,504.78,179.892,,,,,monvsource-lead_gen_634_1,139.8215361,,
61,0.0,276.995,-0.0039309,,,,,539.679,179.885,,,,,monvsource-lead_gen_634_1,149.488384605,,
62,0.0,276.995,-0.00387397,,,,,531.858,179.886,,,,,monvsource-lead_gen_634_1,147.32200670999998,,
63,0.0,276.997,-0.00245573,,,,,337.083,179.928,,,,,monvsource-lead_gen_634_1,93.37097975100001,,
64,0.0,276.996,-0.00276049,,,,,378.931,179.919,,,,,monvsource-lead_gen_634_1,104.96237127599998,,
65,0.0,276.995,-0.00388397,,,,,533.232,179.886,,,,,monvsource-lead_gen_634_1,147.70259784,,
66,0.0,276.993,-0.00510964,,,,,701.624,179.85,,,,,monvsource-lead_gen_634_1,194.34493663199999,,
67,0.0,276.993,-0.00506547,,,,,695.554,179.851,,,,,monvsource-lead_gen_634_1,192.66358912199996,,
68,0.0,276.994,-0.00468909,,,,,643.839,179.862,,,,,monvsource-lead_gen_634_1,178.33953996600005,,
69,0.0,276.994,-0.0041275,,,,,566.686,179.879,,,,,monvsource-lead_gen_634_1,156.96862188400002,,
70,0.0,276.996,-0.00278389,,,,,382.145,179.918,,,,,monvsource-lead_gen_634_1,105.85263641999998,,
71,0.0,276.998,-0.00171634,,,,,235.569,179.95,,,,,monvsource-lead_gen_634_1,65.252141862,,
72,0.0,276.997,-0.00233161,,,,,320.041,179.931,,,,,monvsource-lead_gen_634_1,88.650396877,,
73,0.0,276.998,-0.00181948,,,,,249.729,179.947,,,,,monvsource-lead_gen_634_1,69.174433542,,
74,0.0,276.998,-0.00168551,,,,,231.336,179.95,,,,,monvsource-lead_gen_634_1,64.079609328,,
75,0.0,276.998,-0.00170813,,,,,234.443,179.95,,,,,monvsource-lead_gen_634_1,64.940242114,,
76,0.0,276.998,-0.00173193,,,,,237.709,179.949,,,,,monvsource-lead_gen_634_1,65.844917582,,
77,0.0,276.997,-0.00187774,,,,,257.727,179.945,,,,,monvsource-lead_gen_634_1,71.38960581900001,,
78,0.0,276.997,-0.00189649,,,,,260.301,179.944,,,,,monvsource-lead_gen_634_1,72.102596097,,
79,0.0,276.996,-0.00289285,,,,,397.108,179.915,,,,,monvsource-lead_gen_634_1,109.99732756799999,,
80,0.0,276.996,-0.00278634,,,,,382.481,179.918,,,,,monvsource-lead_gen_634_1,105.94570707599999,,
81,0.0,276.997,-0.00227265,,,,,311.945,179.933,,,,,monvsource-lead_gen_634_1,86.40782916500001,,
82,0.0,276.999,-0.000383934,,,,,52.6878,179.988,,,,,monvsource-lead_gen_634_1,14.5944679122,,
83,0.0,277.005,0.00352639,,,,,483.644,0.104397,,,,,monvsource-lead_gen_634_1,133.97180622,,
84,0.0,277.005,0.00415066,,,,,569.219,0.121902,,,,,monvsource-lead_gen_634_1,157.67650909500003,,
85,0.0,277.005,0.00415064,,,,,569.216,0.121948,,,,,monvsource-lead_gen_634_1,157.67567808,,
86,0.0,277.003,0.00218617,,,,,299.887,0.065003,,,,,monvsource-lead_gen_634_1,83.069598661,,
87,0.0,277.0,2.7554e-08,,,,,0.00113122,32.0933,,,,,monvsource-lead_gen_634_1,0.00031334794,,
88,0.0,277.0,1.89377e-09,,,,,0.00457972,-104.963,,,,,monvsource-lead_gen_634_1,0.0012685824399999998,,
89,0.0,276.993,-0.00518016,,,,,711.313,179.848,,,,,monvsource-lead_gen_634_1,197.028721809,,
90,0.0,276.987,-0.00943605,,,,,1296.47,179.723,,,,,monvsource-lead_gen_634_1,359.10533589000005,,
91,0.0,276.992,-0.00599714,,,,,823.588,179.824,,,,,monvsource-lead_gen_634_1,228.127287296,,
92,0.0,276.993,-0.00555367,,,,,762.64,179.837,,,,,monvsource-lead_gen_634_1,211.24594152,,
93,0.0,276.993,-0.00503372,,,,,691.191,179.852,,,,,monvsource-lead_gen_634_1,191.45506866300002,,
94,0.0,276.995,-0.00354893,,,,,487.212,179.896,,,,,monvsource-lead_gen_634_1,134.95528794,,
95,0.0,276.997,-0.00238913,,,,,327.938,179.93,,,,,monvsource-lead_gen_634_1,90.83784218599999,,
96,0.0,276.996,-0.0029457,,,,,404.366,179.913,,,,,monvsource-lead_gen_634_1,112.00776453599998,,
97,0.0,276.997,-0.00258438,,,,,354.749,179.924,,,,,monvsource-lead_gen_634_1,98.26440875300001,,
98,0.0,276.997,-0.00240731,,,,,330.435,179.929,,,,,monvsource-lead_gen_634_1,91.529503695,,
99,0.0,276.997,-0.00240903,,,,,330.672,179.929,,,,,monvsource-lead_gen_634_1,91.59515198400001,,
100,0.0,276.997,-0.00240988,,,,,330.788,179.929,,,,,monvsource-lead_gen_634_1,91.627283636,,
101,0.0,276.997,-0.00255847,,,,,351.191,179.925,,,,,monvsource-lead_gen_634_1,97.278853427,,
102,0.0,276.997,-0.00255948,,,,,351.33,179.925,,,,,monvsource-lead_gen_634_1,97.31735601,,
103,0.0,276.995,-0.00358165,,,,,491.707,179.895,,,,,monvsource-lead_gen_634_1,136.200380465,,
104,0.0,276.995,-0.0036432,,,,,500.161,179.893,,,,,monvsource-lead_gen_634_1,138.542096195,,
105,0.0,276.996,-0.00296395,,,,,406.871,179.913,,,,,monvsource-lead_gen_634_1,112.70163951599999,,
106,0.0,276.999,-0.00108069,,,,,148.314,179.968,,,,,monvsource-lead_gen_634_1,41.082829686000004,,
107,0.0,277.003,0.00204433,,,,,280.435,0.0616539,,,,,monvsource-lead_gen_634_1,77.68133630499999,,
108,0.0,277.005,0.00403082,,,,,552.793,0.118345,,,,,monvsource-lead_gen_634_1,153.126424965,,
109,0.0,277.005,0.00415065,,,,,569.216,0.121937,,,,,monvsource-lead_gen_634_1,157.67567808,,
110,0.0,277.005,0.0037878,,,,,519.481,0.111343,,,,,monvsource-lead_gen_634_1,143.898834405,,
111,0.0,277.0,2.1856e-08,,,,,0.00529888,101.794,,,,,monvsource-lead_gen_634_1,0.0014677897599999997,,
112,0.0,276.999,-0.00103191,,,,,141.618,179.969,,,,,monvsource-lead_gen_634_1,39.228044382,,
113,0.0,276.991,-0.00640177,,,,,879.205,179.812,,,,,monvsource-lead_gen_634_1,243.531872155,,
114,0.0,276.988,-0.00916316,,,,,1258.93,179.731,,,,,monvsource-lead_gen_634_1,348.70850284000005,,
115,0.0,276.992,-0.00617357,,,,,847.839,179.818,,,,,monvsource-lead_gen_634_1,234.84462028800004,,
116,0.0,276.992,-0.00598821,,,,,822.361,179.824,,,,,monvsource-lead_gen_634_1,227.787418112,,
117,0.0,276.993,-0.00545595,,,,,749.211,179.84,,,,,monvsource-lead_gen_634_1,207.526202523,,
118,0.0,276.995,-0.00379467,,,,,520.965,179.889,,,,,monvsource-lead_gen_634_1,144.304700175,,
119,0.0,276.997,-0.00251397,,,,,345.08,179.926,,,,,monvsource-lead_gen_634_1,95.58612476,,
120,0.0,276.996,-0.00302625,,,,,415.428,179.911,,,,,monvsource-lead_gen_634_1,115.071894288,,
121,0.0,276.996,-0.0026826,,,,,368.235,179.921,,,,,monvsource-lead_gen_634_1,101.99962206,,
122,0.0,276.997,-0.00250926,,,,,344.434,179.926,,,,,monvsource-lead_gen_634_1,95.40718469800001,,
123,0.0,276.997,-0.00248966,,,,,341.743,179.927,,,,,monvsource-lead_gen_634_1,94.66178577100001,,
124,0.0,276.997,-0.00248035,,,,,340.464,179.927,,,,,monvsource-lead_gen_634_1,94.30750660800001,,
125,0.0,276.996,-0.00298675,,,,,410.004,179.912,,,,,monvsource-lead_gen_634_1,113.569467984,,
126,0.0,276.996,-0.00298817,,,,,410.198,179.912,,,,,monvsource-lead_gen_634_1,113.62320520799999,,
127,0.0,276.995,-0.00407159,,,,,559.005,179.88,,,,,monvsource-lead_gen_634_1,154.841589975,,
128,0.0,276.995,-0.00398576,,,,,547.215,179.883,,,,,monvsource-lead_gen_634_1,151.575818925,,
129,0.0,276.995,-0.00360019,,,,,494.253,179.894,,,,,monvsource-lead_gen_634_1,136.905609735,,
130,0.0,276.997,-0.00209059,,,,,286.948,179.939,,,,,monvsource-lead_gen_634_1,79.483735156,,
131,0.0,277.001,0.000764698,,,,,104.912,0.0297744,,,,,monvsource-lead_gen_634_1,29.060728912,,
132,0.0,276.999,-0.00107803,,,,,147.946,179.973,,,,,monvsource-lead_gen_634_1,40.980894054000004,,
133,0.0,277.0,0.000136399,,,,,18.71,0.0398572,,,,,monvsource-lead_gen_634_1,5.18267,,
134,0.0,277.001,0.000463395,,,,,63.5789,0.013825,,,,,monvsource-lead_gen_634_1,17.611418878899997,,
135,0.0,277.001,0.000871183,,,,,119.524,0.0256459,,,,,monvsource-lead_gen_634_1,33.108267524,,
136,0.0,276.997,-0.0018937,,,,,259.919,179.943,,,,,monvsource-lead_gen_634_1,71.996783243,,
137,0.0,276.995,-0.003555,,,,,488.047,179.895,,,,,monvsource-lead_gen_634_1,135.186578765,,
138,0.0,276.992,-0.00599616,,,,,823.454,179.824,,,,,monvsource-lead_gen_634_1,228.090170368,,
139,0.0,276.992,-0.00626949,,,,,861.023,179.816,,,,,monvsource-lead_gen_634_1,238.49648281600003,,
140,0.0,276.992,-0.00591385,,,,,812.141,179.826,,,,,monvsource-lead_gen_634_1,224.956559872,,
141,0.0,276.993,-0.00541137,,,,,743.086,179.841,,,,,monvsource-lead_gen_634_1,205.829620398,,
142,0.0,276.995,-0.00358691,,,,,492.428,179.895,,,,,monvsource-lead_gen_634_1,136.40009386,,
143,0.0,276.997,-0.00236489,,,,,324.611,179.931,,,,,monvsource-lead_gen_634_1,89.916273167,,
144,0.0,276.996,-0.00288594,,,,,396.16,179.915,,,,,monvsource-lead_gen_634_1,109.73473536,,
145,0.0,276.997,-0.00244337,,,,,335.387,179.928,,,,,monvsource-lead_gen_634_1,92.901192839,,
146,0.0,276.997,-0.00227271,,,,,311.955,179.933,,,,,monvsource-lead_gen_634_1,86.410599135,,
147,0.0,276.997,-0.00226922,,,,,311.475,179.933,,,,,monvsource-lead_gen_634_1,86.277640575,,
148,0.0,276.997,-0.00226714,,,,,311.189,179.933,,,,,monvsource-lead_gen_634_1,86.19841943300001,,
149,0.0,276.997,-0.00240293,,,,,329.834,179.929,,,,,monvsource-lead_gen_634_1,91.363028498,,
150,0.0,276.997,-0.00239307,,,,,328.481,179.93,,,,,monvsource-lead_gen_634_1,90.988251557,,
151,0.0,276.996,-0.00308659,,,,,423.714,179.909,,,,,monvsource-lead_gen_634_1,117.36708314399999,,
152,0.0,276.996,-0.00309021,,,,,424.211,179.909,,,,,monvsource-lead_gen_634_1,117.504750156,,
153,0.0,276.997,-0.00250807,,,,,344.27,179.926,,,,,monvsource-lead_gen_634_1,95.36175719,,
154,0.0,276.996,-0.00322285,,,,,442.428,179.905,,,,,monvsource-lead_gen_634_1,122.55078628799998,,
155,0.0,277.002,0.00171068,,,,,234.673,0.0535384,,,,,monvsource-lead_gen_634_1,65.004890346,,
156,0.0,277.004,0.00270143,,,,,370.544,0.0793123,,,,,monvsource-lead_gen_634_1,102.642170176,,
157,0.0,277.002,0.00149004,,,,,204.414,0.0443425,,,,,monvsource-lead_gen_634_1,56.623086828,,
158,0.0,277.001,0.00091219,,,,,125.149,0.0273935,,,,,monvsource-lead_gen_634_1,34.666398149,,
159,0.0,276.999,-0.000955904,,,,,131.183,179.976,,,,,monvsource-lead_gen_634_1,36.337559817,,
160,0.0,276.992,-0.00607986,,,,,834.958,179.821,,,,,monvsource-lead_gen_634_1,231.276686336,,
161,0.0,276.994,-0.00448214,,,,,615.406,179.868,,,,,monvsource-lead_gen_634_1,170.46376956400002,,
162,0.0,276.992,-0.00591233,,,,,811.932,179.826,,,,,monvsource-lead_gen_634_1,224.898668544,,
163,0.0,276.993,-0.00550682,,,,,756.202,179.838,,,,,monvsource-lead_gen_634_1,209.46266058599997,,
164,0.0,276.994,-0.00462451,,,,,634.966,179.864,,,,,monvsource-lead_gen_634_1,175.88177220400001,,
165,0.0,276.994,-0.0043601,,,,,598.639,179.872,,,,,monvsource-lead_gen_634_1,165.819411166,,
166,0.0,276.996,-0.00320932,,,,,440.57,179.906,,,,,monvsource-lead_gen_634_1,122.03612772,,
167,0.0,276.997,-0.00234812,,,,,322.308,179.931,,,,,monvsource-lead_gen_634_1,89.278349076,,
168,0.0,276.996,-0.00288807,,,,,396.451,179.915,,,,,monvsource-lead_gen_634_1,109.81534119599999,,
169,0.0,276.997,-0.00249563,,,,,342.563,179.927,,,,,monvsource-lead_gen_634_1,94.888923311,,
170,0.0,276.997,-0.00231189,,,,,317.333,179.932,,,,,monvsource-lead_gen_634_1,87.90028900100002,,
171,0.0,276.997,-0.00230937,,,,,316.988,179.932,,,,,monvsource-lead_gen_634_1,87.80472503600001,,
172,0.0,276.997,-0.00231414,,,,,317.642,179.932,,,,,monvsource-lead_gen_634_1,87.985881074,,
173,0.0,276.997,-0.00246122,,,,,337.837,179.928,,,,,monvsource-lead_gen_634_1,93.579835489,,
174,0.0,276.997,-0.0024527,,,,,336.667,179.928,,,,,monvsource-lead_gen_634_1,93.255748999,,
175,0.0,276.996,-0.00313381,,,,,430.2,179.908,,,,,monvsource-lead_gen_634_1,119.16367919999999,,
176,0.0,276.996,-0.00313536,,,,,430.412,179.908,,,,,monvsource-lead_gen_634_1,119.22240235199999,,
177,0.0,276.997,-0.00190401,,,,,261.333,179.944,,,,,monvsource-lead_gen_634_1,72.38845700100002,,
178,0.0,277.002,0.00177615,,,,,243.655,0.0542352,,,,,monvsource-lead_gen_634_1,67.49292231000001,,
179,0.0,276.994,-0.00416778,,,,,572.214,179.879,,,,,monvsource-lead_gen_634_1,158.499844716,,
180,0.0,277.0,1.93668e-08,,,,,2.9451e-09,108.435,,,,,monvsource-lead_gen_634_1,8.157927e-10,,
181,0.0,277.0,1.93668e-08,,,,,2.9451e-09,108.435,,,,,monvsource-lead_gen_634_1,8.157927e-10,,
182,0.0,277.0,1.93668e-08,,,,,2.9451e-09,108.435,,,,,monvsource-lead_gen_634_1,8.157927e-10,,
183,0.0,277.0,1.93668e-08,,,,,2.9451e-09,108.435,,,,,monvsource-lead_gen_634_1,8.157927e-10,,
184,0.0,277.0,1.93668e-08,,,,,2.9451e-09,108.435,,,,,monvsource-lead_gen_634_1,8.157927e-10,,
185,0.0,277.0,1.93668e-08,,,,,2.9451e-09,108.435,,,,,monvsource-lead_gen_634_1,8.157927e-10,,
186,0.0,277.0,1.93668e-08,,,,,2.9451e-09,108.435,,,,,monvsource-lead_gen_634_1,8.157927e-10,,
187,0.0,277.0,1.93668e-08,,,,,2.9451e-09,108.435,,,,,monvsource-lead_gen_634_1,8.157927e-10,,
188,0.0,277.0,1.93668e-08,,,,,2.9451e-09,108.435,,,,,monvsource-lead_gen_634_1,8.157927e-10,,
189,0.0,277.0,1.93668e-08,,,,,2.9451e-09,108.435,,,,,monvsource-lead_gen_634_1,8.157927e-10,,
190,0.0,277.0,1.93668e-08,,,,,2.9451e-09,108.435,,,,,monvsource-lead_gen_634_1,8.157927e-10,,
191,0.0,277.0,1.93668e-08,,,,,2.9451e-09,108.435,,,,,monvsource-lead_gen_634_1,8.157927e-10,,
192,0.0,277.0,1.93668e-08,,,,,2.9451e-09,108.435,,,,,monvsource-lead_gen_634_1,8.157927e-10,,
193,0.0,277.0,1.93668e-08,,,,,2.9451e-09,108.435,,,,,monvsource-lead_gen_634_1,8.157927e-10,,
194,0.0,277.0,1.93668e-08,,,,,2.9451e-09,108.435,,,,,monvsource-lead_gen_634_1,8.157927e-10,,
195,0.0,277.0,1.93668e-08,,,,,2.9451e-09,108.435,,,,,monvsource-lead_gen_634_1,8.157927e-10,,
196,0.0,277.0,1.93668e-08,,,,,2.9451e-09,108.435,,,,,monvsource-lead_gen_634_1,8.157927e-10,,
197,0.0,277.0,1.93668e-08,,,,,2.9451e-09,108.435,,,,,monvsource-lead_gen_634_1,8.157927e-10,,
198,0.0,277.0,1.93668e-08,,,,,2.9451e-09,108.435,,,,,monvsource-lead_gen_634_1,8.157927e-10,,
199,0.0,277.0,1.93668e-08,,,,,2.9451e-09,108.435,,,,,monvsource-lead_gen_634_1,8.157927e-10,,
200,0.0,277.0,1.93668e-08,,,,,2.9451e-09,108.435,,,,,monvsource-lead_gen_634_1,8.157927e-10,,
201,0.0,277.0,1.93668e-08,,,,,2.9451e-09,108.435,,,,,monvsource-lead_gen_634_1,8.157927e-10,,
202,0.0,277.0,1.93668e-08,,,,,2.9451e-09,108.435,,,,,monvsource-lead_gen_634_1,8.157927e-10,,
203,0.0,277.0,1.93668e-08,,,,,2.9451e-09,108.435,,,,,monvsource-lead_gen_634_1,8.157927e-10,,
204,0.0,277.0,1.93668e-08,,,,,2.9451e-09,108.435,,,,,monvsource-lead_gen_634_1,8.157927e-10,,
205,0.0,277.0,1.93668e-08,,,,,2.9451e-09,108.435,,,,,monvsource-lead_gen_634_1,8.157927e-10,,
206,0.0,277.0,1.93668e-08,,,,,2.9451e-09,108.435,,,,,monvsource-lead_gen_634_1,8.157927e-10,,
207,0.0,277.0,1.93668e-08,,,,,2.9451e-09,108.435,,,,,monvsource-lead_gen_634_1,8.157927e-10,,
208,0.0,277.0,1.93668e-08,,,,,2.9451e-09,108.435,,,,,monvsource-lead_gen_634_1,8.157927e-10,,
209,0.0,277.0,1.93668e-08,,,,,2.9451e-09,108.435,,,,,monvsource-lead_gen_634_1,8.157927e-10,,
210,0.0,277.0,1.93668e-08,,,,,2.9451e-09,108.435,,,,,monvsource-lead_gen_634_1,8.157927e-10,,
211,0.0,277.0,1.93668e-08,,,,,2.9451e-09,108.435,,,,,monvsource-lead_gen_634_1,8.157927e-10,,
