hour,t(sec),V1,VAngle1,V2,VAngle2,V3,VAngle3,I1,IAngle1,I2,IAngle2,I3,IAngle3,Name,P1(kW),P2(kW),P3(kW)
1,0.0,2429.38,-2.6205700000000003,,,,,0.0,0.0,,,,,monisource-isource_newbattery675_1_shape,0.0,,
2,0.0,2428.74,-2.64206,,,,,0.0,0.0,,,,,monisource-isource_newbattery675_1_shape,0.0,,
3,0.0,2427.87,-2.65872,,,,,0.0,0.0,,,,,monisource-isource_newbattery675_1_shape,0.0,,
4,0.0,2427.64,-2.66348,,,,,0.0,0.0,,,,,monisource-isource_newbattery675_1_shape,0.0,,
5,0.0,2425.4,-2.7349799999999997,,,,,0.0,0.0,,,,,monisource-isource_newbattery675_1_shape,0.0,,
6,0.0,2425.71,-2.73062,,,,,0.0,0.0,,,,,monisource-isource_newbattery675_1_shape,0.0,,
7,0.0,2418.51,-2.98085,,,,,0.0,0.0,,,,,monisource-isource_newbattery675_1_shape,0.0,,
8,0.0,2422.88,-2.88064,,,,,0.0,0.0,,,,,monisource-isource_newbattery675_1_shape,0.0,,
9,0.0,2419.81,-3.1147299999999998,,,,,0.0,0.0,,,,,monisource-isource_newbattery675_1_shape,0.0,,
10,0.0,2423.83,-3.18248,,,,,0.0,0.0,,,,,monisource-isource_newbattery675_1_shape,0.0,,
11,0.0,2417.9,-3.3833,,,,,0.0,0.0,,,,,monisource-isource_newbattery675_1_shape,0.0,,
12,0.0,2423.01,-4.03688,,,,,0.0,0.0,,,,,monisource-isource_newbattery675_1_shape,0.0,,
13,0.0,2410.26,-3.4200199999999996,,,,,0.0,0.0,,,,,monisource-isource_newbattery675_1_shape,0.0,,
14,0.0,2414.36,-3.67595,,,,,0.0,0.0,,,,,monisource-isource_newbattery675_1_shape,0.0,,
15,0.0,2418.34,-3.89721,,,,,0.0,0.0,,,,,monisource-isource_newbattery675_1_shape,0.0,,
16,0.0,2419.55,-3.94277,,,,,0.0,0.0,,,,,monisource-isource_newbattery675_1_shape,0.0,,
17,0.0,2415.29,-3.52715,,,,,0.0,0.0,,,,,monisource-isource_newbattery675_1_shape,0.0,,
18,0.0,2413.88,-3.0977799999999998,,,,,0.0,0.0,,,,,monisource-isource_newbattery675_1_shape,0.0,,
19,0.0,2413.61,-3.08486,,,,,0.0,0.0,,,,,monisource-isource_newbattery675_1_shape,0.0,,
20,0.0,2415.92,-3.03979,,,,,0.0,0.0,,,,,monisource-isource_newbattery675_1_shape,0.0,,
21,0.0,2419.62,-2.9405099999999997,,,,,0.0,0.0,,,,,monisource-isource_newbattery675_1_shape,0.0,,
22,0.0,2422.79,-2.86845,,,,,0.0,0.0,,,,,monisource-isource_newbattery675_1_shape,0.0,,
23,0.0,2430.48,-2.6543099999999997,,,,,0.0,0.0,,,,,monisource-isource_newbattery675_1_shape,0.0,,
24,0.0,2425.25,-2.7286799999999998,,,,,0.0,0.0,,,,,monisource-isource_newbattery675_1_shape,0.0,,
25,0.0,2427.56,-2.67286,,,,,0.0,0.0,,,,,monisource-isource_newbattery675_1_shape,0.0,,
26,0.0,2428.56,-2.65085,,,,,0.0,0.0,,,,,monisource-isource_newbattery675_1_shape,0.0,,
27,0.0,2428.84,-2.64151,,,,,0.0,0.0,,,,,monisource-isource_newbattery675_1_shape,0.0,,
28,0.0,2429.06,-2.6357,,,,,0.0,0.0,,,,,monisource-isource_newbattery675_1_shape,0.0,,
29,0.0,2423.0,-2.87101,,,,,0.0,0.0,,,,,monisource-isource_newbattery675_1_shape,0.0,,
30,0.0,2422.6,-2.90374,,,,,0.0,0.0,,,,,monisource-isource_newbattery675_1_shape,0.0,,
31,0.0,2405.33,-3.5131699999999997,,,,,0.0,0.0,,,,,monisource-isource_newbattery675_1_shape,0.0,,
32,0.0,2397.5,-3.78807,,,,,0.0,0.0,,,,,monisource-isource_newbattery675_1_shape,0.0,,
33,0.0,2382.34,-4.34618,,,,,0.0,0.0,,,,,monisource-isource_newbattery675_1_shape,0.0,,
34,0.0,2374.93,-4.8817900000000005,,,,,0.0,0.0,,,,,monisource-isource_newbattery675_1_shape,0.0,,
35,0.0,2376.66,-5.07955,,,,,0.0,0.0,,,,,monisource-isource_newbattery675_1_shape,0.0,,
36,0.0,2362.62,-4.61325,,,,,0.0,0.0,,,,,monisource-isource_newbattery675_1_shape,0.0,,
37,0.0,2386.43,-5.80273,,,,,0.0,0.0,,,,,monisource-isource_newbattery675_1_shape,0.0,,
38,0.0,2370.29,-5.05047,,,,,0.0,0.0,,,,,monisource-isource_newbattery675_1_shape,0.0,,
39,0.0,2389.12,-6.2881,,,,,0.0,0.0,,,,,monisource-isource_newbattery675_1_shape,0.0,,
40,0.0,2381.3,-5.74951,,,,,0.0,0.0,,,,,monisource-isource_newbattery675_1_shape,0.0,,
41,0.0,2373.19,-5.18886,,,,,0.0,0.0,,,,,monisource-isource_newbattery675_1_shape,0.0,,
42,0.0,2375.84,-4.369269999999999,,,,,0.0,0.0,,,,,monisource-isource_newbattery675_1_shape,0.0,,
43,0.0,2392.44,-3.7616300000000003,,,,,0.0,0.0,,,,,monisource-isource_newbattery675_1_shape,0.0,,
44,0.0,2394.7,-3.7195300000000002,,,,,0.0,0.0,,,,,monisource-isource_newbattery675_1_shape,0.0,,
45,0.0,2406.79,-3.3629800000000003,,,,,0.0,0.0,,,,,monisource-isource_newbattery675_1_shape,0.0,,
46,0.0,2417.52,-3.10126,,,,,0.0,0.0,,,,,monisource-isource_newbattery675_1_shape,0.0,,
47,0.0,2427.99,-2.7549900000000003,,,,,0.0,0.0,,,,,monisource-isource_newbattery675_1_shape,0.0,,
48,0.0,2423.06,-2.8281099999999997,,,,,0.0,0.0,,,,,monisource-isource_newbattery675_1_shape,0.0,,
49,0.0,2426.34,-2.74935,,,,,0.0,0.0,,,,,monisource-isource_newbattery675_1_shape,0.0,,
50,0.0,2427.43,-2.71944,,,,,0.0,0.0,,,,,monisource-isource_newbattery675_1_shape,0.0,,
51,0.0,2427.6,-2.70642,,,,,0.0,0.0,,,,,monisource-isource_newbattery675_1_shape,0.0,,
52,0.0,2427.93,-2.6987400000000004,,,,,0.0,0.0,,,,,monisource-isource_newbattery675_1_shape,0.0,,
53,0.0,2419.84,-2.97979,,,,,0.0,0.0,,,,,monisource-isource_newbattery675_1_shape,0.0,,
54,0.0,2419.8,-3.00811,,,,,0.0,0.0,,,,,monisource-isource_newbattery675_1_shape,0.0,,
55,0.0,2402.47,-3.6066800000000003,,,,,0.0,0.0,,,,,monisource-isource_newbattery675_1_shape,0.0,,
56,0.0,2395.27,-3.86836,,,,,0.0,0.0,,,,,monisource-isource_newbattery675_1_shape,0.0,,
57,0.0,2386.05,-4.73825,,,,,0.0,0.0,,,,,monisource-isource_newbattery675_1_shape,0.0,,
58,0.0,2385.52,-5.66127,,,,,0.0,0.0,,,,,monisource-isource_newbattery675_1_shape,0.0,,
59,0.0,2391.66,-6.03078,,,,,0.0,0.0,,,,,monisource-isource_newbattery675_1_shape,0.0,,
60,0.0,511.944,-144.935,,,,,9.6121,60.0,,,,,monisource-isource_newbattery675_1_shape,4.9208569224000005,,
61,0.0,829.827,-145.274,,,,,9.6121,60.0,,,,,monisource-isource_newbattery675_1_shape,7.9763801067,,
62,0.0,802.717,-144.457,,,,,9.6121,60.0,,,,,monisource-isource_newbattery675_1_shape,7.7157960757,,
63,0.0,690.557,-144.983,,,,,9.6121,60.0,,,,,monisource-isource_newbattery675_1_shape,6.6377029397,,
64,0.0,614.434,-144.957,,,,,9.6121,60.0,,,,,monisource-isource_newbattery675_1_shape,5.9060010514,,
65,0.0,376.776,-144.866,,,,,9.6121,60.0,,,,,monisource-isource_newbattery675_1_shape,3.6216085896,,
66,0.0,151.113,-147.671,,,,,9.6121,60.0,,,,,monisource-isource_newbattery675_1_shape,1.4525132673,,
67,0.0,157.35399999999998,-153.892,,,,,9.6121,60.0,,,,,monisource-isource_newbattery675_1_shape,1.5125023833999998,,
68,0.0,157.029,-154.502,,,,,9.6121,60.0,,,,,monisource-isource_newbattery675_1_shape,1.5093784509,,
69,0.0,174.435,-158.52700000000002,,,,,9.6121,60.0,,,,,monisource-isource_newbattery675_1_shape,1.6766866635,,
70,0.0,178.042,-159.82299999999998,,,,,9.6121,60.0,,,,,monisource-isource_newbattery675_1_shape,1.7113575081999999,,
71,0.0,191.27900000000002,-162.458,,,,,9.6121,60.0,,,,,monisource-isource_newbattery675_1_shape,1.8385928759000003,,
72,0.0,192.037,-163.499,,,,,9.6121,60.0,,,,,monisource-isource_newbattery675_1_shape,1.8458788477,,
73,0.0,193.143,-163.982,,,,,9.6121,60.0,,,,,monisource-isource_newbattery675_1_shape,1.8565098303,,
74,0.0,193.08900000000003,-164.11900000000003,,,,,9.6121,60.0,,,,,monisource-isource_newbattery675_1_shape,1.8559907769000001,,
75,0.0,192.968,-164.12900000000002,,,,,9.6121,60.0,,,,,monisource-isource_newbattery675_1_shape,1.8548277128,,
76,0.0,192.921,-164.12,,,,,9.6121,60.0,,,,,monisource-isource_newbattery675_1_shape,1.8543759441,,
77,0.0,176.264,-160.674,,,,,9.6121,60.0,,,,,monisource-isource_newbattery675_1_shape,1.6942671944,,
78,0.0,175.979,-159.644,,,,,9.6121,60.0,,,,,monisource-isource_newbattery675_1_shape,1.6915277459000002,,
79,0.0,145.746,-151.925,,,,,9.6121,60.0,,,,,monisource-isource_newbattery675_1_shape,1.4009251266,,
80,0.0,131.19799999999998,-148.356,,,,,9.6121,60.0,,,,,monisource-isource_newbattery675_1_shape,1.2610882957999998,,
81,0.0,606.411,-146.404,,,,,9.6121,60.0,,,,,monisource-isource_newbattery675_1_shape,5.8288831730999995,,
82,0.0,1102.51,-143.487,,,,,9.6121,60.0,,,,,monisource-isource_newbattery675_1_shape,10.597436371,,
83,0.0,1716.05,-146.764,,,,,9.6121,60.0,,,,,monisource-isource_newbattery675_1_shape,16.494844204999996,,
84,0.0,1990.04,-146.482,,,,,9.6121,60.0,,,,,monisource-isource_newbattery675_1_shape,19.128463484,,
85,0.0,2159.82,-147.286,,,,,9.6121,60.0,,,,,monisource-isource_newbattery675_1_shape,20.760405822,,
86,0.0,2028.89,-146.216,,,,,9.6121,60.0,,,,,monisource-isource_newbattery675_1_shape,19.501893569,,
87,0.0,1781.25,-145.924,,,,,9.6121,60.0,,,,,monisource-isource_newbattery675_1_shape,17.121553125,,
88,0.0,1199.98,-142.084,,,,,9.6121,60.0,,,,,monisource-isource_newbattery675_1_shape,11.534327758,,
89,0.0,742.924,-143.505,,,,,9.6121,60.0,,,,,monisource-isource_newbattery675_1_shape,7.1410597804,,
90,0.0,259.481,-146.158,,,,,9.6121,60.0,,,,,monisource-isource_newbattery675_1_shape,2.4941573201000002,,
91,0.0,148.881,-152.828,,,,,9.6121,60.0,,,,,monisource-isource_newbattery675_1_shape,1.4310590601,,
92,0.0,149.029,-152.548,,,,,9.6121,60.0,,,,,monisource-isource_newbattery675_1_shape,1.4324816509,,
93,0.0,165.745,-156.41,,,,,9.6121,60.0,,,,,monisource-isource_newbattery675_1_shape,1.5931575144999999,,
94,0.0,169.672,-157.643,,,,,9.6121,60.0,,,,,monisource-isource_newbattery675_1_shape,1.6309042312,,
95,0.0,182.36599999999999,-160.671,,,,,9.6121,60.0,,,,,monisource-isource_newbattery675_1_shape,1.7529202285999999,,
96,0.0,182.014,-160.983,,,,,9.6121,60.0,,,,,monisource-isource_newbattery675_1_shape,1.7495367694000001,,
97,0.0,183.34599999999998,-161.30200000000002,,,,,9.6121,60.0,,,,,monisource-isource_newbattery675_1_shape,1.7623400865999996,,
98,0.0,183.69099999999997,-161.463,,,,,9.6121,60.0,,,,,monisource-isource_newbattery675_1_shape,1.7656562610999997,,
99,0.0,183.843,-161.534,,,,,9.6121,60.0,,,,,monisource-isource_newbattery675_1_shape,1.7671173002999998,,
100,0.0,185.00099999999998,-161.779,,,,,9.6121,60.0,,,,,monisource-isource_newbattery675_1_shape,1.7782481120999998,,
101,0.0,171.05900000000003,-158.941,,,,,9.6121,60.0,,,,,monisource-isource_newbattery675_1_shape,1.6442362139000002,,
102,0.0,169.084,-157.825,,,,,9.6121,60.0,,,,,monisource-isource_newbattery675_1_shape,1.6252523164,,
103,0.0,138.955,-150.191,,,,,9.6121,60.0,,,,,monisource-isource_newbattery675_1_shape,1.3356493555000002,,
104,0.0,125.29,-146.912,,,,,9.6121,60.0,,,,,monisource-isource_newbattery675_1_shape,1.204300009,,
105,0.0,621.336,-145.218,,,,,9.6121,60.0,,,,,monisource-isource_newbattery675_1_shape,5.9723437656,,
106,0.0,1109.55,-142.368,,,,,9.6121,60.0,,,,,monisource-isource_newbattery675_1_shape,10.665105555,,
107,0.0,1725.75,-145.654,,,,,9.6121,60.0,,,,,monisource-isource_newbattery675_1_shape,16.588081575,,
108,0.0,2014.49,-145.759,,,,,9.6121,60.0,,,,,monisource-isource_newbattery675_1_shape,19.363479329,,
109,0.0,2211.52,-146.99,,,,,9.6121,60.0,,,,,monisource-isource_newbattery675_1_shape,21.257351392,,
110,0.0,2074.49,-146.136,,,,,9.6121,60.0,,,,,monisource-isource_newbattery675_1_shape,19.940205328999998,,
111,0.0,1828.63,-146.119,,,,,9.6121,60.0,,,,,monisource-isource_newbattery675_1_shape,17.576974423,,
112,0.0,1234.17,-142.435,,,,,9.6121,60.0,,,,,monisource-isource_newbattery675_1_shape,11.862965457,,
113,0.0,770.7669999999999,-144.23,,,,,9.6121,60.0,,,,,monisource-isource_newbattery675_1_shape,7.408689480699999,,
114,0.0,268.889,-147.608,,,,,9.6121,60.0,,,,,monisource-isource_newbattery675_1_shape,2.5845879569,,
115,0.0,157.042,-154.799,,,,,9.6121,60.0,,,,,monisource-isource_newbattery675_1_shape,1.5095034082,,
116,0.0,157.665,-154.678,,,,,9.6121,60.0,,,,,monisource-isource_newbattery675_1_shape,1.5154917465,,
117,0.0,175.45,-158.77,,,,,9.6121,60.0,,,,,monisource-isource_newbattery675_1_shape,1.6864429449999998,,
118,0.0,179.627,-160.222,,,,,9.6121,60.0,,,,,monisource-isource_newbattery675_1_shape,1.7265926867,,
119,0.0,193.872,-163.624,,,,,9.6121,60.0,,,,,monisource-isource_newbattery675_1_shape,1.8635170512,,
120,0.0,193.395,-164.10299999999998,,,,,9.6121,60.0,,,,,monisource-isource_newbattery675_1_shape,1.8589320795000002,,
121,0.0,194.628,-164.449,,,,,9.6121,60.0,,,,,monisource-isource_newbattery675_1_shape,1.8707837987999998,,
122,0.0,194.641,-164.57,,,,,9.6121,60.0,,,,,monisource-isource_newbattery675_1_shape,1.8709087561,,
123,0.0,194.61900000000003,-164.59799999999998,,,,,9.6121,60.0,,,,,monisource-isource_newbattery675_1_shape,1.8706972899000003,,
124,0.0,194.235,-164.53099999999998,,,,,9.6121,60.0,,,,,monisource-isource_newbattery675_1_shape,1.8670062435,,
125,0.0,177.21599999999998,-160.995,,,,,9.6121,60.0,,,,,monisource-isource_newbattery675_1_shape,1.7034179135999998,,
126,0.0,176.421,-159.811,,,,,9.6121,60.0,,,,,monisource-isource_newbattery675_1_shape,1.6957762940999999,,
127,0.0,144.838,-151.69799999999998,,,,,9.6121,60.0,,,,,monisource-isource_newbattery675_1_shape,1.3921973398,,
128,0.0,130.431,-148.166,,,,,9.6121,60.0,,,,,monisource-isource_newbattery675_1_shape,1.2537158151,,
129,0.0,535.4630000000001,-146.249,,,,,9.6121,60.0,,,,,monisource-isource_newbattery675_1_shape,5.146923902300001,,
130,0.0,998.914,-143.673,,,,,9.6121,60.0,,,,,monisource-isource_newbattery675_1_shape,9.6016612594,,
131,0.0,1691.88,-146.877,,,,,9.6121,60.0,,,,,monisource-isource_newbattery675_1_shape,16.262519748,,
132,0.0,1526.35,-146.828,,,,,9.6121,60.0,,,,,monisource-isource_newbattery675_1_shape,14.671428834999999,,
133,0.0,1770.46,-147.862,,,,,9.6121,60.0,,,,,monisource-isource_newbattery675_1_shape,17.017838566,,
134,0.0,1755.64,-146.776,,,,,9.6121,60.0,,,,,monisource-isource_newbattery675_1_shape,16.875387244000002,,
135,0.0,1760.47,-146.744,,,,,9.6121,60.0,,,,,monisource-isource_newbattery675_1_shape,16.921813687,,
136,0.0,1189.94,-143.07299999999998,,,,,9.6121,60.0,,,,,monisource-isource_newbattery675_1_shape,11.437822274,,
137,0.0,735.238,-144.54399999999998,,,,,9.6121,60.0,,,,,monisource-isource_newbattery675_1_shape,7.0671811798,,
138,0.0,258.982,-147.83700000000002,,,,,9.6121,60.0,,,,,monisource-isource_newbattery675_1_shape,2.4893608822,,
139,0.0,157.94,-155.19799999999998,,,,,9.6121,60.0,,,,,monisource-isource_newbattery675_1_shape,1.5181350740000001,,
140,0.0,157.281,-154.596,,,,,9.6121,60.0,,,,,monisource-isource_newbattery675_1_shape,1.5118007001,,
141,0.0,175.051,-158.672,,,,,9.6121,60.0,,,,,monisource-isource_newbattery675_1_shape,1.6826077171,,
142,0.0,179.274,-160.128,,,,,9.6121,60.0,,,,,monisource-isource_newbattery675_1_shape,1.7231996154,,
143,0.0,193.271,-163.476,,,,,9.6121,60.0,,,,,monisource-isource_newbattery675_1_shape,1.8577401790999997,,
144,0.0,192.707,-163.922,,,,,9.6121,60.0,,,,,monisource-isource_newbattery675_1_shape,1.8523189546999999,,
145,0.0,193.645,-164.2,,,,,9.6121,60.0,,,,,monisource-isource_newbattery675_1_shape,1.8613351045000002,,
146,0.0,192.735,-164.118,,,,,9.6121,60.0,,,,,monisource-isource_newbattery675_1_shape,1.8525880935,,
147,0.0,192.356,-164.00400000000002,,,,,9.6121,60.0,,,,,monisource-isource_newbattery675_1_shape,1.8489451076,,
148,0.0,192.47400000000002,-163.989,,,,,9.6121,60.0,,,,,monisource-isource_newbattery675_1_shape,1.8500793354000002,,
149,0.0,188.74099999999999,-163.259,,,,,9.6121,60.0,,,,,monisource-isource_newbattery675_1_shape,1.8141973660999997,,
150,0.0,188.916,-163.037,,,,,9.6121,60.0,,,,,monisource-isource_newbattery675_1_shape,1.8158794836,,
151,0.0,177.585,-160.247,,,,,9.6121,60.0,,,,,monisource-isource_newbattery675_1_shape,1.7069647785,,
152,0.0,166.993,-157.671,,,,,9.6121,60.0,,,,,monisource-isource_newbattery675_1_shape,1.6051534153,,
153,0.0,741.278,-156.576,,,,,9.6121,60.0,,,,,monisource-isource_newbattery675_1_shape,7.1252382638,,
154,0.0,666.296,-153.29,,,,,9.6121,60.0,,,,,monisource-isource_newbattery675_1_shape,6.404503781600001,,
155,0.0,2115.39,-155.389,,,,,9.6121,60.0,,,,,monisource-isource_newbattery675_1_shape,20.333340218999997,,
156,0.0,2399.11,-155.418,,,,,9.6121,60.0,,,,,monisource-isource_newbattery675_1_shape,23.060485231,,
157,0.0,2289.11,-157.893,,,,,9.6121,60.0,,,,,monisource-isource_newbattery675_1_shape,22.003154231,,
158,0.0,2207.31,-158.11,,,,,9.6121,60.0,,,,,monisource-isource_newbattery675_1_shape,21.216884451,,
159,0.0,1885.18,-158.18200000000002,,,,,9.6121,60.0,,,,,monisource-isource_newbattery675_1_shape,18.120538678,,
160,0.0,996.2439999999999,-156.304,,,,,9.6121,60.0,,,,,monisource-isource_newbattery675_1_shape,9.575996952399999,,
161,0.0,643.97,-159.17,,,,,9.6121,60.0,,,,,monisource-isource_newbattery675_1_shape,6.189904037,,
162,0.0,221.935,-159.536,,,,,9.6121,60.0,,,,,monisource-isource_newbattery675_1_shape,2.1332614135,,
163,0.0,173.21900000000002,-159.411,,,,,9.6121,60.0,,,,,monisource-isource_newbattery675_1_shape,1.6649983499000003,,
164,0.0,173.41400000000002,-158.769,,,,,9.6121,60.0,,,,,monisource-isource_newbattery675_1_shape,1.6668727094,,
165,0.0,189.12599999999998,-161.747,,,,,9.6121,60.0,,,,,monisource-isource_newbattery675_1_shape,1.8178980245999996,,
166,0.0,189.673,-163.03799999999998,,,,,9.6121,60.0,,,,,monisource-isource_newbattery675_1_shape,1.8231558433,,
167,0.0,193.28,-163.839,,,,,9.6121,60.0,,,,,monisource-isource_newbattery675_1_shape,1.8578266879999998,,
168,0.0,193.238,-164.115,,,,,9.6121,60.0,,,,,monisource-isource_newbattery675_1_shape,1.8574229798,,
169,0.0,196.92,-164.878,,,,,9.6121,60.0,,,,,monisource-isource_newbattery675_1_shape,1.8928147319999997,,
170,0.0,197.02,-165.18900000000002,,,,,9.6121,60.0,,,,,monisource-isource_newbattery675_1_shape,1.893775942,,
171,0.0,197.058,-165.283,,,,,9.6121,60.0,,,,,monisource-isource_newbattery675_1_shape,1.8941412018,,
172,0.0,196.975,-165.294,,,,,9.6121,60.0,,,,,monisource-isource_newbattery675_1_shape,1.8933433974999998,,
173,0.0,192.551,-164.44099999999997,,,,,9.6121,60.0,,,,,monisource-isource_newbattery675_1_shape,1.8508194670999998,,
174,0.0,192.283,-164.067,,,,,9.6121,60.0,,,,,monisource-isource_newbattery675_1_shape,1.8482434242999999,,
175,0.0,180.239,-161.039,,,,,9.6121,60.0,,,,,monisource-isource_newbattery675_1_shape,1.7324752919,,
176,0.0,189.394,-162.435,,,,,9.6121,60.0,,,,,monisource-isource_newbattery675_1_shape,1.8204740674,,
177,0.0,809.61,-160.127,,,,,9.6121,60.0,,,,,monisource-isource_newbattery675_1_shape,7.782052281,,
178,0.0,1777.19,-163.984,,,,,9.6121,60.0,,,,,monisource-isource_newbattery675_1_shape,17.082527999000003,,
179,0.0,564.529,-162.559,,,,,9.6121,60.0,,,,,monisource-isource_newbattery675_1_shape,5.4263092009000005,,
180,0.0,2420.02,-3.99914,,,,,9.6121,60.0,,,,,monisource-isource_newbattery675_1_shape,23.261474242,,
181,0.0,2423.34,-4.568280000000001,,,,,0.0,0.0,,,,,monisource-isource_newbattery675_1_shape,0.0,,
182,0.0,2426.46,-4.7602,,,,,0.0,0.0,,,,,monisource-isource_newbattery675_1_shape,0.0,,
183,0.0,2423.4,-4.487769999999999,,,,,0.0,0.0,,,,,monisource-isource_newbattery675_1_shape,0.0,,
184,0.0,2417.51,-4.06367,,,,,0.0,0.0,,,,,monisource-isource_newbattery675_1_shape,0.0,,
185,0.0,2413.49,-3.6553400000000003,,,,,0.0,0.0,,,,,monisource-isource_newbattery675_1_shape,0.0,,
186,0.0,2412.98,-3.18172,,,,,0.0,0.0,,,,,monisource-isource_newbattery675_1_shape,0.0,,
187,0.0,2412.01,-3.14617,,,,,0.0,0.0,,,,,monisource-isource_newbattery675_1_shape,0.0,,
188,0.0,2414.58,-3.0883,,,,,0.0,0.0,,,,,monisource-isource_newbattery675_1_shape,0.0,,
189,0.0,2418.26,-2.9933,,,,,0.0,0.0,,,,,monisource-isource_newbattery675_1_shape,0.0,,
190,0.0,2421.52,-2.92178,,,,,0.0,0.0,,,,,monisource-isource_newbattery675_1_shape,0.0,,
191,0.0,2429.83,-2.69481,,,,,0.0,0.0,,,,,monisource-isource_newbattery675_1_shape,0.0,,
192,0.0,2425.03,-2.75783,,,,,0.0,0.0,,,,,monisource-isource_newbattery675_1_shape,0.0,,
193,0.0,2427.58,-2.69302,,,,,0.0,0.0,,,,,monisource-isource_newbattery675_1_shape,0.0,,
194,0.0,2428.9,-2.66083,,,,,0.0,0.0,,,,,monisource-isource_newbattery675_1_shape,0.0,,
195,0.0,2429.08,-2.65441,,,,,0.0,0.0,,,,,monisource-isource_newbattery675_1_shape,0.0,,
196,0.0,2429.13,-2.65585,,,,,0.0,0.0,,,,,monisource-isource_newbattery675_1_shape,0.0,,
197,0.0,2423.07,-2.8898900000000003,,,,,0.0,0.0,,,,,monisource-isource_newbattery675_1_shape,0.0,,
198,0.0,2423.37,-2.8940799999999998,,,,,0.0,0.0,,,,,monisource-isource_newbattery675_1_shape,0.0,,
199,0.0,2404.83,-3.5362400000000003,,,,,0.0,0.0,,,,,monisource-isource_newbattery675_1_shape,0.0,,
