hour,t(sec),V1,VAngle1,V2,VAngle2,I1,IAngle1,I2,IAngle2,V3,Name,VAngle3,I3,IAngle3,V4,VAngle4,I4,IAngle4,kv,V1(PU),V2(PU),V3(PU)
1,0.0,,114.095,,0.0,20.2518,114.1,20.2518,-65.9001,2370.37,monload-611_runway,,,,,,,,2.4,,,0.9876541666666666
2,0.0,,114.042,,0.0,21.49,114.046,21.49,-65.9545,2368.27,monload-611_runway,,,,,,,,2.4,,,0.9867791666666667
3,0.0,,114.059,,0.0,18.735,114.05799999999999,18.735,-65.9421,2368.95,monload-611_runway,,,,,,,,2.4,,,0.9870625
4,0.0,,114.061,,0.0,18.1696,114.061,18.1696,-65.9388,2369.04,monload-611_runway,,,,,,,,2.4,,,0.9871
5,0.0,,113.87700000000001,,0.0,18.3433,113.87799999999999,18.3433,-66.1219,2361.43,monload-611_runway,,,,,,,,2.4,,,0.9839291666666666
6,0.0,,113.84100000000001,,0.0,19.8621,113.84299999999999,19.8621,-66.1566,2359.82,monload-611_runway,,,,,,,,2.4,,,0.9832583333333335
7,0.0,,113.084,,0.0,29.8483,113.084,29.8483,-66.9158,2328.56,monload-611_runway,,,,,,,,2.4,,,0.9702333333333333
8,0.0,,113.15,,0.0,31.8618,113.149,31.8618,-66.8506,2331.3,monload-611_runway,,,,,,,,2.4,,,0.9713750000000001
9,0.0,,112.514,,0.0,44.0268,112.515,44.0268,-67.485,2306.23,monload-611_runway,,,,,,,,2.4,,,0.9609291666666667
10,0.0,,112.667,,0.0,37.8158,112.666,37.8158,-67.3342,2315.13,monload-611_runway,,,,,,,,2.4,,,0.9646375
11,0.0,,112.85700000000001,,0.0,26.7204,112.855,26.7204,-67.1447,2324.53,monload-611_runway,,,,,,,,2.4,,,0.9685541666666667
12,0.0,,112.69,,0.0,25.0426,112.689,25.0426,-67.3107,2328.45,monload-611_runway,,,,,,,,2.4,,,0.9701874999999999
13,0.0,,112.931,,0.0,24.9564,112.931,24.9564,-67.0693,2326.04,monload-611_runway,,,,,,,,2.4,,,0.9691833333333333
14,0.0,,112.89399999999999,,0.0,24.9959,112.89399999999999,24.9959,-67.1063,2329.49,monload-611_runway,,,,,,,,2.4,,,0.9706208333333333
15,0.0,,112.81,,0.0,24.9268,112.807,24.9268,-67.1932,2330.3,monload-611_runway,,,,,,,,2.4,,,0.9709583333333334
16,0.0,,112.786,,0.0,24.7866,112.786,24.7866,-67.2142,2330.25,monload-611_runway,,,,,,,,2.4,,,0.9709375
17,0.0,,112.975,,0.0,25.989,112.977,25.989,-67.0228,2330.93,monload-611_runway,,,,,,,,2.4,,,0.9712208333333333
18,0.0,,113.087,,0.0,31.4301,113.088,31.4301,-66.9125,2328.92,monload-611_runway,,,,,,,,2.4,,,0.9703833333333334
19,0.0,,112.95700000000001,,0.0,43.1551,112.958,43.1551,-67.0422,2323.09,monload-611_runway,,,,,,,,2.4,,,0.9679541666666668
20,0.0,,112.947,,0.0,45.3034,112.947,45.3034,-67.0531,2322.72,monload-611_runway,,,,,,,,2.4,,,0.9677999999999999
21,0.0,,113.11,,0.0,47.8087,113.109,47.8087,-66.8909,2329.56,monload-611_runway,,,,,,,,2.4,,,0.97065
22,0.0,,113.189,,0.0,46.4444,113.18799999999999,46.4444,-66.812,2332.94,monload-611_runway,,,,,,,,2.4,,,0.9720583333333334
23,0.0,,113.62200000000001,,0.0,35.6973,113.619,35.6973,-66.3808,2350.9,monload-611_runway,,,,,,,,2.4,,,0.9795416666666668
24,0.0,,113.915,,0.0,22.9122,113.913,22.9122,-66.0874,2362.89,monload-611_runway,,,,,,,,2.4,,,0.9845375
25,0.0,,113.99,,0.0,18.6667,113.985,18.6667,-66.0154,2366.04,monload-611_runway,,,,,,,,2.4,,,0.98585
26,0.0,,113.999,,0.0,17.8494,113.99799999999999,17.8494,-66.0017,2366.39,monload-611_runway,,,,,,,,2.4,,,0.9859958333333333
27,0.0,,114.024,,0.0,16.9263,114.022,16.9263,-65.9782,2367.38,monload-611_runway,,,,,,,,2.4,,,0.9864083333333333
28,0.0,,114.03200000000001,,0.0,17.0116,114.031,17.0116,-65.9691,2367.7,monload-611_runway,,,,,,,,2.4,,,0.9865416666666665
29,0.0,,113.25,,0.0,17.6802,113.251,17.6802,-66.7492,2335.49,monload-611_runway,,,,,,,,2.4,,,0.9731208333333332
30,0.0,,113.051,,0.0,21.26,113.052,21.26,-66.9477,2327.14,monload-611_runway,,,,,,,,2.4,,,0.9696416666666666
31,0.0,,111.277,,0.0,32.7595,111.279,32.7595,-68.7214,2252.57,monload-611_runway,,,,,,,,2.4,,,0.9385708333333334
32,0.0,,110.524,,0.0,33.8892,110.524,33.8892,-69.4756,2220.24,monload-611_runway,,,,,,,,2.4,,,0.9250999999999999
33,0.0,,110.306,,0.0,29.8385,110.307,29.8385,-69.6926,2214.33,monload-611_runway,,,,,,,,2.4,,,0.9226375
34,0.0,,109.95299999999999,,0.0,30.0053,109.956,30.0053,-70.0437,2204.29,monload-611_runway,,,,,,,,2.4,,,0.9184541666666667
35,0.0,,109.899,,0.0,24.2641,109.899,24.2641,-70.101,2205.19,monload-611_runway,,,,,,,,2.4,,,0.9188291666666667
36,0.0,,109.935,,0.0,24.9878,109.939,24.9878,-70.0606,2195.52,monload-611_runway,,,,,,,,2.4,,,0.9148
37,0.0,,109.64,,0.0,25.5196,109.635,25.5196,-70.3653,2207.19,monload-611_runway,,,,,,,,2.4,,,0.9196625
38,0.0,,109.749,,0.0,24.388,109.75399999999999,24.388,-70.2463,2195.92,monload-611_runway,,,,,,,,2.4,,,0.9149666666666667
39,0.0,,109.355,,0.0,23.6247,109.351,23.6247,-70.6486,2202.34,monload-611_runway,,,,,,,,2.4,,,0.9176416666666667
40,0.0,,109.515,,0.0,23.8225,109.51700000000001,23.8225,-70.483,2199.14,monload-611_runway,,,,,,,,2.4,,,0.9163083333333333
41,0.0,,109.665,,0.0,24.851,109.667,24.851,-70.3327,2194.96,monload-611_runway,,,,,,,,2.4,,,0.9145666666666666
42,0.0,,109.947,,0.0,30.4302,109.947,30.4302,-70.0525,2195.73,monload-611_runway,,,,,,,,2.4,,,0.9148875
43,0.0,,111.262,,0.0,38.2888,111.262,38.2888,-68.7378,2251.65,monload-611_runway,,,,,,,,2.4,,,0.9381875000000001
44,0.0,,111.24600000000001,,0.0,40.6258,111.24600000000001,40.6258,-68.7538,2251.03,monload-611_runway,,,,,,,,2.4,,,0.9379291666666667
45,0.0,,112.0,,0.0,45.1231,111.99799999999999,45.1231,-68.0022,2283.21,monload-611_runway,,,,,,,,2.4,,,0.9513375000000001
46,0.0,,112.336,,0.0,42.3023,112.333,42.3023,-67.667,2297.45,monload-611_runway,,,,,,,,2.4,,,0.9572708333333333
47,0.0,,113.281,,0.0,30.8497,113.28,30.8497,-66.7201,2336.74,monload-611_runway,,,,,,,,2.4,,,0.9736416666666666
48,0.0,,113.531,,0.0,21.1497,113.529,21.1497,-66.4709,2347.08,monload-611_runway,,,,,,,,2.4,,,0.97795
49,0.0,,113.619,,0.0,18.8942,113.619,18.8942,-66.3812,2350.8,monload-611_runway,,,,,,,,2.4,,,0.9795
50,0.0,,113.669,,0.0,18.3946,113.665,18.3946,-66.3348,2352.82,monload-611_runway,,,,,,,,2.4,,,0.9803416666666668
51,0.0,,113.735,,0.0,17.8874,113.73,17.8874,-66.2705,2355.5,monload-611_runway,,,,,,,,2.4,,,0.9814583333333333
52,0.0,,113.738,,0.0,18.4384,113.738,18.4384,-66.2622,2355.66,monload-611_runway,,,,,,,,2.4,,,0.981525
53,0.0,,112.936,,0.0,19.6598,112.93700000000001,19.6598,-67.063,2322.45,monload-611_runway,,,,,,,,2.4,,,0.9676874999999999
54,0.0,,112.71600000000001,,0.0,23.9779,112.71799999999999,23.9779,-67.2817,2313.2,monload-611_runway,,,,,,,,2.4,,,0.9638333333333332
55,0.0,,111.02799999999999,,0.0,35.0872,111.029,35.0872,-68.9711,2241.83,monload-611_runway,,,,,,,,2.4,,,0.9340958333333333
56,0.0,,110.286,,0.0,34.8102,110.286,34.8102,-69.7142,2209.82,monload-611_runway,,,,,,,,2.4,,,0.9207583333333335
57,0.0,,109.985,,0.0,30.4845,109.986,30.4845,-70.0143,2206.7,monload-611_runway,,,,,,,,2.4,,,0.9194583333333333
58,0.0,,109.551,,0.0,30.1048,109.552,30.1048,-70.44800000000001,2200.86,monload-611_runway,,,,,,,,2.4,,,0.9170250000000001
59,0.0,,109.539,,0.0,23.9518,109.537,23.9518,-70.4631,2207.68,monload-611_runway,,,,,,,,2.4,,,0.9198666666666666
60,0.0,,0.0,,0.0,0.0,0.0,0.0,0.0,0.0,monload-611_runway,,,,,,,,2.4,,,0.0
61,0.0,,0.0,,0.0,0.0,0.0,0.0,0.0,0.0,monload-611_runway,,,,,,,,2.4,,,0.0
62,0.0,,0.0,,0.0,0.0,0.0,0.0,0.0,0.0,monload-611_runway,,,,,,,,2.4,,,0.0
63,0.0,,0.0,,0.0,0.0,0.0,0.0,0.0,0.0,monload-611_runway,,,,,,,,2.4,,,0.0
64,0.0,,0.0,,0.0,0.0,0.0,0.0,0.0,0.0,monload-611_runway,,,,,,,,2.4,,,0.0
65,0.0,,0.0,,0.0,0.0,0.0,0.0,0.0,0.0,monload-611_runway,,,,,,,,2.4,,,0.0
66,0.0,,0.0,,0.0,0.0,0.0,0.0,0.0,0.0,monload-611_runway,,,,,,,,2.4,,,0.0
67,0.0,,0.0,,0.0,0.0,0.0,0.0,0.0,0.0,monload-611_runway,,,,,,,,2.4,,,0.0
68,0.0,,0.0,,0.0,0.0,0.0,0.0,0.0,0.0,monload-611_runway,,,,,,,,2.4,,,0.0
69,0.0,,0.0,,0.0,0.0,0.0,0.0,0.0,0.0,monload-611_runway,,,,,,,,2.4,,,0.0
70,0.0,,0.0,,0.0,0.0,0.0,0.0,0.0,0.0,monload-611_runway,,,,,,,,2.4,,,0.0
71,0.0,,0.0,,0.0,0.0,0.0,0.0,0.0,0.0,monload-611_runway,,,,,,,,2.4,,,0.0
72,0.0,,0.0,,0.0,0.0,0.0,0.0,0.0,0.0,monload-611_runway,,,,,,,,2.4,,,0.0
73,0.0,,0.0,,0.0,0.0,0.0,0.0,0.0,0.0,monload-611_runway,,,,,,,,2.4,,,0.0
74,0.0,,0.0,,0.0,0.0,0.0,0.0,0.0,0.0,monload-611_runway,,,,,,,,2.4,,,0.0
75,0.0,,0.0,,0.0,0.0,0.0,0.0,0.0,0.0,monload-611_runway,,,,,,,,2.4,,,0.0
76,0.0,,0.0,,0.0,0.0,0.0,0.0,0.0,0.0,monload-611_runway,,,,,,,,2.4,,,0.0
77,0.0,,0.0,,0.0,0.0,0.0,0.0,0.0,0.0,monload-611_runway,,,,,,,,2.4,,,0.0
78,0.0,,0.0,,0.0,0.0,0.0,0.0,0.0,0.0,monload-611_runway,,,,,,,,2.4,,,0.0
79,0.0,,0.0,,0.0,0.0,0.0,0.0,0.0,0.0,monload-611_runway,,,,,,,,2.4,,,0.0
80,0.0,,0.0,,0.0,0.0,0.0,0.0,0.0,0.0,monload-611_runway,,,,,,,,2.4,,,0.0
81,0.0,,0.0,,0.0,0.0,0.0,0.0,0.0,0.0,monload-611_runway,,,,,,,,2.4,,,0.0
82,0.0,,0.0,,0.0,0.0,0.0,0.0,0.0,0.0,monload-611_runway,,,,,,,,2.4,,,0.0
83,0.0,,0.0,,0.0,0.0,0.0,0.0,0.0,0.0,monload-611_runway,,,,,,,,2.4,,,0.0
84,0.0,,0.0,,0.0,0.0,0.0,0.0,0.0,0.0,monload-611_runway,,,,,,,,2.4,,,0.0
85,0.0,,0.0,,0.0,0.0,0.0,0.0,0.0,0.0,monload-611_runway,,,,,,,,2.4,,,0.0
86,0.0,,0.0,,0.0,0.0,0.0,0.0,0.0,0.0,monload-611_runway,,,,,,,,2.4,,,0.0
87,0.0,,0.0,,0.0,0.0,0.0,0.0,0.0,0.0,monload-611_runway,,,,,,,,2.4,,,0.0
88,0.0,,0.0,,0.0,0.0,0.0,0.0,0.0,0.0,monload-611_runway,,,,,,,,2.4,,,0.0
89,0.0,,0.0,,0.0,0.0,0.0,0.0,0.0,0.0,monload-611_runway,,,,,,,,2.4,,,0.0
90,0.0,,0.0,,0.0,0.0,0.0,0.0,0.0,0.0,monload-611_runway,,,,,,,,2.4,,,0.0
91,0.0,,0.0,,0.0,0.0,0.0,0.0,0.0,0.0,monload-611_runway,,,,,,,,2.4,,,0.0
92,0.0,,0.0,,0.0,0.0,0.0,0.0,0.0,0.0,monload-611_runway,,,,,,,,2.4,,,0.0
93,0.0,,0.0,,0.0,0.0,0.0,0.0,0.0,0.0,monload-611_runway,,,,,,,,2.4,,,0.0
94,0.0,,0.0,,0.0,0.0,0.0,0.0,0.0,0.0,monload-611_runway,,,,,,,,2.4,,,0.0
95,0.0,,0.0,,0.0,0.0,0.0,0.0,0.0,0.0,monload-611_runway,,,,,,,,2.4,,,0.0
96,0.0,,0.0,,0.0,0.0,0.0,0.0,0.0,0.0,monload-611_runway,,,,,,,,2.4,,,0.0
97,0.0,,0.0,,0.0,0.0,0.0,0.0,0.0,0.0,monload-611_runway,,,,,,,,2.4,,,0.0
98,0.0,,0.0,,0.0,0.0,0.0,0.0,0.0,0.0,monload-611_runway,,,,,,,,2.4,,,0.0
99,0.0,,0.0,,0.0,0.0,0.0,0.0,0.0,0.0,monload-611_runway,,,,,,,,2.4,,,0.0
100,0.0,,0.0,,0.0,0.0,0.0,0.0,0.0,0.0,monload-611_runway,,,,,,,,2.4,,,0.0
101,0.0,,0.0,,0.0,0.0,0.0,0.0,0.0,0.0,monload-611_runway,,,,,,,,2.4,,,0.0
102,0.0,,0.0,,0.0,0.0,0.0,0.0,0.0,0.0,monload-611_runway,,,,,,,,2.4,,,0.0
103,0.0,,0.0,,0.0,0.0,0.0,0.0,0.0,0.0,monload-611_runway,,,,,,,,2.4,,,0.0
104,0.0,,0.0,,0.0,0.0,0.0,0.0,0.0,0.0,monload-611_runway,,,,,,,,2.4,,,0.0
105,0.0,,0.0,,0.0,0.0,0.0,0.0,0.0,0.0,monload-611_runway,,,,,,,,2.4,,,0.0
106,0.0,,0.0,,0.0,0.0,0.0,0.0,0.0,0.0,monload-611_runway,,,,,,,,2.4,,,0.0
107,0.0,,0.0,,0.0,0.0,0.0,0.0,0.0,0.0,monload-611_runway,,,,,,,,2.4,,,0.0
108,0.0,,0.0,,0.0,0.0,0.0,0.0,0.0,0.0,monload-611_runway,,,,,,,,2.4,,,0.0
109,0.0,,0.0,,0.0,0.0,0.0,0.0,0.0,0.0,monload-611_runway,,,,,,,,2.4,,,0.0
110,0.0,,0.0,,0.0,0.0,0.0,0.0,0.0,0.0,monload-611_runway,,,,,,,,2.4,,,0.0
111,0.0,,0.0,,0.0,0.0,0.0,0.0,0.0,0.0,monload-611_runway,,,,,,,,2.4,,,0.0
112,0.0,,0.0,,0.0,0.0,0.0,0.0,0.0,0.0,monload-611_runway,,,,,,,,2.4,,,0.0
113,0.0,,0.0,,0.0,0.0,0.0,0.0,0.0,0.0,monload-611_runway,,,,,,,,2.4,,,0.0
114,0.0,,0.0,,0.0,0.0,0.0,0.0,0.0,0.0,monload-611_runway,,,,,,,,2.4,,,0.0
115,0.0,,0.0,,0.0,0.0,0.0,0.0,0.0,0.0,monload-611_runway,,,,,,,,2.4,,,0.0
116,0.0,,0.0,,0.0,0.0,0.0,0.0,0.0,0.0,monload-611_runway,,,,,,,,2.4,,,0.0
117,0.0,,0.0,,0.0,0.0,0.0,0.0,0.0,0.0,monload-611_runway,,,,,,,,2.4,,,0.0
118,0.0,,0.0,,0.0,0.0,0.0,0.0,0.0,0.0,monload-611_runway,,,,,,,,2.4,,,0.0
119,0.0,,0.0,,0.0,0.0,0.0,0.0,0.0,0.0,monload-611_runway,,,,,,,,2.4,,,0.0
120,0.0,,0.0,,0.0,0.0,0.0,0.0,0.0,0.0,monload-611_runway,,,,,,,,2.4,,,0.0
121,0.0,,0.0,,0.0,0.0,0.0,0.0,0.0,0.0,monload-611_runway,,,,,,,,2.4,,,0.0
122,0.0,,0.0,,0.0,0.0,0.0,0.0,0.0,0.0,monload-611_runway,,,,,,,,2.4,,,0.0
123,0.0,,0.0,,0.0,0.0,0.0,0.0,0.0,0.0,monload-611_runway,,,,,,,,2.4,,,0.0
124,0.0,,0.0,,0.0,0.0,0.0,0.0,0.0,0.0,monload-611_runway,,,,,,,,2.4,,,0.0
125,0.0,,0.0,,0.0,0.0,0.0,0.0,0.0,0.0,monload-611_runway,,,,,,,,2.4,,,0.0
126,0.0,,0.0,,0.0,0.0,0.0,0.0,0.0,0.0,monload-611_runway,,,,,,,,2.4,,,0.0
127,0.0,,0.0,,0.0,0.0,0.0,0.0,0.0,0.0,monload-611_runway,,,,,,,,2.4,,,0.0
128,0.0,,0.0,,0.0,0.0,0.0,0.0,0.0,0.0,monload-611_runway,,,,,,,,2.4,,,0.0
129,0.0,,0.0,,0.0,0.0,0.0,0.0,0.0,0.0,monload-611_runway,,,,,,,,2.4,,,0.0
130,0.0,,0.0,,0.0,0.0,0.0,0.0,0.0,0.0,monload-611_runway,,,,,,,,2.4,,,0.0
131,0.0,,0.0,,0.0,0.0,0.0,0.0,0.0,0.0,monload-611_runway,,,,,,,,2.4,,,0.0
132,0.0,,0.0,,0.0,0.0,0.0,0.0,0.0,0.0,monload-611_runway,,,,,,,,2.4,,,0.0
133,0.0,,0.0,,0.0,0.0,0.0,0.0,0.0,0.0,monload-611_runway,,,,,,,,2.4,,,0.0
134,0.0,,0.0,,0.0,0.0,0.0,0.0,0.0,0.0,monload-611_runway,,,,,,,,2.4,,,0.0
135,0.0,,0.0,,0.0,0.0,0.0,0.0,0.0,0.0,monload-611_runway,,,,,,,,2.4,,,0.0
136,0.0,,0.0,,0.0,0.0,0.0,0.0,0.0,0.0,monload-611_runway,,,,,,,,2.4,,,0.0
137,0.0,,0.0,,0.0,0.0,0.0,0.0,0.0,0.0,monload-611_runway,,,,,,,,2.4,,,0.0
138,0.0,,0.0,,0.0,0.0,0.0,0.0,0.0,0.0,monload-611_runway,,,,,,,,2.4,,,0.0
139,0.0,,0.0,,0.0,0.0,0.0,0.0,0.0,0.0,monload-611_runway,,,,,,,,2.4,,,0.0
140,0.0,,0.0,,0.0,0.0,0.0,0.0,0.0,0.0,monload-611_runway,,,,,,,,2.4,,,0.0
141,0.0,,0.0,,0.0,0.0,0.0,0.0,0.0,0.0,monload-611_runway,,,,,,,,2.4,,,0.0
142,0.0,,0.0,,0.0,0.0,0.0,0.0,0.0,0.0,monload-611_runway,,,,,,,,2.4,,,0.0
143,0.0,,0.0,,0.0,0.0,0.0,0.0,0.0,0.0,monload-611_runway,,,,,,,,2.4,,,0.0
144,0.0,,0.0,,0.0,0.0,0.0,0.0,0.0,0.0,monload-611_runway,,,,,,,,2.4,,,0.0
145,0.0,,0.0,,0.0,0.0,0.0,0.0,0.0,0.0,monload-611_runway,,,,,,,,2.4,,,0.0
146,0.0,,0.0,,0.0,0.0,0.0,0.0,0.0,0.0,monload-611_runway,,,,,,,,2.4,,,0.0
147,0.0,,0.0,,0.0,0.0,0.0,0.0,0.0,0.0,monload-611_runway,,,,,,,,2.4,,,0.0
148,0.0,,0.0,,0.0,0.0,0.0,0.0,0.0,0.0,monload-611_runway,,,,,,,,2.4,,,0.0
149,0.0,,0.0,,0.0,0.0,0.0,0.0,0.0,0.0,monload-611_runway,,,,,,,,2.4,,,0.0
150,0.0,,0.0,,0.0,0.0,0.0,0.0,0.0,0.0,monload-611_runway,,,,,,,,2.4,,,0.0
151,0.0,,0.0,,0.0,0.0,0.0,0.0,0.0,0.0,monload-611_runway,,,,,,,,2.4,,,0.0
152,0.0,,0.0,,0.0,0.0,0.0,0.0,0.0,0.0,monload-611_runway,,,,,,,,2.4,,,0.0
153,0.0,,0.0,,0.0,0.0,0.0,0.0,0.0,0.0,monload-611_runway,,,,,,,,2.4,,,0.0
154,0.0,,0.0,,0.0,0.0,0.0,0.0,0.0,0.0,monload-611_runway,,,,,,,,2.4,,,0.0
155,0.0,,0.0,,0.0,0.0,0.0,0.0,0.0,0.0,monload-611_runway,,,,,,,,2.4,,,0.0
156,0.0,,0.0,,0.0,0.0,0.0,0.0,0.0,0.0,monload-611_runway,,,,,,,,2.4,,,0.0
157,0.0,,0.0,,0.0,0.0,0.0,0.0,0.0,0.0,monload-611_runway,,,,,,,,2.4,,,0.0
158,0.0,,0.0,,0.0,0.0,0.0,0.0,0.0,0.0,monload-611_runway,,,,,,,,2.4,,,0.0
159,0.0,,0.0,,0.0,0.0,0.0,0.0,0.0,0.0,monload-611_runway,,,,,,,,2.4,,,0.0
160,0.0,,0.0,,0.0,0.0,0.0,0.0,0.0,0.0,monload-611_runway,,,,,,,,2.4,,,0.0
161,0.0,,0.0,,0.0,0.0,0.0,0.0,0.0,0.0,monload-611_runway,,,,,,,,2.4,,,0.0
162,0.0,,0.0,,0.0,0.0,0.0,0.0,0.0,0.0,monload-611_runway,,,,,,,,2.4,,,0.0
163,0.0,,0.0,,0.0,0.0,0.0,0.0,0.0,0.0,monload-611_runway,,,,,,,,2.4,,,0.0
164,0.0,,0.0,,0.0,0.0,0.0,0.0,0.0,0.0,monload-611_runway,,,,,,,,2.4,,,0.0
165,0.0,,0.0,,0.0,0.0,0.0,0.0,0.0,0.0,monload-611_runway,,,,,,,,2.4,,,0.0
166,0.0,,0.0,,0.0,0.0,0.0,0.0,0.0,0.0,monload-611_runway,,,,,,,,2.4,,,0.0
167,0.0,,0.0,,0.0,0.0,0.0,0.0,0.0,0.0,monload-611_runway,,,,,,,,2.4,,,0.0
168,0.0,,0.0,,0.0,0.0,0.0,0.0,0.0,0.0,monload-611_runway,,,,,,,,2.4,,,0.0
169,0.0,,0.0,,0.0,0.0,0.0,0.0,0.0,0.0,monload-611_runway,,,,,,,,2.4,,,0.0
170,0.0,,0.0,,0.0,0.0,0.0,0.0,0.0,0.0,monload-611_runway,,,,,,,,2.4,,,0.0
171,0.0,,0.0,,0.0,0.0,0.0,0.0,0.0,0.0,monload-611_runway,,,,,,,,2.4,,,0.0
172,0.0,,0.0,,0.0,0.0,0.0,0.0,0.0,0.0,monload-611_runway,,,,,,,,2.4,,,0.0
173,0.0,,0.0,,0.0,0.0,0.0,0.0,0.0,0.0,monload-611_runway,,,,,,,,2.4,,,0.0
174,0.0,,0.0,,0.0,0.0,0.0,0.0,0.0,0.0,monload-611_runway,,,,,,,,2.4,,,0.0
175,0.0,,0.0,,0.0,0.0,0.0,0.0,0.0,0.0,monload-611_runway,,,,,,,,2.4,,,0.0
176,0.0,,0.0,,0.0,0.0,0.0,0.0,0.0,0.0,monload-611_runway,,,,,,,,2.4,,,0.0
177,0.0,,0.0,,0.0,0.0,0.0,0.0,0.0,0.0,monload-611_runway,,,,,,,,2.4,,,0.0
178,0.0,,0.0,,0.0,0.0,0.0,0.0,0.0,0.0,monload-611_runway,,,,,,,,2.4,,,0.0
179,0.0,,0.0,,0.0,0.0,0.0,0.0,0.0,0.0,monload-611_runway,,,,,,,,2.4,,,0.0
180,0.0,,111.478,,0.0,38.1499,111.48200000000001,38.1499,-68.5176,2320.34,monload-611_runway,,,,,,,,2.4,,,0.9668083333333334
181,0.0,,112.079,,0.0,38.4204,112.08200000000001,38.4204,-67.9178,2309.39,monload-611_runway,,,,,,,,2.4,,,0.9622458333333332
182,0.0,,112.01100000000001,,0.0,39.8211,112.008,39.8211,-67.9919,2310.14,monload-611_runway,,,,,,,,2.4,,,0.9625583333333333
183,0.0,,112.041,,0.0,41.1387,112.042,41.1387,-67.9582,2306.41,monload-611_runway,,,,,,,,2.4,,,0.9610041666666667
184,0.0,,112.18700000000001,,0.0,40.2542,112.19200000000001,40.2542,-67.808,2304.7,monload-611_runway,,,,,,,,2.4,,,0.9602916666666665
185,0.0,,112.447,,0.0,39.4232,112.446,39.4232,-67.5543,2308.79,monload-611_runway,,,,,,,,2.4,,,0.9619958333333333
186,0.0,,112.70200000000001,,0.0,41.61,112.7,41.61,-67.2995,2312.79,monload-611_runway,,,,,,,,2.4,,,0.9636625
187,0.0,,112.68,,0.0,50.661,112.682,50.661,-67.3177,2311.29,monload-611_runway,,,,,,,,2.4,,,0.9630375
188,0.0,,112.751,,0.0,50.93600000000001,112.75,50.93600000000001,-67.2496,2314.46,monload-611_runway,,,,,,,,2.4,,,0.9643583333333333
189,0.0,,112.90899999999999,,0.0,52.3523,112.90700000000001,52.3523,-67.0931,2321.15,monload-611_runway,,,,,,,,2.4,,,0.9671458333333334
190,0.0,,112.98100000000001,,0.0,50.5692,112.98,50.5692,-67.0196,2324.35,monload-611_runway,,,,,,,,2.4,,,0.9684791666666667
191,0.0,,113.428,,0.0,39.6945,113.42299999999999,39.6945,-66.5773,2342.97,monload-611_runway,,,,,,,,2.4,,,0.9762374999999999
192,0.0,,113.74,,0.0,26.4536,113.736,26.4536,-66.2638,2355.82,monload-611_runway,,,,,,,,2.4,,,0.9815916666666668
193,0.0,,113.84899999999999,,0.0,21.0984,113.848,21.0984,-66.152,2360.38,monload-611_runway,,,,,,,,2.4,,,0.9834916666666668
194,0.0,,113.88600000000001,,0.0,19.0118,113.882,19.0118,-66.1179,2361.88,monload-611_runway,,,,,,,,2.4,,,0.9841166666666668
195,0.0,,113.90700000000001,,0.0,17.1605,113.905,17.1605,-66.0955,2362.7,monload-611_runway,,,,,,,,2.4,,,0.9844583333333332
196,0.0,,113.88799999999999,,0.0,16.8089,113.89,16.8089,-66.1099,2361.91,monload-611_runway,,,,,,,,2.4,,,0.9841291666666666
197,0.0,,113.119,,0.0,17.2796,113.12,17.2796,-66.8796,2330.15,monload-611_runway,,,,,,,,2.4,,,0.9708958333333334
198,0.0,,113.021,,0.0,20.6862,113.022,20.6862,-66.97800000000001,2325.96,monload-611_runway,,,,,,,,2.4,,,0.9691500000000001
199,0.0,,111.204,,0.0,32.7835,111.196,32.7835,-68.8042,2249.39,monload-611_runway,,,,,,,,2.4,,,0.9372458333333333
200,0.0,,110.398,,0.0,35.2569,110.402,35.2569,-69.5981,2214.81,monload-611_runway,,,,,,,,2.4,,,0.9228375
201,0.0,,109.985,,0.0,32.1086,109.986,32.1086,-70.0144,2210.55,monload-611_runway,,,,,,,,2.4,,,0.9210625000000001
202,0.0,,109.425,,0.0,33.9449,109.426,33.9449,-70.5741,2203.73,monload-611_runway,,,,,,,,2.4,,,0.9182208333333334
203,0.0,,109.708,,0.0,29.8409,109.709,29.8409,-70.291,2201.63,monload-611_runway,,,,,,,,2.4,,,0.9173458333333334
204,0.0,,109.29899999999999,,0.0,32.7923,109.29799999999999,32.7923,-70.7015,2202.29,monload-611_runway,,,,,,,,2.4,,,0.9176208333333333
205,0.0,,109.59200000000001,,0.0,35.2952,109.59200000000001,35.2952,-70.4084,2207.32,monload-611_runway,,,,,,,,2.4,,,0.9197166666666667
206,0.0,,109.594,,0.0,36.4343,109.596,36.4343,-70.4036,2192.74,monload-611_runway,,,,,,,,2.4,,,0.9136416666666666
207,0.0,,109.469,,0.0,37.3736,109.459,37.3736,-70.5413,2190.79,monload-611_runway,,,,,,,,2.4,,,0.9128291666666667
208,0.0,,109.51,,0.0,35.0526,109.51,35.0526,-70.4898,2189.95,monload-611_runway,,,,,,,,2.4,,,0.9124791666666666
209,0.0,,109.62100000000001,,0.0,34.6815,109.62100000000001,34.6815,-70.37899999999999,2188.07,monload-611_runway,,,,,,,,2.4,,,0.9116958333333334
210,0.0,,109.874,,0.0,39.1893,109.87200000000001,39.1893,-70.1275,2194.75,monload-611_runway,,,,,,,,2.4,,,0.9144791666666666
211,0.0,,111.24,,0.0,45.9042,111.238,45.9042,-68.7625,2250.62,monload-611_runway,,,,,,,,2.4,,,0.9377583333333332
212,0.0,,111.177,,0.0,47.6819,111.177,47.6819,-68.8231,2248.06,monload-611_runway,,,,,,,,2.4,,,0.9366916666666666
213,0.0,,111.84299999999999,,0.0,52.2533,111.84299999999999,52.2533,-68.1571,2276.58,monload-611_runway,,,,,,,,2.4,,,0.948575
214,0.0,,112.071,,0.0,49.8536,112.069,49.8536,-67.9311,2286.35,monload-611_runway,,,,,,,,2.4,,,0.9526458333333333
