hour,t(sec),V1,VAngle1,V2,VAngle2,I1,IAngle1,I2,IAngle2,V3,Name,VAngle3,I3,IAngle3,V4,VAngle4,I4,IAngle4,kv,V1(PU),V2(PU),V3(PU)
1,0.0,,111.165,,0.0,20.2518,111.16799999999999,20.2518,-68.8322,2404.75,monload-611_runway,,,,,,,,2.4,,,1.0019791666666666
2,0.0,,111.154,,0.0,21.49,111.155,21.49,-68.8454,2404.39,monload-611_runway,,,,,,,,2.4,,,1.0018291666666665
3,0.0,,111.18,,0.0,18.735,111.178,18.735,-68.8216,2405.55,monload-611_runway,,,,,,,,2.4,,,1.0023125000000002
4,0.0,,111.186,,0.0,18.1696,111.185,18.1696,-68.8146,2405.8,monload-611_runway,,,,,,,,2.4,,,1.0024166666666667
5,0.0,,110.956,,0.0,18.3433,110.958,18.3433,-69.0419,2395.04,monload-611_runway,,,,,,,,2.4,,,0.9979333333333333
6,0.0,,110.811,,0.0,19.8621,110.81299999999999,19.8621,-69.1873,2388.05,monload-611_runway,,,,,,,,2.4,,,0.9950208333333334
7,0.0,,109.955,,0.0,29.8483,109.956,29.8483,-70.0443,2347.92,monload-611_runway,,,,,,,,2.4,,,0.9783000000000001
8,0.0,,110.086,,0.0,31.8618,110.085,31.8618,-69.9153,2354.02,monload-611_runway,,,,,,,,2.4,,,0.9808416666666666
9,0.0,,109.648,,0.0,44.0268,109.648,44.0268,-70.3515,2334.03,monload-611_runway,,,,,,,,2.4,,,0.9725125000000001
10,0.0,,110.06700000000001,,0.0,37.8158,110.06700000000001,37.8158,-69.9325,2354.52,monload-611_runway,,,,,,,,2.4,,,0.98105
11,0.0,,110.458,,0.0,26.7204,110.463,26.7204,-69.5374,2373.06,monload-611_runway,,,,,,,,2.4,,,0.988775
12,0.0,,111.235,,0.0,25.0426,111.235,25.0426,-68.7647,2411.63,monload-611_runway,,,,,,,,2.4,,,1.0048458333333334
13,0.0,,110.402,,0.0,24.9564,110.404,24.9564,-69.5962,2370.16,monload-611_runway,,,,,,,,2.4,,,0.9875666666666666
14,0.0,,110.801,,0.0,24.9959,110.807,24.9959,-69.1935,2389.86,monload-611_runway,,,,,,,,2.4,,,0.9957750000000001
15,0.0,,111.095,,0.0,24.9268,111.09100000000001,24.9268,-68.9088,2404.27,monload-611_runway,,,,,,,,2.4,,,1.0017791666666667
16,0.0,,111.125,,0.0,24.7866,111.12100000000001,24.7866,-68.8789,2405.74,monload-611_runway,,,,,,,,2.4,,,1.0023916666666666
17,0.0,,110.525,,0.0,25.989,110.525,25.989,-69.4746,2376.0,monload-611_runway,,,,,,,,2.4,,,0.99
18,0.0,,109.83,,0.0,31.4301,109.83,31.4301,-70.1696,2341.76,monload-611_runway,,,,,,,,2.4,,,0.9757333333333335
19,0.0,,109.53,,0.0,43.1551,109.53200000000001,43.1551,-70.4678,2327.63,monload-611_runway,,,,,,,,2.4,,,0.9698458333333334
20,0.0,,109.542,,0.0,45.3034,109.541,45.3034,-70.4592,2328.33,monload-611_runway,,,,,,,,2.4,,,0.9701375
21,0.0,,109.709,,0.0,47.8087,109.708,47.8087,-70.2923,2336.31,monload-611_runway,,,,,,,,2.4,,,0.9734625
22,0.0,,109.906,,0.0,46.4444,109.904,46.4444,-70.0957,2345.91,monload-611_runway,,,,,,,,2.4,,,0.9774624999999999
23,0.0,,110.47,,0.0,35.6973,110.46600000000001,35.6973,-69.5344,2372.51,monload-611_runway,,,,,,,,2.4,,,0.9885458333333335
24,0.0,,110.876,,0.0,22.9122,110.87299999999999,22.9122,-69.1267,2391.41,monload-611_runway,,,,,,,,2.4,,,0.9964208333333333
25,0.0,,111.022,,0.0,18.6667,111.021,18.6667,-68.9791,2398.3,monload-611_runway,,,,,,,,2.4,,,0.9992916666666667
26,0.0,,111.03,,0.0,17.8494,111.03,17.8494,-68.9705,2398.67,monload-611_runway,,,,,,,,2.4,,,0.9994458333333334
27,0.0,,111.04799999999999,,0.0,16.9263,111.046,16.9263,-68.9538,2399.44,monload-611_runway,,,,,,,,2.4,,,0.9997666666666667
28,0.0,,111.04899999999999,,0.0,17.0116,111.04899999999999,17.0116,-68.9508,2399.52,monload-611_runway,,,,,,,,2.4,,,0.9998
29,0.0,,110.235,,0.0,17.6802,110.236,17.6802,-69.7638,2361.49,monload-611_runway,,,,,,,,2.4,,,0.9839541666666666
30,0.0,,109.92399999999999,,0.0,21.26,109.927,21.26,-70.0733,2346.7,monload-611_runway,,,,,,,,2.4,,,0.9777916666666666
31,0.0,,108.27,,0.0,33.1809,108.26799999999999,33.1809,-71.732,2283.76,monload-611_runway,,,,,,,,2.4,,,0.9515666666666668
32,0.0,,107.73899999999999,,0.0,34.5128,107.74,34.5128,-72.2599,2258.97,monload-611_runway,,,,,,,,2.4,,,0.9412375
33,0.0,,107.72,,0.0,30.4725,107.72,30.4725,-72.2802,2258.73,monload-611_runway,,,,,,,,2.4,,,0.9411375
34,0.0,,107.59899999999999,,0.0,30.7165,107.589,30.7165,-72.4106,2253.6,monload-611_runway,,,,,,,,2.4,,,0.939
35,0.0,,107.656,,0.0,24.8605,107.655,24.8605,-72.3449,2256.41,monload-611_runway,,,,,,,,2.4,,,0.9401708333333333
36,0.0,,107.527,,0.0,25.6443,107.523,25.6443,-72.4771,2250.15,monload-611_runway,,,,,,,,2.4,,,0.9375625000000001
37,0.0,,107.616,,0.0,26.0994,107.616,26.0994,-72.3838,2254.47,monload-611_runway,,,,,,,,2.4,,,0.9393624999999999
38,0.0,,107.515,,0.0,25.0185,107.514,25.0185,-72.4861,2249.7,monload-611_runway,,,,,,,,2.4,,,0.937375
39,0.0,,107.882,,0.0,24.3885,107.882,24.3885,-72.118,2269.45,monload-611_runway,,,,,,,,2.4,,,0.9456041666666666
40,0.0,,108.037,,0.0,24.7214,108.037,24.7214,-71.9628,2277.68,monload-611_runway,,,,,,,,2.4,,,0.9490333333333333
41,0.0,,107.416,,0.0,25.4463,107.41799999999999,25.4463,-72.5815,2244.76,monload-611_runway,,,,,,,,2.4,,,0.9353166666666668
42,0.0,,107.26100000000001,,0.0,31.0098,107.26,31.0098,-72.7398,2235.43,monload-611_runway,,,,,,,,2.4,,,0.9314291666666666
43,0.0,,108.13,,0.0,38.7354,108.12899999999999,38.7354,-71.8707,2276.49,monload-611_runway,,,,,,,,2.4,,,0.9485374999999999
44,0.0,,108.115,,0.0,41.0993,108.115,41.0993,-71.8853,2275.87,monload-611_runway,,,,,,,,2.4,,,0.9482791666666667
45,0.0,,108.728,,0.0,45.1231,108.729,45.1231,-71.271,2304.85,monload-611_runway,,,,,,,,2.4,,,0.9603541666666666
46,0.0,,109.039,,0.0,42.3023,109.036,42.3023,-70.9638,2319.67,monload-611_runway,,,,,,,,2.4,,,0.9665291666666667
47,0.0,,109.852,,0.0,30.8497,109.85,30.8497,-70.1502,2357.43,monload-611_runway,,,,,,,,2.4,,,0.9822624999999999
48,0.0,,110.13799999999999,,0.0,21.1497,110.133,21.1497,-69.8675,2370.81,monload-611_runway,,,,,,,,2.4,,,0.9878374999999999
49,0.0,,110.24700000000001,,0.0,18.8942,110.245,18.8942,-69.7549,2375.96,monload-611_runway,,,,,,,,2.4,,,0.9899833333333333
50,0.0,,110.39200000000001,,0.0,18.3946,110.389,18.3946,-69.6113,2383.09,monload-611_runway,,,,,,,,2.4,,,0.9929541666666667
51,0.0,,110.756,,0.0,17.8874,110.75299999999999,17.8874,-69.2475,2401.12,monload-611_runway,,,,,,,,2.4,,,1.0004666666666666
52,0.0,,110.751,,0.0,18.4384,110.75200000000001,18.4384,-69.2485,2400.9,monload-611_runway,,,,,,,,2.4,,,1.000375
53,0.0,,109.92399999999999,,0.0,19.6598,109.925,19.6598,-70.0755,2361.83,monload-611_runway,,,,,,,,2.4,,,0.9840958333333333
54,0.0,,109.59299999999999,,0.0,23.9779,109.596,23.9779,-70.4035,2345.94,monload-611_runway,,,,,,,,2.4,,,0.977475
55,0.0,,108.039,,0.0,35.5982,108.037,35.5982,-71.9634,2272.71,monload-611_runway,,,,,,,,2.4,,,0.9469625
56,0.0,,107.539,,0.0,35.4676,107.541,35.4676,-72.459,2249.37,monload-611_runway,,,,,,,,2.4,,,0.9372375
57,0.0,,107.551,,0.0,31.1309,107.552,31.1309,-72.4477,2250.76,monload-611_runway,,,,,,,,2.4,,,0.9378166666666667
58,0.0,,107.65899999999999,,0.0,30.9288,107.65899999999999,30.9288,-72.3414,2257.58,monload-611_runway,,,,,,,,2.4,,,0.9406583333333333
59,0.0,,108.79299999999999,,0.0,24.7817,108.796,24.7817,-71.2044,2316.25,monload-611_runway,,,,,,,,2.4,,,0.9651041666666667
60,0.0,,0.0,,0.0,0.0,0.0,0.0,0.0,0.0,monload-611_runway,,,,,,,,2.4,,,0.0
61,0.0,,0.0,,0.0,0.0,0.0,0.0,0.0,0.0,monload-611_runway,,,,,,,,2.4,,,0.0
62,0.0,,0.0,,0.0,0.0,0.0,0.0,0.0,0.0,monload-611_runway,,,,,,,,2.4,,,0.0
63,0.0,,0.0,,0.0,0.0,0.0,0.0,0.0,0.0,monload-611_runway,,,,,,,,2.4,,,0.0
64,0.0,,0.0,,0.0,0.0,0.0,0.0,0.0,0.0,monload-611_runway,,,,,,,,2.4,,,0.0
65,0.0,,0.0,,0.0,0.0,0.0,0.0,0.0,0.0,monload-611_runway,,,,,,,,2.4,,,0.0
66,0.0,,0.0,,0.0,0.0,0.0,0.0,0.0,0.0,monload-611_runway,,,,,,,,2.4,,,0.0
67,0.0,,0.0,,0.0,0.0,0.0,0.0,0.0,0.0,monload-611_runway,,,,,,,,2.4,,,0.0
68,0.0,,0.0,,0.0,0.0,0.0,0.0,0.0,0.0,monload-611_runway,,,,,,,,2.4,,,0.0
69,0.0,,0.0,,0.0,0.0,0.0,0.0,0.0,0.0,monload-611_runway,,,,,,,,2.4,,,0.0
70,0.0,,0.0,,0.0,0.0,0.0,0.0,0.0,0.0,monload-611_runway,,,,,,,,2.4,,,0.0
71,0.0,,0.0,,0.0,0.0,0.0,0.0,0.0,0.0,monload-611_runway,,,,,,,,2.4,,,0.0
72,0.0,,0.0,,0.0,0.0,0.0,0.0,0.0,0.0,monload-611_runway,,,,,,,,2.4,,,0.0
73,0.0,,0.0,,0.0,0.0,0.0,0.0,0.0,0.0,monload-611_runway,,,,,,,,2.4,,,0.0
74,0.0,,0.0,,0.0,0.0,0.0,0.0,0.0,0.0,monload-611_runway,,,,,,,,2.4,,,0.0
75,0.0,,0.0,,0.0,0.0,0.0,0.0,0.0,0.0,monload-611_runway,,,,,,,,2.4,,,0.0
76,0.0,,0.0,,0.0,0.0,0.0,0.0,0.0,0.0,monload-611_runway,,,,,,,,2.4,,,0.0
77,0.0,,0.0,,0.0,0.0,0.0,0.0,0.0,0.0,monload-611_runway,,,,,,,,2.4,,,0.0
78,0.0,,0.0,,0.0,0.0,0.0,0.0,0.0,0.0,monload-611_runway,,,,,,,,2.4,,,0.0
79,0.0,,0.0,,0.0,0.0,0.0,0.0,0.0,0.0,monload-611_runway,,,,,,,,2.4,,,0.0
80,0.0,,0.0,,0.0,0.0,0.0,0.0,0.0,0.0,monload-611_runway,,,,,,,,2.4,,,0.0
81,0.0,,0.0,,0.0,0.0,0.0,0.0,0.0,0.0,monload-611_runway,,,,,,,,2.4,,,0.0
82,0.0,,0.0,,0.0,0.0,0.0,0.0,0.0,0.0,monload-611_runway,,,,,,,,2.4,,,0.0
83,0.0,,0.0,,0.0,0.0,0.0,0.0,0.0,0.0,monload-611_runway,,,,,,,,2.4,,,0.0
84,0.0,,0.0,,0.0,0.0,0.0,0.0,0.0,0.0,monload-611_runway,,,,,,,,2.4,,,0.0
85,0.0,,0.0,,0.0,0.0,0.0,0.0,0.0,0.0,monload-611_runway,,,,,,,,2.4,,,0.0
86,0.0,,0.0,,0.0,0.0,0.0,0.0,0.0,0.0,monload-611_runway,,,,,,,,2.4,,,0.0
87,0.0,,0.0,,0.0,0.0,0.0,0.0,0.0,0.0,monload-611_runway,,,,,,,,2.4,,,0.0
88,0.0,,0.0,,0.0,0.0,0.0,0.0,0.0,0.0,monload-611_runway,,,,,,,,2.4,,,0.0
89,0.0,,0.0,,0.0,0.0,0.0,0.0,0.0,0.0,monload-611_runway,,,,,,,,2.4,,,0.0
90,0.0,,0.0,,0.0,0.0,0.0,0.0,0.0,0.0,monload-611_runway,,,,,,,,2.4,,,0.0
91,0.0,,0.0,,0.0,0.0,0.0,0.0,0.0,0.0,monload-611_runway,,,,,,,,2.4,,,0.0
92,0.0,,0.0,,0.0,0.0,0.0,0.0,0.0,0.0,monload-611_runway,,,,,,,,2.4,,,0.0
93,0.0,,0.0,,0.0,0.0,0.0,0.0,0.0,0.0,monload-611_runway,,,,,,,,2.4,,,0.0
94,0.0,,0.0,,0.0,0.0,0.0,0.0,0.0,0.0,monload-611_runway,,,,,,,,2.4,,,0.0
95,0.0,,0.0,,0.0,0.0,0.0,0.0,0.0,0.0,monload-611_runway,,,,,,,,2.4,,,0.0
96,0.0,,0.0,,0.0,0.0,0.0,0.0,0.0,0.0,monload-611_runway,,,,,,,,2.4,,,0.0
97,0.0,,0.0,,0.0,0.0,0.0,0.0,0.0,0.0,monload-611_runway,,,,,,,,2.4,,,0.0
98,0.0,,0.0,,0.0,0.0,0.0,0.0,0.0,0.0,monload-611_runway,,,,,,,,2.4,,,0.0
99,0.0,,0.0,,0.0,0.0,0.0,0.0,0.0,0.0,monload-611_runway,,,,,,,,2.4,,,0.0
100,0.0,,0.0,,0.0,0.0,0.0,0.0,0.0,0.0,monload-611_runway,,,,,,,,2.4,,,0.0
101,0.0,,0.0,,0.0,0.0,0.0,0.0,0.0,0.0,monload-611_runway,,,,,,,,2.4,,,0.0
102,0.0,,0.0,,0.0,0.0,0.0,0.0,0.0,0.0,monload-611_runway,,,,,,,,2.4,,,0.0
103,0.0,,0.0,,0.0,0.0,0.0,0.0,0.0,0.0,monload-611_runway,,,,,,,,2.4,,,0.0
104,0.0,,0.0,,0.0,0.0,0.0,0.0,0.0,0.0,monload-611_runway,,,,,,,,2.4,,,0.0
105,0.0,,0.0,,0.0,0.0,0.0,0.0,0.0,0.0,monload-611_runway,,,,,,,,2.4,,,0.0
106,0.0,,0.0,,0.0,0.0,0.0,0.0,0.0,0.0,monload-611_runway,,,,,,,,2.4,,,0.0
107,0.0,,0.0,,0.0,0.0,0.0,0.0,0.0,0.0,monload-611_runway,,,,,,,,2.4,,,0.0
108,0.0,,0.0,,0.0,0.0,0.0,0.0,0.0,0.0,monload-611_runway,,,,,,,,2.4,,,0.0
109,0.0,,0.0,,0.0,0.0,0.0,0.0,0.0,0.0,monload-611_runway,,,,,,,,2.4,,,0.0
110,0.0,,0.0,,0.0,0.0,0.0,0.0,0.0,0.0,monload-611_runway,,,,,,,,2.4,,,0.0
111,0.0,,0.0,,0.0,0.0,0.0,0.0,0.0,0.0,monload-611_runway,,,,,,,,2.4,,,0.0
112,0.0,,0.0,,0.0,0.0,0.0,0.0,0.0,0.0,monload-611_runway,,,,,,,,2.4,,,0.0
113,0.0,,0.0,,0.0,0.0,0.0,0.0,0.0,0.0,monload-611_runway,,,,,,,,2.4,,,0.0
114,0.0,,0.0,,0.0,0.0,0.0,0.0,0.0,0.0,monload-611_runway,,,,,,,,2.4,,,0.0
115,0.0,,0.0,,0.0,0.0,0.0,0.0,0.0,0.0,monload-611_runway,,,,,,,,2.4,,,0.0
116,0.0,,0.0,,0.0,0.0,0.0,0.0,0.0,0.0,monload-611_runway,,,,,,,,2.4,,,0.0
117,0.0,,0.0,,0.0,0.0,0.0,0.0,0.0,0.0,monload-611_runway,,,,,,,,2.4,,,0.0
118,0.0,,0.0,,0.0,0.0,0.0,0.0,0.0,0.0,monload-611_runway,,,,,,,,2.4,,,0.0
119,0.0,,0.0,,0.0,0.0,0.0,0.0,0.0,0.0,monload-611_runway,,,,,,,,2.4,,,0.0
120,0.0,,0.0,,0.0,0.0,0.0,0.0,0.0,0.0,monload-611_runway,,,,,,,,2.4,,,0.0
121,0.0,,0.0,,0.0,0.0,0.0,0.0,0.0,0.0,monload-611_runway,,,,,,,,2.4,,,0.0
122,0.0,,0.0,,0.0,0.0,0.0,0.0,0.0,0.0,monload-611_runway,,,,,,,,2.4,,,0.0
123,0.0,,0.0,,0.0,0.0,0.0,0.0,0.0,0.0,monload-611_runway,,,,,,,,2.4,,,0.0
124,0.0,,0.0,,0.0,0.0,0.0,0.0,0.0,0.0,monload-611_runway,,,,,,,,2.4,,,0.0
125,0.0,,0.0,,0.0,0.0,0.0,0.0,0.0,0.0,monload-611_runway,,,,,,,,2.4,,,0.0
126,0.0,,0.0,,0.0,0.0,0.0,0.0,0.0,0.0,monload-611_runway,,,,,,,,2.4,,,0.0
127,0.0,,0.0,,0.0,0.0,0.0,0.0,0.0,0.0,monload-611_runway,,,,,,,,2.4,,,0.0
128,0.0,,0.0,,0.0,0.0,0.0,0.0,0.0,0.0,monload-611_runway,,,,,,,,2.4,,,0.0
129,0.0,,0.0,,0.0,0.0,0.0,0.0,0.0,0.0,monload-611_runway,,,,,,,,2.4,,,0.0
130,0.0,,0.0,,0.0,0.0,0.0,0.0,0.0,0.0,monload-611_runway,,,,,,,,2.4,,,0.0
131,0.0,,0.0,,0.0,0.0,0.0,0.0,0.0,0.0,monload-611_runway,,,,,,,,2.4,,,0.0
132,0.0,,0.0,,0.0,0.0,0.0,0.0,0.0,0.0,monload-611_runway,,,,,,,,2.4,,,0.0
133,0.0,,0.0,,0.0,0.0,0.0,0.0,0.0,0.0,monload-611_runway,,,,,,,,2.4,,,0.0
134,0.0,,0.0,,0.0,0.0,0.0,0.0,0.0,0.0,monload-611_runway,,,,,,,,2.4,,,0.0
135,0.0,,0.0,,0.0,0.0,0.0,0.0,0.0,0.0,monload-611_runway,,,,,,,,2.4,,,0.0
136,0.0,,0.0,,0.0,0.0,0.0,0.0,0.0,0.0,monload-611_runway,,,,,,,,2.4,,,0.0
137,0.0,,0.0,,0.0,0.0,0.0,0.0,0.0,0.0,monload-611_runway,,,,,,,,2.4,,,0.0
138,0.0,,0.0,,0.0,0.0,0.0,0.0,0.0,0.0,monload-611_runway,,,,,,,,2.4,,,0.0
139,0.0,,0.0,,0.0,0.0,0.0,0.0,0.0,0.0,monload-611_runway,,,,,,,,2.4,,,0.0
140,0.0,,0.0,,0.0,0.0,0.0,0.0,0.0,0.0,monload-611_runway,,,,,,,,2.4,,,0.0
141,0.0,,0.0,,0.0,0.0,0.0,0.0,0.0,0.0,monload-611_runway,,,,,,,,2.4,,,0.0
142,0.0,,0.0,,0.0,0.0,0.0,0.0,0.0,0.0,monload-611_runway,,,,,,,,2.4,,,0.0
143,0.0,,0.0,,0.0,0.0,0.0,0.0,0.0,0.0,monload-611_runway,,,,,,,,2.4,,,0.0
144,0.0,,0.0,,0.0,0.0,0.0,0.0,0.0,0.0,monload-611_runway,,,,,,,,2.4,,,0.0
145,0.0,,0.0,,0.0,0.0,0.0,0.0,0.0,0.0,monload-611_runway,,,,,,,,2.4,,,0.0
146,0.0,,0.0,,0.0,0.0,0.0,0.0,0.0,0.0,monload-611_runway,,,,,,,,2.4,,,0.0
147,0.0,,0.0,,0.0,0.0,0.0,0.0,0.0,0.0,monload-611_runway,,,,,,,,2.4,,,0.0
148,0.0,,0.0,,0.0,0.0,0.0,0.0,0.0,0.0,monload-611_runway,,,,,,,,2.4,,,0.0
149,0.0,,0.0,,0.0,0.0,0.0,0.0,0.0,0.0,monload-611_runway,,,,,,,,2.4,,,0.0
150,0.0,,0.0,,0.0,0.0,0.0,0.0,0.0,0.0,monload-611_runway,,,,,,,,2.4,,,0.0
151,0.0,,0.0,,0.0,0.0,0.0,0.0,0.0,0.0,monload-611_runway,,,,,,,,2.4,,,0.0
152,0.0,,0.0,,0.0,0.0,0.0,0.0,0.0,0.0,monload-611_runway,,,,,,,,2.4,,,0.0
153,0.0,,0.0,,0.0,0.0,0.0,0.0,0.0,0.0,monload-611_runway,,,,,,,,2.4,,,0.0
154,0.0,,0.0,,0.0,0.0,0.0,0.0,0.0,0.0,monload-611_runway,,,,,,,,2.4,,,0.0
155,0.0,,0.0,,0.0,0.0,0.0,0.0,0.0,0.0,monload-611_runway,,,,,,,,2.4,,,0.0
156,0.0,,0.0,,0.0,0.0,0.0,0.0,0.0,0.0,monload-611_runway,,,,,,,,2.4,,,0.0
157,0.0,,0.0,,0.0,0.0,0.0,0.0,0.0,0.0,monload-611_runway,,,,,,,,2.4,,,0.0
158,0.0,,0.0,,0.0,0.0,0.0,0.0,0.0,0.0,monload-611_runway,,,,,,,,2.4,,,0.0
159,0.0,,0.0,,0.0,0.0,0.0,0.0,0.0,0.0,monload-611_runway,,,,,,,,2.4,,,0.0
160,0.0,,0.0,,0.0,0.0,0.0,0.0,0.0,0.0,monload-611_runway,,,,,,,,2.4,,,0.0
161,0.0,,0.0,,0.0,0.0,0.0,0.0,0.0,0.0,monload-611_runway,,,,,,,,2.4,,,0.0
162,0.0,,0.0,,0.0,0.0,0.0,0.0,0.0,0.0,monload-611_runway,,,,,,,,2.4,,,0.0
163,0.0,,0.0,,0.0,0.0,0.0,0.0,0.0,0.0,monload-611_runway,,,,,,,,2.4,,,0.0
164,0.0,,0.0,,0.0,0.0,0.0,0.0,0.0,0.0,monload-611_runway,,,,,,,,2.4,,,0.0
165,0.0,,0.0,,0.0,0.0,0.0,0.0,0.0,0.0,monload-611_runway,,,,,,,,2.4,,,0.0
166,0.0,,0.0,,0.0,0.0,0.0,0.0,0.0,0.0,monload-611_runway,,,,,,,,2.4,,,0.0
167,0.0,,0.0,,0.0,0.0,0.0,0.0,0.0,0.0,monload-611_runway,,,,,,,,2.4,,,0.0
168,0.0,,0.0,,0.0,0.0,0.0,0.0,0.0,0.0,monload-611_runway,,,,,,,,2.4,,,0.0
169,0.0,,0.0,,0.0,0.0,0.0,0.0,0.0,0.0,monload-611_runway,,,,,,,,2.4,,,0.0
170,0.0,,0.0,,0.0,0.0,0.0,0.0,0.0,0.0,monload-611_runway,,,,,,,,2.4,,,0.0
171,0.0,,0.0,,0.0,0.0,0.0,0.0,0.0,0.0,monload-611_runway,,,,,,,,2.4,,,0.0
172,0.0,,0.0,,0.0,0.0,0.0,0.0,0.0,0.0,monload-611_runway,,,,,,,,2.4,,,0.0
173,0.0,,0.0,,0.0,0.0,0.0,0.0,0.0,0.0,monload-611_runway,,,,,,,,2.4,,,0.0
174,0.0,,0.0,,0.0,0.0,0.0,0.0,0.0,0.0,monload-611_runway,,,,,,,,2.4,,,0.0
175,0.0,,0.0,,0.0,0.0,0.0,0.0,0.0,0.0,monload-611_runway,,,,,,,,2.4,,,0.0
176,0.0,,0.0,,0.0,0.0,0.0,0.0,0.0,0.0,monload-611_runway,,,,,,,,2.4,,,0.0
177,0.0,,0.0,,0.0,0.0,0.0,0.0,0.0,0.0,monload-611_runway,,,,,,,,2.4,,,0.0
178,0.0,,0.0,,0.0,0.0,0.0,0.0,0.0,0.0,monload-611_runway,,,,,,,,2.4,,,0.0
179,0.0,,0.0,,0.0,0.0,0.0,0.0,0.0,0.0,monload-611_runway,,,,,,,,2.4,,,0.0
180,0.0,,109.75299999999999,,0.0,38.1499,109.75299999999999,38.1499,-70.2473,2354.47,monload-611_runway,,,,,,,,2.4,,,0.9810291666666666
181,0.0,,110.557,,0.0,38.4204,110.55799999999999,38.4204,-69.442,2380.23,monload-611_runway,,,,,,,,2.4,,,0.9917625
182,0.0,,110.72399999999999,,0.0,39.8211,110.721,39.8211,-69.2789,2388.65,monload-611_runway,,,,,,,,2.4,,,0.9952708333333333
183,0.0,,110.22200000000001,,0.0,41.1387,110.21799999999999,41.1387,-69.7822,2363.82,monload-611_runway,,,,,,,,2.4,,,0.984925
184,0.0,,109.677,,0.0,40.2542,109.678,40.2542,-70.3225,2336.31,monload-611_runway,,,,,,,,2.4,,,0.9734625
185,0.0,,109.29700000000001,,0.0,39.4232,109.29799999999999,39.4232,-70.7024,2316.68,monload-611_runway,,,,,,,,2.4,,,0.9652833333333333
186,0.0,,108.992,,0.0,41.61,108.98899999999999,41.61,-71.01100000000001,2301.0,monload-611_runway,,,,,,,,2.4,,,0.95875
187,0.0,,109.00299999999999,,0.0,50.661,109.0,50.661,-71.0,2302.1,monload-611_runway,,,,,,,,2.4,,,0.9592083333333333
188,0.0,,109.125,,0.0,50.93600000000001,109.12299999999999,50.93600000000001,-70.8769,2308.03,monload-611_runway,,,,,,,,2.4,,,0.9616791666666668
189,0.0,,109.427,,0.0,52.3523,109.421,52.3523,-70.5792,2322.89,monload-611_runway,,,,,,,,2.4,,,0.9678708333333332
190,0.0,,109.66799999999999,,0.0,50.5692,109.66799999999999,50.5692,-70.3318,2334.69,monload-611_runway,,,,,,,,2.4,,,0.9727875
191,0.0,,110.296,,0.0,39.6945,110.295,39.6945,-69.7048,2364.53,monload-611_runway,,,,,,,,2.4,,,0.9852208333333334
192,0.0,,110.75399999999999,,0.0,26.4536,110.74799999999999,26.4536,-69.2516,2385.98,monload-611_runway,,,,,,,,2.4,,,0.9941583333333334
193,0.0,,110.95100000000001,,0.0,21.0984,110.949,21.0984,-69.0513,2395.27,monload-611_runway,,,,,,,,2.4,,,0.9980291666666666
194,0.0,,110.992,,0.0,19.0118,110.988,19.0118,-69.0125,2397.17,monload-611_runway,,,,,,,,2.4,,,0.9988208333333334
195,0.0,,111.01,,0.0,17.1605,111.008,17.1605,-68.9918,2397.93,monload-611_runway,,,,,,,,2.4,,,0.9991374999999999
196,0.0,,110.986,,0.0,16.8089,110.98899999999999,16.8089,-69.0111,2396.77,monload-611_runway,,,,,,,,2.4,,,0.9986541666666666
197,0.0,,110.186,,0.0,17.2796,110.18700000000001,17.2796,-69.8127,2359.38,monload-611_runway,,,,,,,,2.4,,,0.983075
198,0.0,,109.977,,0.0,20.6862,109.98,20.6862,-70.0202,2349.34,monload-611_runway,,,,,,,,2.4,,,0.9788916666666667
199,0.0,,108.241,,0.0,33.257,108.243,33.257,-71.757,2282.45,monload-611_runway,,,,,,,,2.4,,,0.9510208333333332
200,0.0,,107.667,,0.0,35.9444,107.66799999999999,35.9444,-72.3316,2255.6,monload-611_runway,,,,,,,,2.4,,,0.9398333333333333
201,0.0,,107.62,,0.0,32.7785,107.62,32.7785,-72.3803,2254.1,monload-611_runway,,,,,,,,2.4,,,0.9392083333333333
202,0.0,,108.13799999999999,,0.0,35.1894,108.13600000000001,35.1894,-71.8644,2283.2,monload-611_runway,,,,,,,,2.4,,,0.9513333333333333
203,0.0,,107.74,,0.0,30.7023,107.742,30.7023,-72.258,2261.74,monload-611_runway,,,,,,,,2.4,,,0.9423916666666666
204,0.0,,108.605,,0.0,34.0175,108.601,34.0175,-71.3991,2307.77,monload-611_runway,,,,,,,,2.4,,,0.9615708333333334
205,0.0,,108.141,,0.0,36.5232,108.14399999999999,36.5232,-71.85600000000001,2282.97,monload-611_runway,,,,,,,,2.4,,,0.9512375
206,0.0,,107.16799999999999,,0.0,37.1309,107.16799999999999,37.1309,-72.8319,2232.38,monload-611_runway,,,,,,,,2.4,,,0.9301583333333334
207,0.0,,107.08,,0.0,38.0442,107.08,38.0442,-72.9204,2228.11,monload-611_runway,,,,,,,,2.4,,,0.9283791666666668
208,0.0,,107.11399999999999,,0.0,35.7263,107.104,35.7263,-72.8959,2229.79,monload-611_runway,,,,,,,,2.4,,,0.9290791666666667
209,0.0,,107.09200000000001,,0.0,35.3611,107.09100000000001,35.3611,-72.9087,2228.62,monload-611_runway,,,,,,,,2.4,,,0.9285916666666666
210,0.0,,107.072,,0.0,39.7758,107.072,39.7758,-72.9279,2225.86,monload-611_runway,,,,,,,,2.4,,,0.9274416666666667
211,0.0,,108.007,,0.0,46.3297,108.007,46.3297,-71.9926,2270.43,monload-611_runway,,,,,,,,2.4,,,0.9460124999999999
212,0.0,,107.995,,0.0,48.1738,107.995,48.1738,-72.0051,2270.01,monload-611_runway,,,,,,,,2.4,,,0.9458375000000001
213,0.0,,108.542,,0.0,52.3358,108.54,52.3358,-71.4595,2295.93,monload-611_runway,,,,,,,,2.4,,,0.9566374999999999
214,0.0,,108.79299999999999,,0.0,49.8536,108.791,49.8536,-71.2093,2307.96,monload-611_runway,,,,,,,,2.4,,,0.96165
