hour,t(sec),V1,VAngle1,V2,VAngle2,I1,IAngle1,I2,IAngle2,V3,Name,VAngle3,I3,IAngle3,V4,VAngle4,I4,IAngle4,kv,V1(PU),V2(PU),V3(PU)
1,0.0,,114.095,,0.0,20.2518,114.1,20.2518,-65.9001,2370.37,monload-611_runway,,,,,,,,2.4,,,0.9876541666666666
2,0.0,,114.042,,0.0,21.49,114.046,21.49,-65.9545,2368.27,monload-611_runway,,,,,,,,2.4,,,0.9867791666666667
3,0.0,,114.059,,0.0,18.735,114.058,18.735,-65.9421,2368.95,monload-611_runway,,,,,,,,2.4,,,0.9870625
4,0.0,,114.061,,0.0,18.1696,114.061,18.1696,-65.9388,2369.04,monload-611_runway,,,,,,,,2.4,,,0.9871
5,0.0,,113.877,,0.0,18.3433,113.878,18.3433,-66.1219,2361.43,monload-611_runway,,,,,,,,2.4,,,0.9839291666666666
6,0.0,,113.841,,0.0,19.8621,113.843,19.8621,-66.1566,2359.82,monload-611_runway,,,,,,,,2.4,,,0.9832583333333335
7,0.0,,113.084,,0.0,29.8483,113.084,29.8483,-66.9158,2328.56,monload-611_runway,,,,,,,,2.4,,,0.9702333333333333
8,0.0,,113.15,,0.0,31.8618,113.149,31.8618,-66.8506,2331.3,monload-611_runway,,,,,,,,2.4,,,0.9713750000000001
9,0.0,,112.515,,0.0,44.0268,112.515,44.0268,-67.4848,2306.23,monload-611_runway,,,,,,,,2.4,,,0.9609291666666667
10,0.0,,112.668,,0.0,37.8158,112.666,37.8158,-67.3339,2315.14,monload-611_runway,,,,,,,,2.4,,,0.9646416666666666
11,0.0,,112.858,,0.0,26.7204,112.856,26.7204,-67.1441,2324.54,monload-611_runway,,,,,,,,2.4,,,0.9685583333333333
12,0.0,,112.691,,0.0,25.0426,112.691,25.0426,-67.309,2328.49,monload-611_runway,,,,,,,,2.4,,,0.9702041666666665
13,0.0,,112.931,,0.0,24.9564,112.931,24.9564,-67.0689,2326.05,monload-611_runway,,,,,,,,2.4,,,0.9691875000000001
14,0.0,,112.895,,0.0,24.9959,112.895,24.9959,-67.1054,2329.5,monload-611_runway,,,,,,,,2.4,,,0.970625
15,0.0,,112.812,,0.0,24.9268,112.808,24.9268,-67.192,2330.32,monload-611_runway,,,,,,,,2.4,,,0.9709666666666668
16,0.0,,112.788,,0.0,24.7866,112.787,24.7866,-67.2128,2330.28,monload-611_runway,,,,,,,,2.4,,,0.9709500000000001
17,0.0,,112.976,,0.0,25.989,112.978,25.989,-67.0221,2330.95,monload-611_runway,,,,,,,,2.4,,,0.9712291666666666
18,0.0,,113.088,,0.0,31.4301,113.088,31.4301,-66.9124,2328.92,monload-611_runway,,,,,,,,2.4,,,0.9703833333333334
19,0.0,,112.957,,0.0,43.1551,112.958,43.1551,-67.0422,2323.09,monload-611_runway,,,,,,,,2.4,,,0.9679541666666668
20,0.0,,112.947,,0.0,45.3034,112.947,45.3034,-67.0531,2322.72,monload-611_runway,,,,,,,,2.4,,,0.9677999999999999
21,0.0,,113.11,,0.0,47.8087,113.109,47.8087,-66.8909,2329.56,monload-611_runway,,,,,,,,2.4,,,0.97065
22,0.0,,113.189,,0.0,46.4444,113.188,46.4444,-66.812,2332.94,monload-611_runway,,,,,,,,2.4,,,0.9720583333333334
23,0.0,,113.622,,0.0,35.6973,113.619,35.6973,-66.3808,2350.9,monload-611_runway,,,,,,,,2.4,,,0.9795416666666668
24,0.0,,113.915,,0.0,22.9122,113.913,22.9122,-66.0874,2362.89,monload-611_runway,,,,,,,,2.4,,,0.9845375
25,0.0,,113.99,,0.0,18.6667,113.985,18.6667,-66.0154,2366.04,monload-611_runway,,,,,,,,2.4,,,0.98585
26,0.0,,113.999,,0.0,17.8494,113.998,17.8494,-66.0017,2366.39,monload-611_runway,,,,,,,,2.4,,,0.9859958333333333
27,0.0,,114.024,,0.0,16.9263,114.022,16.9263,-65.9782,2367.38,monload-611_runway,,,,,,,,2.4,,,0.9864083333333333
28,0.0,,114.032,,0.0,17.0116,114.031,17.0116,-65.9691,2367.7,monload-611_runway,,,,,,,,2.4,,,0.9865416666666665
29,0.0,,113.25,,0.0,17.6802,113.251,17.6802,-66.7492,2335.49,monload-611_runway,,,,,,,,2.4,,,0.9731208333333332
30,0.0,,113.051,,0.0,21.26,113.052,21.26,-66.9477,2327.14,monload-611_runway,,,,,,,,2.4,,,0.9696416666666666
31,0.0,,111.277,,0.0,32.7595,111.279,32.7595,-68.7214,2252.57,monload-611_runway,,,,,,,,2.4,,,0.9385708333333334
32,0.0,,110.524,,0.0,33.8892,110.524,33.8892,-69.4756,2220.24,monload-611_runway,,,,,,,,2.4,,,0.9250999999999999
33,0.0,,110.306,,0.0,29.8386,110.308,29.8386,-69.6922,2214.33,monload-611_runway,,,,,,,,2.4,,,0.9226375
34,0.0,,109.954,,0.0,30.0056,109.957,30.0056,-70.043,2204.31,monload-611_runway,,,,,,,,2.4,,,0.9184625
35,0.0,,109.9,,0.0,24.2643,109.9,24.2643,-70.0999,2205.21,monload-611_runway,,,,,,,,2.4,,,0.9188375
36,0.0,,109.936,,0.0,24.9878,109.939,24.9878,-70.0605,2195.52,monload-611_runway,,,,,,,,2.4,,,0.9148
37,0.0,,109.642,,0.0,25.5201,109.637,25.5201,-70.363,2207.23,monload-611_runway,,,,,,,,2.4,,,0.9196791666666667
38,0.0,,109.75,,0.0,24.3882,109.755,24.3882,-70.2455,2195.93,monload-611_runway,,,,,,,,2.4,,,0.9149708333333333
39,0.0,,109.358,,0.0,23.6253,109.354,23.6253,-70.6456,2202.39,monload-611_runway,,,,,,,,2.4,,,0.9176624999999999
40,0.0,,109.517,,0.0,23.823,109.519,23.823,-70.4809,2199.18,monload-611_runway,,,,,,,,2.4,,,0.916325
41,0.0,,109.666,,0.0,24.8512,109.668,24.8512,-70.3316,2194.98,monload-611_runway,,,,,,,,2.4,,,0.914575
42,0.0,,109.947,,0.0,30.4302,109.948,30.4302,-70.0524,2195.73,monload-611_runway,,,,,,,,2.4,,,0.9148875
43,0.0,,111.262,,0.0,38.2888,111.262,38.2888,-68.7378,2251.65,monload-611_runway,,,,,,,,2.4,,,0.9381875000000001
44,0.0,,111.246,,0.0,40.6258,111.246,40.6258,-68.7538,2251.03,monload-611_runway,,,,,,,,2.4,,,0.9379291666666667
45,0.0,,112.0,,0.0,45.1231,111.998,45.1231,-68.0022,2283.21,monload-611_runway,,,,,,,,2.4,,,0.9513375000000001
46,0.0,,112.336,,0.0,42.3023,112.333,42.3023,-67.667,2297.45,monload-611_runway,,,,,,,,2.4,,,0.9572708333333333
47,0.0,,113.281,,0.0,30.8497,113.28,30.8497,-66.7201,2336.74,monload-611_runway,,,,,,,,2.4,,,0.9736416666666666
48,0.0,,113.531,,0.0,21.1497,113.529,21.1497,-66.4709,2347.08,monload-611_runway,,,,,,,,2.4,,,0.97795
49,0.0,,113.619,,0.0,18.8942,113.619,18.8942,-66.3812,2350.8,monload-611_runway,,,,,,,,2.4,,,0.9795
50,0.0,,113.669,,0.0,18.3946,113.665,18.3946,-66.3348,2352.82,monload-611_runway,,,,,,,,2.4,,,0.9803416666666668
51,0.0,,113.735,,0.0,17.8874,113.73,17.8874,-66.2705,2355.5,monload-611_runway,,,,,,,,2.4,,,0.9814583333333333
52,0.0,,113.738,,0.0,18.4384,113.738,18.4384,-66.2622,2355.66,monload-611_runway,,,,,,,,2.4,,,0.981525
53,0.0,,112.936,,0.0,19.6598,112.937,19.6598,-67.063,2322.45,monload-611_runway,,,,,,,,2.4,,,0.9676874999999999
54,0.0,,112.716,,0.0,23.9779,112.718,23.9779,-67.2817,2313.2,monload-611_runway,,,,,,,,2.4,,,0.9638333333333332
55,0.0,,111.028,,0.0,35.0872,111.029,35.0872,-68.9711,2241.83,monload-611_runway,,,,,,,,2.4,,,0.9340958333333333
56,0.0,,110.286,,0.0,34.8102,110.286,34.8102,-69.7142,2209.82,monload-611_runway,,,,,,,,2.4,,,0.9207583333333335
57,0.0,,109.986,,0.0,30.4847,109.987,30.4847,-70.0134,2206.72,monload-611_runway,,,,,,,,2.4,,,0.9194666666666665
58,0.0,,109.553,,0.0,30.1054,109.554,30.1054,-70.4459,2200.89,monload-611_runway,,,,,,,,2.4,,,0.9170375
59,0.0,,109.542,,0.0,23.9524,109.54,23.9524,-70.4603,2207.73,monload-611_runway,,,,,,,,2.4,,,0.9198875
60,0.0,,0.0,,0.0,0.0,0.0,0.0,0.0,0.0,monload-611_runway,,,,,,,,2.4,,,0.0
61,0.0,,0.0,,0.0,0.0,0.0,0.0,0.0,0.0,monload-611_runway,,,,,,,,2.4,,,0.0
62,0.0,,0.0,,0.0,0.0,0.0,0.0,0.0,0.0,monload-611_runway,,,,,,,,2.4,,,0.0
63,0.0,,0.0,,0.0,0.0,0.0,0.0,0.0,0.0,monload-611_runway,,,,,,,,2.4,,,0.0
64,0.0,,0.0,,0.0,0.0,0.0,0.0,0.0,0.0,monload-611_runway,,,,,,,,2.4,,,0.0
65,0.0,,0.0,,0.0,0.0,0.0,0.0,0.0,0.0,monload-611_runway,,,,,,,,2.4,,,0.0
66,0.0,,0.0,,0.0,0.0,0.0,0.0,0.0,0.0,monload-611_runway,,,,,,,,2.4,,,0.0
67,0.0,,0.0,,0.0,0.0,0.0,0.0,0.0,0.0,monload-611_runway,,,,,,,,2.4,,,0.0
68,0.0,,0.0,,0.0,0.0,0.0,0.0,0.0,0.0,monload-611_runway,,,,,,,,2.4,,,0.0
69,0.0,,0.0,,0.0,0.0,0.0,0.0,0.0,0.0,monload-611_runway,,,,,,,,2.4,,,0.0
70,0.0,,0.0,,0.0,0.0,0.0,0.0,0.0,0.0,monload-611_runway,,,,,,,,2.4,,,0.0
71,0.0,,0.0,,0.0,0.0,0.0,0.0,0.0,0.0,monload-611_runway,,,,,,,,2.4,,,0.0
72,0.0,,0.0,,0.0,0.0,0.0,0.0,0.0,0.0,monload-611_runway,,,,,,,,2.4,,,0.0
73,0.0,,0.0,,0.0,0.0,0.0,0.0,0.0,0.0,monload-611_runway,,,,,,,,2.4,,,0.0
74,0.0,,0.0,,0.0,0.0,0.0,0.0,0.0,0.0,monload-611_runway,,,,,,,,2.4,,,0.0
75,0.0,,0.0,,0.0,0.0,0.0,0.0,0.0,0.0,monload-611_runway,,,,,,,,2.4,,,0.0
76,0.0,,0.0,,0.0,0.0,0.0,0.0,0.0,0.0,monload-611_runway,,,,,,,,2.4,,,0.0
77,0.0,,0.0,,0.0,0.0,0.0,0.0,0.0,0.0,monload-611_runway,,,,,,,,2.4,,,0.0
78,0.0,,0.0,,0.0,0.0,0.0,0.0,0.0,0.0,monload-611_runway,,,,,,,,2.4,,,0.0
79,0.0,,0.0,,0.0,0.0,0.0,0.0,0.0,0.0,monload-611_runway,,,,,,,,2.4,,,0.0
80,0.0,,0.0,,0.0,0.0,0.0,0.0,0.0,0.0,monload-611_runway,,,,,,,,2.4,,,0.0
81,0.0,,0.0,,0.0,0.0,0.0,0.0,0.0,0.0,monload-611_runway,,,,,,,,2.4,,,0.0
82,0.0,,0.0,,0.0,0.0,0.0,0.0,0.0,0.0,monload-611_runway,,,,,,,,2.4,,,0.0
83,0.0,,0.0,,0.0,0.0,0.0,0.0,0.0,0.0,monload-611_runway,,,,,,,,2.4,,,0.0
84,0.0,,0.0,,0.0,0.0,0.0,0.0,0.0,0.0,monload-611_runway,,,,,,,,2.4,,,0.0
85,0.0,,0.0,,0.0,0.0,0.0,0.0,0.0,0.0,monload-611_runway,,,,,,,,2.4,,,0.0
86,0.0,,0.0,,0.0,0.0,0.0,0.0,0.0,0.0,monload-611_runway,,,,,,,,2.4,,,0.0
87,0.0,,0.0,,0.0,0.0,0.0,0.0,0.0,0.0,monload-611_runway,,,,,,,,2.4,,,0.0
88,0.0,,0.0,,0.0,0.0,0.0,0.0,0.0,0.0,monload-611_runway,,,,,,,,2.4,,,0.0
89,0.0,,0.0,,0.0,0.0,0.0,0.0,0.0,0.0,monload-611_runway,,,,,,,,2.4,,,0.0
90,0.0,,0.0,,0.0,0.0,0.0,0.0,0.0,0.0,monload-611_runway,,,,,,,,2.4,,,0.0
91,0.0,,0.0,,0.0,0.0,0.0,0.0,0.0,0.0,monload-611_runway,,,,,,,,2.4,,,0.0
92,0.0,,0.0,,0.0,0.0,0.0,0.0,0.0,0.0,monload-611_runway,,,,,,,,2.4,,,0.0
93,0.0,,0.0,,0.0,0.0,0.0,0.0,0.0,0.0,monload-611_runway,,,,,,,,2.4,,,0.0
94,0.0,,0.0,,0.0,0.0,0.0,0.0,0.0,0.0,monload-611_runway,,,,,,,,2.4,,,0.0
95,0.0,,0.0,,0.0,0.0,0.0,0.0,0.0,0.0,monload-611_runway,,,,,,,,2.4,,,0.0
96,0.0,,0.0,,0.0,0.0,0.0,0.0,0.0,0.0,monload-611_runway,,,,,,,,2.4,,,0.0
97,0.0,,0.0,,0.0,0.0,0.0,0.0,0.0,0.0,monload-611_runway,,,,,,,,2.4,,,0.0
98,0.0,,0.0,,0.0,0.0,0.0,0.0,0.0,0.0,monload-611_runway,,,,,,,,2.4,,,0.0
99,0.0,,0.0,,0.0,0.0,0.0,0.0,0.0,0.0,monload-611_runway,,,,,,,,2.4,,,0.0
100,0.0,,0.0,,0.0,0.0,0.0,0.0,0.0,0.0,monload-611_runway,,,,,,,,2.4,,,0.0
101,0.0,,0.0,,0.0,0.0,0.0,0.0,0.0,0.0,monload-611_runway,,,,,,,,2.4,,,0.0
102,0.0,,0.0,,0.0,0.0,0.0,0.0,0.0,0.0,monload-611_runway,,,,,,,,2.4,,,0.0
103,0.0,,0.0,,0.0,0.0,0.0,0.0,0.0,0.0,monload-611_runway,,,,,,,,2.4,,,0.0
104,0.0,,0.0,,0.0,0.0,0.0,0.0,0.0,0.0,monload-611_runway,,,,,,,,2.4,,,0.0
105,0.0,,0.0,,0.0,0.0,0.0,0.0,0.0,0.0,monload-611_runway,,,,,,,,2.4,,,0.0
106,0.0,,0.0,,0.0,0.0,0.0,0.0,0.0,0.0,monload-611_runway,,,,,,,,2.4,,,0.0
107,0.0,,0.0,,0.0,0.0,0.0,0.0,0.0,0.0,monload-611_runway,,,,,,,,2.4,,,0.0
108,0.0,,0.0,,0.0,0.0,0.0,0.0,0.0,0.0,monload-611_runway,,,,,,,,2.4,,,0.0
109,0.0,,0.0,,0.0,0.0,0.0,0.0,0.0,0.0,monload-611_runway,,,,,,,,2.4,,,0.0
110,0.0,,0.0,,0.0,0.0,0.0,0.0,0.0,0.0,monload-611_runway,,,,,,,,2.4,,,0.0
111,0.0,,0.0,,0.0,0.0,0.0,0.0,0.0,0.0,monload-611_runway,,,,,,,,2.4,,,0.0
112,0.0,,0.0,,0.0,0.0,0.0,0.0,0.0,0.0,monload-611_runway,,,,,,,,2.4,,,0.0
113,0.0,,0.0,,0.0,0.0,0.0,0.0,0.0,0.0,monload-611_runway,,,,,,,,2.4,,,0.0
114,0.0,,0.0,,0.0,0.0,0.0,0.0,0.0,0.0,monload-611_runway,,,,,,,,2.4,,,0.0
115,0.0,,0.0,,0.0,0.0,0.0,0.0,0.0,0.0,monload-611_runway,,,,,,,,2.4,,,0.0
116,0.0,,0.0,,0.0,0.0,0.0,0.0,0.0,0.0,monload-611_runway,,,,,,,,2.4,,,0.0
117,0.0,,0.0,,0.0,0.0,0.0,0.0,0.0,0.0,monload-611_runway,,,,,,,,2.4,,,0.0
118,0.0,,0.0,,0.0,0.0,0.0,0.0,0.0,0.0,monload-611_runway,,,,,,,,2.4,,,0.0
119,0.0,,0.0,,0.0,0.0,0.0,0.0,0.0,0.0,monload-611_runway,,,,,,,,2.4,,,0.0
120,0.0,,0.0,,0.0,0.0,0.0,0.0,0.0,0.0,monload-611_runway,,,,,,,,2.4,,,0.0
121,0.0,,0.0,,0.0,0.0,0.0,0.0,0.0,0.0,monload-611_runway,,,,,,,,2.4,,,0.0
122,0.0,,0.0,,0.0,0.0,0.0,0.0,0.0,0.0,monload-611_runway,,,,,,,,2.4,,,0.0
123,0.0,,0.0,,0.0,0.0,0.0,0.0,0.0,0.0,monload-611_runway,,,,,,,,2.4,,,0.0
124,0.0,,0.0,,0.0,0.0,0.0,0.0,0.0,0.0,monload-611_runway,,,,,,,,2.4,,,0.0
125,0.0,,0.0,,0.0,0.0,0.0,0.0,0.0,0.0,monload-611_runway,,,,,,,,2.4,,,0.0
126,0.0,,0.0,,0.0,0.0,0.0,0.0,0.0,0.0,monload-611_runway,,,,,,,,2.4,,,0.0
127,0.0,,0.0,,0.0,0.0,0.0,0.0,0.0,0.0,monload-611_runway,,,,,,,,2.4,,,0.0
128,0.0,,0.0,,0.0,0.0,0.0,0.0,0.0,0.0,monload-611_runway,,,,,,,,2.4,,,0.0
129,0.0,,0.0,,0.0,0.0,0.0,0.0,0.0,0.0,monload-611_runway,,,,,,,,2.4,,,0.0
130,0.0,,0.0,,0.0,0.0,0.0,0.0,0.0,0.0,monload-611_runway,,,,,,,,2.4,,,0.0
131,0.0,,0.0,,0.0,0.0,0.0,0.0,0.0,0.0,monload-611_runway,,,,,,,,2.4,,,0.0
132,0.0,,0.0,,0.0,0.0,0.0,0.0,0.0,0.0,monload-611_runway,,,,,,,,2.4,,,0.0
133,0.0,,0.0,,0.0,0.0,0.0,0.0,0.0,0.0,monload-611_runway,,,,,,,,2.4,,,0.0
134,0.0,,0.0,,0.0,0.0,0.0,0.0,0.0,0.0,monload-611_runway,,,,,,,,2.4,,,0.0
135,0.0,,0.0,,0.0,0.0,0.0,0.0,0.0,0.0,monload-611_runway,,,,,,,,2.4,,,0.0
136,0.0,,0.0,,0.0,0.0,0.0,0.0,0.0,0.0,monload-611_runway,,,,,,,,2.4,,,0.0
137,0.0,,0.0,,0.0,0.0,0.0,0.0,0.0,0.0,monload-611_runway,,,,,,,,2.4,,,0.0
138,0.0,,0.0,,0.0,0.0,0.0,0.0,0.0,0.0,monload-611_runway,,,,,,,,2.4,,,0.0
139,0.0,,0.0,,0.0,0.0,0.0,0.0,0.0,0.0,monload-611_runway,,,,,,,,2.4,,,0.0
140,0.0,,0.0,,0.0,0.0,0.0,0.0,0.0,0.0,monload-611_runway,,,,,,,,2.4,,,0.0
141,0.0,,0.0,,0.0,0.0,0.0,0.0,0.0,0.0,monload-611_runway,,,,,,,,2.4,,,0.0
142,0.0,,0.0,,0.0,0.0,0.0,0.0,0.0,0.0,monload-611_runway,,,,,,,,2.4,,,0.0
143,0.0,,0.0,,0.0,0.0,0.0,0.0,0.0,0.0,monload-611_runway,,,,,,,,2.4,,,0.0
144,0.0,,0.0,,0.0,0.0,0.0,0.0,0.0,0.0,monload-611_runway,,,,,,,,2.4,,,0.0
145,0.0,,0.0,,0.0,0.0,0.0,0.0,0.0,0.0,monload-611_runway,,,,,,,,2.4,,,0.0
146,0.0,,0.0,,0.0,0.0,0.0,0.0,0.0,0.0,monload-611_runway,,,,,,,,2.4,,,0.0
147,0.0,,0.0,,0.0,0.0,0.0,0.0,0.0,0.0,monload-611_runway,,,,,,,,2.4,,,0.0
148,0.0,,0.0,,0.0,0.0,0.0,0.0,0.0,0.0,monload-611_runway,,,,,,,,2.4,,,0.0
149,0.0,,0.0,,0.0,0.0,0.0,0.0,0.0,0.0,monload-611_runway,,,,,,,,2.4,,,0.0
150,0.0,,0.0,,0.0,0.0,0.0,0.0,0.0,0.0,monload-611_runway,,,,,,,,2.4,,,0.0
151,0.0,,0.0,,0.0,0.0,0.0,0.0,0.0,0.0,monload-611_runway,,,,,,,,2.4,,,0.0
152,0.0,,0.0,,0.0,0.0,0.0,0.0,0.0,0.0,monload-611_runway,,,,,,,,2.4,,,0.0
153,0.0,,0.0,,0.0,0.0,0.0,0.0,0.0,0.0,monload-611_runway,,,,,,,,2.4,,,0.0
154,0.0,,0.0,,0.0,0.0,0.0,0.0,0.0,0.0,monload-611_runway,,,,,,,,2.4,,,0.0
155,0.0,,0.0,,0.0,0.0,0.0,0.0,0.0,0.0,monload-611_runway,,,,,,,,2.4,,,0.0
156,0.0,,0.0,,0.0,0.0,0.0,0.0,0.0,0.0,monload-611_runway,,,,,,,,2.4,,,0.0
157,0.0,,0.0,,0.0,0.0,0.0,0.0,0.0,0.0,monload-611_runway,,,,,,,,2.4,,,0.0
158,0.0,,0.0,,0.0,0.0,0.0,0.0,0.0,0.0,monload-611_runway,,,,,,,,2.4,,,0.0
159,0.0,,0.0,,0.0,0.0,0.0,0.0,0.0,0.0,monload-611_runway,,,,,,,,2.4,,,0.0
160,0.0,,0.0,,0.0,0.0,0.0,0.0,0.0,0.0,monload-611_runway,,,,,,,,2.4,,,0.0
161,0.0,,0.0,,0.0,0.0,0.0,0.0,0.0,0.0,monload-611_runway,,,,,,,,2.4,,,0.0
162,0.0,,0.0,,0.0,0.0,0.0,0.0,0.0,0.0,monload-611_runway,,,,,,,,2.4,,,0.0
163,0.0,,0.0,,0.0,0.0,0.0,0.0,0.0,0.0,monload-611_runway,,,,,,,,2.4,,,0.0
164,0.0,,0.0,,0.0,0.0,0.0,0.0,0.0,0.0,monload-611_runway,,,,,,,,2.4,,,0.0
165,0.0,,0.0,,0.0,0.0,0.0,0.0,0.0,0.0,monload-611_runway,,,,,,,,2.4,,,0.0
166,0.0,,0.0,,0.0,0.0,0.0,0.0,0.0,0.0,monload-611_runway,,,,,,,,2.4,,,0.0
167,0.0,,0.0,,0.0,0.0,0.0,0.0,0.0,0.0,monload-611_runway,,,,,,,,2.4,,,0.0
168,0.0,,0.0,,0.0,0.0,0.0,0.0,0.0,0.0,monload-611_runway,,,,,,,,2.4,,,0.0
169,0.0,,0.0,,0.0,0.0,0.0,0.0,0.0,0.0,monload-611_runway,,,,,,,,2.4,,,0.0
170,0.0,,0.0,,0.0,0.0,0.0,0.0,0.0,0.0,monload-611_runway,,,,,,,,2.4,,,0.0
171,0.0,,0.0,,0.0,0.0,0.0,0.0,0.0,0.0,monload-611_runway,,,,,,,,2.4,,,0.0
172,0.0,,0.0,,0.0,0.0,0.0,0.0,0.0,0.0,monload-611_runway,,,,,,,,2.4,,,0.0
173,0.0,,0.0,,0.0,0.0,0.0,0.0,0.0,0.0,monload-611_runway,,,,,,,,2.4,,,0.0
174,0.0,,0.0,,0.0,0.0,0.0,0.0,0.0,0.0,monload-611_runway,,,,,,,,2.4,,,0.0
175,0.0,,0.0,,0.0,0.0,0.0,0.0,0.0,0.0,monload-611_runway,,,,,,,,2.4,,,0.0
176,0.0,,0.0,,0.0,0.0,0.0,0.0,0.0,0.0,monload-611_runway,,,,,,,,2.4,,,0.0
177,0.0,,0.0,,0.0,0.0,0.0,0.0,0.0,0.0,monload-611_runway,,,,,,,,2.4,,,0.0
178,0.0,,0.0,,0.0,0.0,0.0,0.0,0.0,0.0,monload-611_runway,,,,,,,,2.4,,,0.0
179,0.0,,0.0,,0.0,0.0,0.0,0.0,0.0,0.0,monload-611_runway,,,,,,,,2.4,,,0.0
180,0.0,,112.19,,0.0,38.1499,112.195,38.1499,-67.8049,2307.67,monload-611_runway,,,,,,,,2.4,,,0.9615291666666667
181,0.0,,112.081,,0.0,38.4204,112.08,38.4204,-67.9199,2309.41,monload-611_runway,,,,,,,,2.4,,,0.9622541666666666
182,0.0,,112.013,,0.0,39.8211,112.011,39.8211,-67.9893,2310.19,monload-611_runway,,,,,,,,2.4,,,0.9625791666666667
183,0.0,,112.043,,0.0,41.1387,112.044,41.1387,-67.956,2306.46,monload-611_runway,,,,,,,,2.4,,,0.961025
184,0.0,,112.188,,0.0,40.2542,112.194,40.2542,-67.8065,2304.73,monload-611_runway,,,,,,,,2.4,,,0.9603041666666666
185,0.0,,112.448,,0.0,39.4232,112.446,39.4232,-67.5535,2308.8,monload-611_runway,,,,,,,,2.4,,,0.9620000000000001
186,0.0,,112.702,,0.0,41.61,112.701,41.61,-67.2994,2312.79,monload-611_runway,,,,,,,,2.4,,,0.9636625
187,0.0,,112.68,,0.0,50.661,112.682,50.661,-67.3177,2311.29,monload-611_runway,,,,,,,,2.4,,,0.9630375
188,0.0,,112.751,,0.0,50.936,112.75,50.936,-67.2496,2314.46,monload-611_runway,,,,,,,,2.4,,,0.9643583333333333
189,0.0,,112.909,,0.0,52.3523,112.907,52.3523,-67.0931,2321.15,monload-611_runway,,,,,,,,2.4,,,0.9671458333333334
190,0.0,,112.981,,0.0,50.5692,112.98,50.5692,-67.0196,2324.35,monload-611_runway,,,,,,,,2.4,,,0.9684791666666667
191,0.0,,113.428,,0.0,39.6945,113.423,39.6945,-66.5773,2342.97,monload-611_runway,,,,,,,,2.4,,,0.9762374999999999
192,0.0,,113.74,,0.0,26.4536,113.736,26.4536,-66.2638,2355.82,monload-611_runway,,,,,,,,2.4,,,0.9815916666666668
193,0.0,,113.849,,0.0,21.0984,113.848,21.0984,-66.152,2360.38,monload-611_runway,,,,,,,,2.4,,,0.9834916666666668
194,0.0,,113.886,,0.0,19.0118,113.882,19.0118,-66.1179,2361.88,monload-611_runway,,,,,,,,2.4,,,0.9841166666666668
195,0.0,,113.907,,0.0,17.1605,113.905,17.1605,-66.0955,2362.7,monload-611_runway,,,,,,,,2.4,,,0.9844583333333332
196,0.0,,113.888,,0.0,16.8089,113.89,16.8089,-66.1099,2361.91,monload-611_runway,,,,,,,,2.4,,,0.9841291666666666
197,0.0,,113.119,,0.0,17.2796,113.12,17.2796,-66.8796,2330.15,monload-611_runway,,,,,,,,2.4,,,0.9708958333333334
198,0.0,,113.021,,0.0,20.6862,113.022,20.6862,-66.978,2325.96,monload-611_runway,,,,,,,,2.4,,,0.9691500000000001
199,0.0,,111.204,,0.0,32.7835,111.196,32.7835,-68.8042,2249.39,monload-611_runway,,,,,,,,2.4,,,0.9372458333333333
200,0.0,,110.398,,0.0,35.2569,110.402,35.2569,-69.5981,2214.81,monload-611_runway,,,,,,,,2.4,,,0.9228375
201,0.0,,109.986,,0.0,32.1089,109.987,32.1089,-70.0131,2210.58,monload-611_runway,,,,,,,,2.4,,,0.921075
202,0.0,,109.428,,0.0,33.9458,109.429,33.9458,-70.5713,2203.78,monload-611_runway,,,,,,,,2.4,,,0.9182416666666667
203,0.0,,109.71,,0.0,29.8413,109.711,29.8413,-70.2895,2201.65,monload-611_runway,,,,,,,,2.4,,,0.9173541666666667
204,0.0,,109.302,,0.0,32.7932,109.302,32.7932,-70.6983,2202.35,monload-611_runway,,,,,,,,2.4,,,0.9176458333333333
205,0.0,,109.595,,0.0,35.296,109.594,35.296,-70.4059,2207.37,monload-611_runway,,,,,,,,2.4,,,0.9197375
206,0.0,,109.595,,0.0,36.4347,109.598,36.4347,-70.4024,2192.76,monload-611_runway,,,,,,,,2.4,,,0.9136500000000001
207,0.0,,109.47,,0.0,37.3741,109.46,37.3741,-70.5397,2190.82,monload-611_runway,,,,,,,,2.4,,,0.9128416666666668
208,0.0,,109.511,,0.0,35.053,109.511,35.053,-70.4885,2189.97,monload-611_runway,,,,,,,,2.4,,,0.9124874999999999
209,0.0,,109.621,,0.0,34.6817,109.622,34.6817,-70.3783,2188.08,monload-611_runway,,,,,,,,2.4,,,0.9117
210,0.0,,109.874,,0.0,39.1894,109.873,39.1894,-70.1272,2194.75,monload-611_runway,,,,,,,,2.4,,,0.9144791666666666
211,0.0,,111.24,,0.0,45.9042,111.238,45.9042,-68.7625,2250.62,monload-611_runway,,,,,,,,2.4,,,0.9377583333333332
212,0.0,,111.177,,0.0,47.6819,111.177,47.6819,-68.8231,2248.06,monload-611_runway,,,,,,,,2.4,,,0.9366916666666666
213,0.0,,111.843,,0.0,52.2533,111.843,52.2533,-68.1571,2276.58,monload-611_runway,,,,,,,,2.4,,,0.948575
214,0.0,,112.071,,0.0,49.8536,112.069,49.8536,-67.9311,2286.35,monload-611_runway,,,,,,,,2.4,,,0.9526458333333333
215,0.0,,112.976,,0.0,38.3082,112.974,38.3082,-67.0255,2324.19,monload-611_runway,,,,,,,,2.4,,,0.9684125
216,0.0,,113.244,,0.0,27.4534,113.241,27.4534,-66.7594,2335.35,monload-611_runway,,,,,,,,2.4,,,0.9730624999999999
217,0.0,,113.467,,0.0,24.2756,113.465,24.2756,-66.5353,2344.68,monload-611_runway,,,,,,,,2.4,,,0.97695
218,0.0,,113.565,,0.0,23.0495,113.563,23.0495,-66.4365,2348.69,monload-611_runway,,,,,,,,2.4,,,0.9786208333333334
219,0.0,,113.651,,0.0,21.3811,113.65,21.3811,-66.3499,2352.25,monload-611_runway,,,,,,,,2.4,,,0.9801041666666667
220,0.0,,113.678,,0.0,21.1438,113.674,21.1438,-66.3255,2353.35,monload-611_runway,,,,,,,,2.4,,,0.9805625
