hour,t(sec),V1,VAngle1,V2,VAngle2,I1,IAngle1,I2,IAngle2,V3,Name,VAngle3,I3,IAngle3,V4,VAngle4,I4,IAngle4,kv,V1(PU),V2(PU),V3(PU)
1,0.0,,114.64299999999999,,0.0,20.2518,114.647,20.2518,-65.3531,2379.69,monload-611_runway,,,,,,,,2.4,,,0.9915375000000001
2,0.0,,114.618,,0.0,21.49,114.618,21.49,-65.3821,2378.66,monload-611_runway,,,,,,,,2.4,,,0.9911083333333333
3,0.0,,114.648,,0.0,18.735,114.645,18.735,-65.3548,2379.98,monload-611_runway,,,,,,,,2.4,,,0.9916583333333333
4,0.0,,114.654,,0.0,18.1696,114.65299999999999,18.1696,-65.3465,2380.24,monload-611_runway,,,,,,,,2.4,,,0.9917666666666666
5,0.0,,114.931,,0.0,18.3433,114.929,18.3433,-65.0706,2392.29,monload-611_runway,,,,,,,,2.4,,,0.9967874999999999
6,0.0,,114.824,,0.0,19.8621,114.825,19.8621,-65.1754,2387.83,monload-611_runway,,,,,,,,2.4,,,0.9949291666666666
7,0.0,,114.06700000000001,,0.0,29.8483,114.068,29.8483,-65.932,2357.51,monload-611_runway,,,,,,,,2.4,,,0.9822958333333335
8,0.0,,114.09700000000001,,0.0,31.8618,114.094,31.8618,-65.9056,2358.75,monload-611_runway,,,,,,,,2.4,,,0.9828125
9,0.0,,113.64399999999999,,0.0,44.0268,113.648,44.0268,-66.3524,2340.88,monload-611_runway,,,,,,,,2.4,,,0.9753666666666667
10,0.0,,114.027,,0.0,37.8158,114.023,37.8158,-65.9766,2356.84,monload-611_runway,,,,,,,,2.4,,,0.9820166666666668
11,0.0,,114.39200000000001,,0.0,26.7204,114.38799999999999,26.7204,-65.6124,2371.89,monload-611_runway,,,,,,,,2.4,,,0.9882875
12,0.0,,114.76700000000001,,0.0,25.0426,114.762,25.0426,-65.2377,2387.85,monload-611_runway,,,,,,,,2.4,,,0.9949374999999999
13,0.0,,114.17,,0.0,24.9564,114.171,24.9564,-65.8293,2362.1,monload-611_runway,,,,,,,,2.4,,,0.9842083333333332
14,0.0,,114.331,,0.0,24.9959,114.333,24.9959,-65.6666,2369.17,monload-611_runway,,,,,,,,2.4,,,0.9871541666666667
15,0.0,,114.509,,0.0,24.9268,114.507,24.9268,-65.4928,2376.68,monload-611_runway,,,,,,,,2.4,,,0.9902833333333333
16,0.0,,114.54299999999999,,0.0,24.7866,114.539,24.7866,-65.4606,2378.13,monload-611_runway,,,,,,,,2.4,,,0.9908875
17,0.0,,114.234,,0.0,25.989,114.238,25.989,-65.7622,2364.77,monload-611_runway,,,,,,,,2.4,,,0.9853208333333333
18,0.0,,114.42399999999999,,0.0,31.4301,114.42200000000001,31.4301,-65.5782,2372.55,monload-611_runway,,,,,,,,2.4,,,0.9885625000000001
19,0.0,,114.184,,0.0,43.1551,114.186,43.1551,-65.8144,2362.7,monload-611_runway,,,,,,,,2.4,,,0.9844583333333332
20,0.0,,114.18299999999999,,0.0,45.3034,114.182,45.3034,-65.8179,2362.69,monload-611_runway,,,,,,,,2.4,,,0.9844541666666667
21,0.0,,114.316,,0.0,47.8087,114.315,47.8087,-65.6851,2368.0,monload-611_runway,,,,,,,,2.4,,,0.9866666666666667
22,0.0,,113.51799999999999,,0.0,46.4444,113.51700000000001,46.4444,-66.4832,2333.92,monload-611_runway,,,,,,,,2.4,,,0.9724666666666667
23,0.0,,114.031,,0.0,35.6973,114.025,35.6973,-65.9753,2354.86,monload-611_runway,,,,,,,,2.4,,,0.9811916666666667
24,0.0,,114.62299999999999,,0.0,22.9122,114.616,22.9122,-65.3837,2379.22,monload-611_runway,,,,,,,,2.4,,,0.9913416666666666
25,0.0,,114.87799999999999,,0.0,18.6667,114.87799999999999,18.6667,-65.1215,2389.78,monload-611_runway,,,,,,,,2.4,,,0.9957416666666667
26,0.0,,114.891,,0.0,17.8494,114.89,17.8494,-65.1103,2390.29,monload-611_runway,,,,,,,,2.4,,,0.9959541666666667
27,0.0,,114.912,,0.0,16.9263,114.911,16.9263,-65.0891,2391.15,monload-611_runway,,,,,,,,2.4,,,0.9963125
28,0.0,,114.917,,0.0,17.0116,114.917,17.0116,-65.0834,2391.31,monload-611_runway,,,,,,,,2.4,,,0.9963791666666666
29,0.0,,114.315,,0.0,17.6802,114.319,17.6802,-65.6806,2367.58,monload-611_runway,,,,,,,,2.4,,,0.9864916666666667
30,0.0,,114.565,,0.0,21.26,114.56299999999999,21.26,-65.437,2378.56,monload-611_runway,,,,,,,,2.4,,,0.9910666666666667
31,0.0,,112.85600000000001,,0.0,33.1809,112.855,33.1809,-67.1454,2309.69,monload-611_runway,,,,,,,,2.4,,,0.9623708333333334
32,0.0,,112.124,,0.0,34.8508,112.124,34.8508,-67.8755,2279.85,monload-611_runway,,,,,,,,2.4,,,0.9499375
33,0.0,,112.26899999999999,,0.0,30.7756,112.266,30.7756,-67.7344,2286.65,monload-611_runway,,,,,,,,2.4,,,0.9527708333333333
34,0.0,,111.514,,0.0,30.7237,111.514,30.7237,-68.4862,2254.02,monload-611_runway,,,,,,,,2.4,,,0.939175
35,0.0,,111.73899999999999,,0.0,24.9521,111.73899999999999,24.9521,-68.2611,2264.29,monload-611_runway,,,,,,,,2.4,,,0.9434541666666667
36,0.0,,111.87,,0.0,25.8832,111.87,25.8832,-68.1304,2269.92,monload-611_runway,,,,,,,,2.4,,,0.9458000000000001
37,0.0,,112.271,,0.0,26.4116,112.275,26.4116,-67.7251,2288.39,monload-611_runway,,,,,,,,2.4,,,0.9534958333333333
38,0.0,,111.448,,0.0,25.0388,111.447,25.0388,-68.5532,2251.38,monload-611_runway,,,,,,,,2.4,,,0.938075
39,0.0,,112.084,,0.0,24.5082,112.084,24.5082,-67.9161,2280.72,monload-611_runway,,,,,,,,2.4,,,0.9502999999999999
40,0.0,,111.73899999999999,,0.0,24.5779,111.73899999999999,24.5779,-68.2614,2265.14,monload-611_runway,,,,,,,,2.4,,,0.9438083333333332
41,0.0,,111.787,,0.0,25.7117,111.787,25.7117,-68.2133,2266.9,monload-611_runway,,,,,,,,2.4,,,0.9445416666666667
42,0.0,,111.579,,0.0,31.3271,111.57799999999999,31.3271,-68.422,2257.11,monload-611_runway,,,,,,,,2.4,,,0.9404625000000001
43,0.0,,112.664,,0.0,38.7986,112.662,38.7986,-67.3375,2301.43,monload-611_runway,,,,,,,,2.4,,,0.9589291666666666
44,0.0,,112.652,,0.0,41.1781,112.65299999999999,41.1781,-67.3471,2300.98,monload-611_runway,,,,,,,,2.4,,,0.9587416666666667
45,0.0,,113.39,,0.0,45.1231,113.39200000000001,45.1231,-66.6082,2330.9,monload-611_runway,,,,,,,,2.4,,,0.9712083333333333
46,0.0,,113.762,,0.0,42.3023,113.758,42.3023,-66.2423,2346.14,monload-611_runway,,,,,,,,2.4,,,0.9775583333333333
47,0.0,,113.743,,0.0,30.8497,113.74600000000001,30.8497,-66.2545,2343.19,monload-611_runway,,,,,,,,2.4,,,0.9763291666666667
48,0.0,,114.072,,0.0,21.1497,114.068,21.1497,-65.9315,2356.62,monload-611_runway,,,,,,,,2.4,,,0.9819249999999999
49,0.0,,114.18799999999999,,0.0,18.8942,114.186,18.8942,-65.8136,2361.34,monload-611_runway,,,,,,,,2.4,,,0.9838916666666667
50,0.0,,114.634,,0.0,18.3946,114.64,18.3946,-65.3605,2380.1,monload-611_runway,,,,,,,,2.4,,,0.9917083333333333
51,0.0,,114.68299999999999,,0.0,17.8874,114.679,17.8874,-65.321,2382.03,monload-611_runway,,,,,,,,2.4,,,0.9925125000000001
52,0.0,,114.678,,0.0,18.4384,114.678,18.4384,-65.3219,2381.81,monload-611_runway,,,,,,,,2.4,,,0.9924208333333333
53,0.0,,114.52799999999999,,0.0,19.6598,114.52799999999999,19.6598,-65.4722,2377.19,monload-611_runway,,,,,,,,2.4,,,0.9904958333333334
54,0.0,,114.24700000000001,,0.0,23.9779,114.249,23.9779,-65.751,2365.77,monload-611_runway,,,,,,,,2.4,,,0.9857375
55,0.0,,112.545,,0.0,35.7182,112.54,35.7182,-67.46,2296.78,monload-611_runway,,,,,,,,2.4,,,0.9569916666666668
56,0.0,,111.881,,0.0,35.805,111.87799999999999,35.805,-68.1217,2269.64,monload-611_runway,,,,,,,,2.4,,,0.9456833333333333
57,0.0,,111.90299999999999,,0.0,31.4318,111.904,31.4318,-68.0958,2271.39,monload-611_runway,,,,,,,,2.4,,,0.9464125
58,0.0,,111.661,,0.0,30.9882,111.663,30.9882,-68.3367,2261.67,monload-611_runway,,,,,,,,2.4,,,0.9423625
59,0.0,,112.039,,0.0,24.7611,112.04,24.7611,-67.9602,2278.1,monload-611_runway,,,,,,,,2.4,,,0.9492083333333333
60,0.0,,112.01899999999999,,0.0,25.8684,112.023,25.8684,-67.9772,2276.66,monload-611_runway,,,,,,,,2.4,,,0.9486083333333333
61,0.0,,111.99799999999999,,0.0,27.0457,111.99700000000001,27.0457,-68.0025,2275.59,monload-611_runway,,,,,,,,2.4,,,0.9481625
62,0.0,,111.79700000000001,,0.0,27.4234,111.795,27.4234,-68.2049,2267.28,monload-611_runway,,,,,,,,2.4,,,0.9447000000000001
63,0.0,,112.066,,0.0,27.9309,112.066,27.9309,-67.9339,2279.12,monload-611_runway,,,,,,,,2.4,,,0.9496333333333333
64,0.0,,111.986,,0.0,28.0213,111.984,28.0213,-68.0158,2275.51,monload-611_runway,,,,,,,,2.4,,,0.9481291666666668
65,0.0,,112.124,,0.0,28.5183,112.124,28.5183,-67.8763,2281.41,monload-611_runway,,,,,,,,2.4,,,0.9505874999999999
66,0.0,,111.678,,0.0,32.3145,111.676,32.3145,-68.3241,2261.13,monload-611_runway,,,,,,,,2.4,,,0.9421375000000001
67,0.0,,112.91799999999999,,0.0,38.728,112.916,38.728,-67.0841,2311.79,monload-611_runway,,,,,,,,2.4,,,0.9632458333333334
68,0.0,,112.92200000000001,,0.0,40.8709,112.921,40.8709,-67.0785,2311.92,monload-611_runway,,,,,,,,2.4,,,0.9633
69,0.0,,113.16,,0.0,44.806000000000004,113.15700000000001,44.806000000000004,-66.8433,2320.4,monload-611_runway,,,,,,,,2.4,,,0.9668333333333333
70,0.0,,113.494,,0.0,41.9513,113.49,41.9513,-66.5103,2334.2,monload-611_runway,,,,,,,,2.4,,,0.9725833333333332
71,0.0,,114.351,,0.0,30.874000000000002,114.35,30.874000000000002,-65.6495,2368.63,monload-611_runway,,,,,,,,2.4,,,0.9869291666666667
72,0.0,,114.645,,0.0,21.1947,114.64200000000001,21.1947,-65.3582,2380.46,monload-611_runway,,,,,,,,2.4,,,0.9918583333333334
73,0.0,,114.803,,0.0,18.5785,114.801,18.5785,-65.1988,2386.8,monload-611_runway,,,,,,,,2.4,,,0.9945
74,0.0,,114.82700000000001,,0.0,17.7129,114.825,17.7129,-65.1754,2387.77,monload-611_runway,,,,,,,,2.4,,,0.9949041666666667
75,0.0,,114.853,,0.0,16.7422,114.85,16.7422,-65.1498,2388.81,monload-611_runway,,,,,,,,2.4,,,0.9953375
76,0.0,,114.85,,0.0,16.8093,114.85,16.8093,-65.1498,2388.67,monload-611_runway,,,,,,,,2.4,,,0.9952791666666667
77,0.0,,114.24600000000001,,0.0,17.5128,114.25299999999999,17.5128,-65.7467,2364.83,monload-611_runway,,,,,,,,2.4,,,0.9853458333333333
78,0.0,,114.102,,0.0,20.9229,114.104,20.9229,-65.8958,2358.99,monload-611_runway,,,,,,,,2.4,,,0.9829124999999999
79,0.0,,112.329,,0.0,32.7171,112.33,32.7171,-67.6705,2286.99,monload-611_runway,,,,,,,,2.4,,,0.9529124999999999
80,0.0,,111.654,,0.0,34.6566,111.65299999999999,34.6566,-68.3473,2259.25,monload-611_runway,,,,,,,,2.4,,,0.9413541666666667
81,0.0,,112.11,,0.0,30.82,112.11,30.82,-67.89,2280.45,monload-611_runway,,,,,,,,2.4,,,0.9501875
82,0.0,,112.209,,0.0,30.1071,112.204,30.1071,-67.7958,2285.95,monload-611_runway,,,,,,,,2.4,,,0.9524791666666665
83,0.0,,113.286,,0.0,23.08,113.29,23.08,-66.71,2332.6,monload-611_runway,,,,,,,,2.4,,,0.9719166666666667
84,0.0,,113.74600000000001,,0.0,23.6213,113.744,23.6213,-66.2563,2352.63,monload-611_runway,,,,,,,,2.4,,,0.9802625
85,0.0,,114.085,,0.0,24.733,114.084,24.733,-65.9164,2366.63,monload-611_runway,,,,,,,,2.4,,,0.9860958333333334
86,0.0,,113.708,,0.0,26.0612,113.71,26.0612,-66.2902,2351.38,monload-611_runway,,,,,,,,2.4,,,0.9797416666666667
87,0.0,,113.12299999999999,,0.0,26.4039,113.12700000000001,26.4039,-66.873,2326.76,monload-611_runway,,,,,,,,2.4,,,0.9694833333333335
88,0.0,,112.76899999999999,,0.0,26.3335,112.771,26.3335,-67.2286,2311.27,monload-611_runway,,,,,,,,2.4,,,0.9630291666666667
89,0.0,,111.749,,0.0,27.3892,111.741,27.3892,-68.2587,2266.35,monload-611_runway,,,,,,,,2.4,,,0.9443125
90,0.0,,111.471,,0.0,33.3999,111.463,33.3999,-68.5369,2253.16,monload-611_runway,,,,,,,,2.4,,,0.9388166666666666
91,0.0,,112.39399999999999,,0.0,41.4629,112.39,41.4629,-67.6105,2290.37,monload-611_runway,,,,,,,,2.4,,,0.9543208333333333
92,0.0,,112.4,,0.0,44.545,112.398,44.545,-67.6021,2290.67,monload-611_runway,,,,,,,,2.4,,,0.9544458333333333
93,0.0,,113.15100000000001,,0.0,49.2734,113.149,49.2734,-66.8506,2321.34,monload-611_runway,,,,,,,,2.4,,,0.9672250000000001
94,0.0,,113.51100000000001,,0.0,46.4184,113.507,46.4184,-66.4933,2336.1,monload-611_runway,,,,,,,,2.4,,,0.973375
95,0.0,,113.943,,0.0,34.3923,113.946,34.3923,-66.0541,2352.52,monload-611_runway,,,,,,,,2.4,,,0.9802166666666666
96,0.0,,114.25,,0.0,24.0131,114.24700000000001,24.0131,-65.753,2364.96,monload-611_runway,,,,,,,,2.4,,,0.9854
97,0.0,,114.40299999999999,,0.0,21.7964,114.40100000000001,21.7964,-65.59899999999999,2371.14,monload-611_runway,,,,,,,,2.4,,,0.9879749999999999
98,0.0,,114.443,,0.0,20.8093,114.439,20.8093,-65.5608,2372.78,monload-611_runway,,,,,,,,2.4,,,0.9886583333333334
99,0.0,,114.48200000000001,,0.0,19.5335,114.478,19.5335,-65.52199999999999,2374.31,monload-611_runway,,,,,,,,2.4,,,0.9892958333333333
100,0.0,,114.52799999999999,,0.0,19.3539,114.523,19.3539,-65.4771,2376.13,monload-611_runway,,,,,,,,2.4,,,0.9900541666666667
101,0.0,,113.986,,0.0,19.795,113.986,19.795,-66.0138,2354.62,monload-611_runway,,,,,,,,2.4,,,0.9810916666666666
102,0.0,,113.99600000000001,,0.0,23.6849,114.001,23.6849,-65.9991,2355.49,monload-611_runway,,,,,,,,2.4,,,0.9814541666666666
103,0.0,,111.676,,0.0,38.0547,111.669,38.0547,-68.3311,2259.37,monload-611_runway,,,,,,,,2.4,,,0.9414041666666666
104,0.0,,111.072,,0.0,41.7999,111.071,41.7999,-68.9294,2234.33,monload-611_runway,,,,,,,,2.4,,,0.9309708333333333
105,0.0,,111.31,,0.0,39.1437,111.31,39.1437,-68.69,2246.26,monload-611_runway,,,,,,,,2.4,,,0.9359416666666668
106,0.0,,111.493,,0.0,41.9964,111.493,41.9964,-68.5073,2256.47,monload-611_runway,,,,,,,,2.4,,,0.9401958333333332
107,0.0,,112.219,,0.0,36.7749,112.221,36.7749,-67.7794,2288.96,monload-611_runway,,,,,,,,2.4,,,0.9537333333333333
108,0.0,,112.975,,0.0,34.924,112.969,34.924,-67.0311,2321.42,monload-611_runway,,,,,,,,2.4,,,0.9672583333333333
109,0.0,,113.463,,0.0,35.3309,113.46,35.3309,-66.54,2341.43,monload-611_runway,,,,,,,,2.4,,,0.9755958333333332
110,0.0,,113.073,,0.0,36.1511,113.07600000000001,36.1511,-66.9242,2325.34,monload-611_runway,,,,,,,,2.4,,,0.9688916666666667
111,0.0,,112.531,,0.0,36.556999999999995,112.535,36.556999999999995,-67.4653,2302.05,monload-611_runway,,,,,,,,2.4,,,0.9591875000000001
112,0.0,,112.288,,0.0,35.8436,112.289,35.8436,-67.7107,2291.01,monload-611_runway,,,,,,,,2.4,,,0.9545875000000001
113,0.0,,111.56299999999999,,0.0,36.944,111.561,36.944,-68.439,2258.07,monload-611_runway,,,,,,,,2.4,,,0.9408625
114,0.0,,111.399,,0.0,41.7546,111.397,41.7546,-68.6032,2249.5,monload-611_runway,,,,,,,,2.4,,,0.9372916666666666
115,0.0,,112.49799999999999,,0.0,48.2942,112.493,48.2942,-67.5073,2294.21,monload-611_runway,,,,,,,,2.4,,,0.9559208333333333
116,0.0,,112.539,,0.0,50.8826,112.538,50.8826,-67.462,2295.99,monload-611_runway,,,,,,,,2.4,,,0.9566624999999999
117,0.0,,113.281,,0.0,55.1034,113.28,55.1034,-66.7196,2326.16,monload-611_runway,,,,,,,,2.4,,,0.9692333333333333
118,0.0,,113.649,,0.0,52.4571,113.645,52.4571,-66.3552,2341.29,monload-611_runway,,,,,,,,2.4,,,0.9755375
119,0.0,,114.1,,0.0,40.733000000000004,114.105,40.733000000000004,-65.8948,2358.45,monload-611_runway,,,,,,,,2.4,,,0.9826874999999999
120,0.0,,114.444,,0.0,29.5798,114.441,29.5798,-65.5589,2372.4,monload-611_runway,,,,,,,,2.4,,,0.9885
121,0.0,,114.655,,0.0,25.8806,114.65299999999999,25.8806,-65.3468,2380.94,monload-611_runway,,,,,,,,2.4,,,0.9920583333333334
122,0.0,,114.695,,0.0,24.5759,114.691,24.5759,-65.3087,2382.56,monload-611_runway,,,,,,,,2.4,,,0.9927333333333334
123,0.0,,114.738,,0.0,22.9971,114.734,22.9971,-65.2664,2384.26,monload-611_runway,,,,,,,,2.4,,,0.9934416666666668
124,0.0,,114.75200000000001,,0.0,22.3842,114.75,22.3842,-65.2497,2384.85,monload-611_runway,,,,,,,,2.4,,,0.9936875
125,0.0,,114.141,,0.0,22.8134,114.14200000000001,22.8134,-65.8582,2360.71,monload-611_runway,,,,,,,,2.4,,,0.9836291666666667
126,0.0,,113.964,,0.0,26.7316,113.96600000000001,26.7316,-66.0343,2353.48,monload-611_runway,,,,,,,,2.4,,,0.9806166666666667
127,0.0,,112.514,,0.0,41.3038,112.51299999999999,41.3038,-67.487,2295.54,monload-611_runway,,,,,,,,2.4,,,0.956475
128,0.0,,111.227,,0.0,44.722,111.22399999999999,44.722,-68.7757,2240.78,monload-611_runway,,,,,,,,2.4,,,0.9336583333333334
129,0.0,,111.29899999999999,,0.0,43.3456,111.3,43.3456,-68.7004,2245.11,monload-611_runway,,,,,,,,2.4,,,0.9354625000000001
130,0.0,,111.35,,0.0,43.7131,111.35,43.7131,-68.6497,2248.63,monload-611_runway,,,,,,,,2.4,,,0.9369291666666667
131,0.0,,112.235,,0.0,38.3172,112.234,38.3172,-67.7664,2288.68,monload-611_runway,,,,,,,,2.4,,,0.9536166666666666
132,0.0,,111.837,,0.0,38.8891,111.836,38.8891,-68.164,2271.1,monload-611_runway,,,,,,,,2.4,,,0.9462916666666666
133,0.0,,112.31200000000001,,0.0,39.7514,112.31,39.7514,-67.6897,2291.49,monload-611_runway,,,,,,,,2.4,,,0.9547874999999999
134,0.0,,112.147,,0.0,40.3209,112.148,40.3209,-67.852,2285.07,monload-611_runway,,,,,,,,2.4,,,0.9521125
135,0.0,,112.184,,0.0,40.0177,112.18299999999999,40.0177,-67.8169,2286.7,monload-611_runway,,,,,,,,2.4,,,0.9527916666666666
136,0.0,,112.025,,0.0,38.738,112.027,38.738,-67.9734,2279.17,monload-611_runway,,,,,,,,2.4,,,0.9496541666666667
137,0.0,,111.515,,0.0,37.433,111.516,37.433,-68.4842,2255.78,monload-611_runway,,,,,,,,2.4,,,0.9399083333333335
138,0.0,,111.319,,0.0,42.2203,111.31299999999999,42.2203,-68.6867,2245.95,monload-611_runway,,,,,,,,2.4,,,0.9358124999999999
139,0.0,,112.28299999999999,,0.0,49.9773,112.26700000000001,49.9773,-67.7331,2285.03,monload-611_runway,,,,,,,,2.4,,,0.9520958333333334
140,0.0,,112.31299999999999,,0.0,52.678000000000004,112.307,52.678000000000004,-67.6929,2286.37,monload-611_runway,,,,,,,,2.4,,,0.9526541666666666
141,0.0,,113.04,,0.0,57.1881,113.038,57.1881,-66.9618,2316.05,monload-611_runway,,,,,,,,2.4,,,0.9650208333333334
142,0.0,,113.641,,0.0,51.6617,113.64,51.6617,-66.3599,2340.94,monload-611_runway,,,,,,,,2.4,,,0.9753916666666667
143,0.0,,114.23,,0.0,37.0848,114.234,37.0848,-65.7661,2363.84,monload-611_runway,,,,,,,,2.4,,,0.9849333333333334
144,0.0,,114.575,,0.0,25.3175,114.572,25.3175,-65.4278,2377.75,monload-611_runway,,,,,,,,2.4,,,0.9907291666666667
145,0.0,,114.715,,0.0,23.1146,114.714,23.1146,-65.286,2383.41,monload-611_runway,,,,,,,,2.4,,,0.9930874999999999
146,0.0,,114.705,,0.0,22.7156,114.706,22.7156,-65.2943,2383.03,monload-611_runway,,,,,,,,2.4,,,0.9929291666666668
147,0.0,,114.77,,0.0,19.4987,114.774,19.4987,-65.2264,2385.53,monload-611_runway,,,,,,,,2.4,,,0.9939708333333335
148,0.0,,114.78200000000001,,0.0,19.1538,114.781,19.1538,-65.219,2386.0,monload-611_runway,,,,,,,,2.4,,,0.9941666666666666
149,0.0,,114.625,,0.0,19.44,114.626,19.44,-65.374,2379.85,monload-611_runway,,,,,,,,2.4,,,0.9916041666666666
150,0.0,,114.541,,0.0,20.7921,114.542,20.7921,-65.4584,2376.39,monload-611_runway,,,,,,,,2.4,,,0.9901625
151,0.0,,114.331,,0.0,30.6613,114.329,30.6613,-65.6711,2369.18,monload-611_runway,,,,,,,,2.4,,,0.9871583333333332
152,0.0,,112.977,,0.0,32.5578,112.98,32.5578,-67.0197,2312.95,monload-611_runway,,,,,,,,2.4,,,0.9637291666666666
153,0.0,,113.162,,0.0,45.5458,113.15700000000001,45.5458,-66.8425,2321.85,monload-611_runway,,,,,,,,2.4,,,0.9674375
154,0.0,,112.70200000000001,,0.0,40.6198,112.704,40.6198,-67.2964,2303.24,monload-611_runway,,,,,,,,2.4,,,0.9596833333333332
155,0.0,,114.404,,0.0,31.8176,114.40799999999999,31.8176,-65.5916,2376.32,monload-611_runway,,,,,,,,2.4,,,0.9901333333333334
156,0.0,,114.77,,0.0,31.3428,114.76899999999999,31.3428,-65.2309,2391.68,monload-611_runway,,,,,,,,2.4,,,0.9965333333333333
157,0.0,,114.555,,0.0,32.0281,114.559,32.0281,-65.441,2381.97,monload-611_runway,,,,,,,,2.4,,,0.9924875
158,0.0,,114.49799999999999,,0.0,31.7662,114.499,31.7662,-65.5012,2379.43,monload-611_runway,,,,,,,,2.4,,,0.9914291666666666
159,0.0,,114.03200000000001,,0.0,32.0361,114.03299999999999,32.0361,-65.9668,2359.9,monload-611_runway,,,,,,,,2.4,,,0.9832916666666667
160,0.0,,114.197,,0.0,33.0122,114.196,33.0122,-65.8038,2365.35,monload-611_runway,,,,,,,,2.4,,,0.9855625
161,0.0,,113.44,,0.0,33.2851,113.43799999999999,33.2851,-66.5615,2332.91,monload-611_runway,,,,,,,,2.4,,,0.9720458333333333
162,0.0,,113.59100000000001,,0.0,36.5459,113.59200000000001,36.5459,-66.4084,2339.04,monload-611_runway,,,,,,,,2.4,,,0.9746
163,0.0,,113.412,,0.0,47.5561,113.414,47.5561,-66.5864,2331.49,monload-611_runway,,,,,,,,2.4,,,0.9714541666666666
164,0.0,,113.43799999999999,,0.0,49.2997,113.43799999999999,49.2997,-66.5624,2332.65,monload-611_runway,,,,,,,,2.4,,,0.9719375
165,0.0,,114.03,,0.0,51.8892,114.025,51.8892,-65.9753,2356.45,monload-611_runway,,,,,,,,2.4,,,0.9818541666666666
166,0.0,,113.694,,0.0,51.0972,113.697,51.0972,-66.3025,2342.07,monload-611_runway,,,,,,,,2.4,,,0.9758625000000001
167,0.0,,114.163,,0.0,40.8171,114.15799999999999,40.8171,-65.842,2361.1,monload-611_runway,,,,,,,,2.4,,,0.9837916666666666
168,0.0,,114.537,,0.0,27.8677,114.53299999999999,27.8677,-65.4671,2376.19,monload-611_runway,,,,,,,,2.4,,,0.9900791666666667
169,0.0,,114.806,,0.0,23.6005,114.803,23.6005,-65.1966,2386.96,monload-611_runway,,,,,,,,2.4,,,0.9945666666666667
