hour,t(sec),V1,VAngle1,V2,VAngle2,I1,IAngle1,I2,IAngle2,V3,Name,VAngle3,I3,IAngle3,V4,VAngle4,I4,IAngle4,kv,V1(PU),V2(PU),V3(PU)
1,0.0,,115.369,,0.0,20.2518,115.369,20.2518,-64.6315,2408.18,monload-611_runway,,,,,,,,2.4,,,1.0034083333333332
2,0.0,,115.329,,0.0,21.49,115.329,21.49,-64.6708,2406.51,monload-611_runway,,,,,,,,2.4,,,1.0027125000000001
3,0.0,,115.495,,0.0,18.735,115.494,18.735,-64.5059,2413.49,monload-611_runway,,,,,,,,2.4,,,1.0056208333333332
4,0.0,,115.501,,0.0,18.1696,115.501,18.1696,-64.4991,2413.75,monload-611_runway,,,,,,,,2.4,,,1.0057291666666666
5,0.0,,115.562,,0.0,18.3433,115.557,18.3433,-64.4433,2416.63,monload-611_runway,,,,,,,,2.4,,,1.0069291666666667
6,0.0,,115.265,,0.0,19.8621,115.266,19.8621,-64.7339,2404.31,monload-611_runway,,,,,,,,2.4,,,1.0017958333333332
7,0.0,,114.605,,0.0,29.8483,114.608,29.8483,-65.3916,2378.25,monload-611_runway,,,,,,,,2.4,,,0.9909375
8,0.0,,114.577,,0.0,31.8618,114.578,31.8618,-65.4218,2377.07,monload-611_runway,,,,,,,,2.4,,,0.9904458333333334
9,0.0,,114.323,,0.0,44.0268,114.324,44.0268,-65.6758,2367.78,monload-611_runway,,,,,,,,2.4,,,0.9865750000000001
10,0.0,,114.367,,0.0,37.8158,114.366,37.8158,-65.6344,2369.28,monload-611_runway,,,,,,,,2.4,,,0.9872000000000001
11,0.0,,114.661,,0.0,26.7204,114.66,26.7204,-65.3401,2381.28,monload-611_runway,,,,,,,,2.4,,,0.9922000000000001
12,0.0,,115.107,,0.0,25.0426,115.102,25.0426,-64.8978,2400.12,monload-611_runway,,,,,,,,2.4,,,1.0000499999999999
13,0.0,,114.67,,0.0,24.9564,114.675,24.9564,-65.3254,2381.26,monload-611_runway,,,,,,,,2.4,,,0.9921916666666668
14,0.0,,114.926,,0.0,24.9959,114.928,24.9959,-65.0719,2392.23,monload-611_runway,,,,,,,,2.4,,,0.9967625
15,0.0,,114.985,,0.0,24.9268,114.98,24.9268,-65.02,2394.68,monload-611_runway,,,,,,,,2.4,,,0.9977833333333332
16,0.0,,115.205,,0.0,24.7866,115.203,24.7866,-64.7974,2403.87,monload-611_runway,,,,,,,,2.4,,,1.0016125
17,0.0,,114.734,,0.0,25.989,114.738,25.989,-65.2619,2383.87,monload-611_runway,,,,,,,,2.4,,,0.9932791666666666
18,0.0,,114.489,,0.0,31.4301,114.491,31.4301,-65.5089,2373.35,monload-611_runway,,,,,,,,2.4,,,0.9888958333333333
19,0.0,,114.305,,0.0,43.1551,114.306,43.1551,-65.6943,2365.81,monload-611_runway,,,,,,,,2.4,,,0.9857541666666666
20,0.0,,114.294,,0.0,45.3034,114.294,45.3034,-65.7056,2365.41,monload-611_runway,,,,,,,,2.4,,,0.9855875
21,0.0,,114.402,,0.0,47.8087,114.401,47.8087,-65.5989,2369.64,monload-611_runway,,,,,,,,2.4,,,0.98735
22,0.0,,114.679,,0.0,46.4444,114.677,46.4444,-65.3229,2381.2,monload-611_runway,,,,,,,,2.4,,,0.9921666666666666
23,0.0,,114.965,,0.0,35.6973,114.964,35.6973,-65.0362,2392.31,monload-611_runway,,,,,,,,2.4,,,0.9967958333333333
24,0.0,,115.524,,0.0,22.9122,115.521,22.9122,-64.4788,2414.95,monload-611_runway,,,,,,,,2.4,,,1.0062291666666665
25,0.0,,115.421,,0.0,18.6667,115.422,18.6667,-64.5781,2410.53,monload-611_runway,,,,,,,,2.4,,,1.0043875
26,0.0,,115.436,,0.0,17.8494,115.435,17.8494,-64.5654,2411.09,monload-611_runway,,,,,,,,2.4,,,1.0046208333333333
27,0.0,,115.458,,0.0,16.9263,115.456,16.9263,-64.5436,2411.96,monload-611_runway,,,,,,,,2.4,,,1.0049833333333333
28,0.0,,115.464,,0.0,17.0116,115.463,17.0116,-64.5368,2412.18,monload-611_runway,,,,,,,,2.4,,,1.005075
29,0.0,,114.872,,0.0,17.6802,114.876,17.6802,-65.124,2389.11,monload-611_runway,,,,,,,,2.4,,,0.9954625
30,0.0,,114.778,,0.0,21.26,114.778,21.26,-65.2216,2385.56,monload-611_runway,,,,,,,,2.4,,,0.9939833333333333
31,0.0,,113.515,,0.0,33.1809,113.513,33.1809,-66.4865,2336.02,monload-611_runway,,,,,,,,2.4,,,0.9733416666666667
32,0.0,,112.801,,0.0,34.8528,112.802,34.8528,-67.1979,2307.2,monload-611_runway,,,,,,,,2.4,,,0.9613333333333333
33,0.0,,112.94,,0.0,30.7756,112.938,30.7756,-67.0623,2313.71,monload-611_runway,,,,,,,,2.4,,,0.9640458333333334
34,0.0,,112.161,,0.0,31.0977,112.161,31.0977,-67.8388,2280.69,monload-611_runway,,,,,,,,2.4,,,0.9502875000000001
35,0.0,,112.444,,0.0,25.135,112.449,25.135,-67.5506,2293.2,monload-611_runway,,,,,,,,2.4,,,0.9554999999999999
36,0.0,,112.495,,0.0,26.0047,112.494,26.0047,-67.5065,2295.3,monload-611_runway,,,,,,,,2.4,,,0.9563750000000001
37,0.0,,113.01,,0.0,26.4116,113.012,26.4116,-66.9877,2318.17,monload-611_runway,,,,,,,,2.4,,,0.9659041666666667
38,0.0,,112.09,,0.0,25.3505,112.09,25.3505,-67.9104,2277.9,monload-611_runway,,,,,,,,2.4,,,0.949125
39,0.0,,113.519,,0.0,24.5082,113.513,24.5082,-66.4868,2340.33,monload-611_runway,,,,,,,,2.4,,,0.9751375
40,0.0,,112.853,,0.0,24.748,112.851,24.748,-67.149,2311.66,monload-611_runway,,,,,,,,2.4,,,0.9631916666666666
41,0.0,,112.531,,0.0,25.8685,112.532,25.8685,-67.468,2297.42,monload-611_runway,,,,,,,,2.4,,,0.9572583333333333
42,0.0,,112.134,,0.0,31.6613,112.136,31.6613,-67.8639,2279.76,monload-611_runway,,,,,,,,2.4,,,0.9499000000000001
43,0.0,,113.325,,0.0,38.7986,113.323,38.7986,-66.6771,2327.93,monload-611_runway,,,,,,,,2.4,,,0.9699708333333332
44,0.0,,113.313,,0.0,41.1781,113.314,41.1781,-66.6859,2327.48,monload-611_runway,,,,,,,,2.4,,,0.9697833333333333
45,0.0,,113.608,,0.0,45.1231,113.605,45.1231,-66.3953,2338.23,monload-611_runway,,,,,,,,2.4,,,0.9742625
46,0.0,,113.553,,0.0,42.3023,113.552,42.3023,-66.4481,2335.21,monload-611_runway,,,,,,,,2.4,,,0.9730041666666667
47,0.0,,114.489,,0.0,30.8497,114.488,30.8497,-65.5118,2372.88,monload-611_runway,,,,,,,,2.4,,,0.9887
48,0.0,,114.814,,0.0,21.1497,114.81,21.1497,-65.1896,2385.97,monload-611_runway,,,,,,,,2.4,,,0.9941541666666666
49,0.0,,115.241,,0.0,18.8942,115.239,18.8942,-64.7614,2403.71,monload-611_runway,,,,,,,,2.4,,,1.0015458333333334
50,0.0,,115.187,,0.0,18.3946,115.191,18.3946,-64.809,2401.32,monload-611_runway,,,,,,,,2.4,,,1.00055
51,0.0,,115.447,,0.0,17.8874,115.446,17.8874,-64.5544,2412.03,monload-611_runway,,,,,,,,2.4,,,1.0050125
52,0.0,,115.232,,0.0,18.4384,115.233,18.4384,-64.7673,2403.05,monload-611_runway,,,,,,,,2.4,,,1.0012708333333333
53,0.0,,114.625,,0.0,19.6598,114.629,19.6598,-65.3712,2379.3,monload-611_runway,,,,,,,,2.4,,,0.9913750000000001
54,0.0,,114.461,,0.0,23.9779,114.462,23.9779,-65.5383,2372.84,monload-611_runway,,,,,,,,2.4,,,0.9886833333333334
55,0.0,,113.211,,0.0,35.7182,113.209,35.7182,-66.7907,2323.55,monload-611_runway,,,,,,,,2.4,,,0.9681458333333334
56,0.0,,112.509,,0.0,35.9782,112.511,35.9782,-67.4894,2295.13,monload-611_runway,,,,,,,,2.4,,,0.9563041666666667
57,0.0,,112.165,,0.0,31.5574,112.167,31.5574,-67.8333,2280.88,monload-611_runway,,,,,,,,2.4,,,0.9503666666666667
58,0.0,,112.574,,0.0,31.2533,112.571,31.2533,-67.4286,2299.57,monload-611_runway,,,,,,,,2.4,,,0.9581541666666668
59,0.0,,113.256,,0.0,24.7817,113.253,24.7817,-66.7466,2328.57,monload-611_runway,,,,,,,,2.4,,,0.9702375000000001
60,0.0,,112.904,,0.0,25.9092,112.903,25.9092,-67.097,2312.99,monload-611_runway,,,,,,,,2.4,,,0.9637458333333332
61,0.0,,113.207,,0.0,27.1001,113.206,27.1001,-66.794,2325.81,monload-611_runway,,,,,,,,2.4,,,0.9690875
62,0.0,,112.97,,0.0,27.5835,112.975,27.5835,-67.025,2316.21,monload-611_runway,,,,,,,,2.4,,,0.9650875
63,0.0,,113.059,,0.0,27.9419,113.057,27.9419,-66.9426,2319.99,monload-611_runway,,,,,,,,2.4,,,0.9666624999999999
64,0.0,,112.956,,0.0,28.0794,112.958,28.0794,-67.0421,2315.49,monload-611_runway,,,,,,,,2.4,,,0.9647874999999999
65,0.0,,112.792,,0.0,28.5183,112.79,28.5183,-67.2099,2308.32,monload-611_runway,,,,,,,,2.4,,,0.9618000000000001
66,0.0,,112.257,,0.0,32.6003,112.256,32.6003,-67.7444,2284.7,monload-611_runway,,,,,,,,2.4,,,0.9519583333333332
67,0.0,,113.573,,0.0,38.728,113.571,38.728,-66.4295,2337.92,monload-611_runway,,,,,,,,2.4,,,0.9741333333333334
68,0.0,,113.144,,0.0,40.8709,113.145,40.8709,-66.8549,2319.5,monload-611_runway,,,,,,,,2.4,,,0.9664583333333333
69,0.0,,113.862,,0.0,44.806,113.862,44.806,-66.1385,2348.46,monload-611_runway,,,,,,,,2.4,,,0.978525
70,0.0,,114.19,,0.0,41.9513,114.186,41.9513,-65.8141,2361.82,monload-611_runway,,,,,,,,2.4,,,0.9840916666666667
71,0.0,,114.903,,0.0,30.874,114.896,30.874,-65.104,2389.88,monload-611_runway,,,,,,,,2.4,,,0.9957833333333334
72,0.0,,115.194,,0.0,21.1947,115.191,21.1947,-64.8089,2401.5,monload-611_runway,,,,,,,,2.4,,,1.000625
73,0.0,,115.566,,0.0,18.5785,115.562,18.5785,-64.4376,2416.73,monload-611_runway,,,,,,,,2.4,,,1.0069708333333334
74,0.0,,115.375,,0.0,17.7129,115.377,17.7129,-64.623,2408.68,monload-611_runway,,,,,,,,2.4,,,1.0036166666666666
75,0.0,,115.4,,0.0,16.7422,115.397,16.7422,-64.603,2409.7,monload-611_runway,,,,,,,,2.4,,,1.0040416666666665
76,0.0,,115.396,,0.0,16.8093,115.397,16.8093,-64.6032,2409.55,monload-611_runway,,,,,,,,2.4,,,1.0039791666666666
77,0.0,,114.959,,0.0,17.5128,114.964,17.5128,-65.0365,2392.91,monload-611_runway,,,,,,,,2.4,,,0.9970458333333333
78,0.0,,114.662,,0.0,20.9229,114.666,20.9229,-65.3342,2380.66,monload-611_runway,,,,,,,,2.4,,,0.9919416666666666
79,0.0,,113.06,,0.0,32.7171,113.063,32.7171,-66.9367,2316.64,monload-611_runway,,,,,,,,2.4,,,0.9652666666666666
80,0.0,,112.288,,0.0,34.9942,112.29,34.9942,-67.71,2285.24,monload-611_runway,,,,,,,,2.4,,,0.9521833333333333
81,0.0,,112.821,,0.0,30.82,112.819,30.82,-67.1806,2309.19,monload-611_runway,,,,,,,,2.4,,,0.9621625
82,0.0,,113.431,,0.0,30.1071,113.428,30.1071,-66.5724,2336.36,monload-611_runway,,,,,,,,2.4,,,0.9734833333333334
83,0.0,,113.996,,0.0,23.08,114.0,23.08,-66.0,2360.61,monload-611_runway,,,,,,,,2.4,,,0.9835875000000001
84,0.0,,114.432,,0.0,23.6213,114.43,23.6213,-65.5697,2379.4,monload-611_runway,,,,,,,,2.4,,,0.9914166666666667
85,0.0,,114.757,,0.0,24.733,114.756,24.733,-65.2437,2392.67,monload-611_runway,,,,,,,,2.4,,,0.9969458333333333
86,0.0,,114.847,,0.0,26.0612,114.845,26.0612,-65.1546,2396.95,monload-611_runway,,,,,,,,2.4,,,0.9987291666666666
87,0.0,,114.294,,0.0,26.4039,114.296,26.4039,-65.7041,2374.09,monload-611_runway,,,,,,,,2.4,,,0.9892041666666668
88,0.0,,113.443,,0.0,26.3335,113.446,26.3335,-66.5537,2338.06,monload-611_runway,,,,,,,,2.4,,,0.9741916666666667
89,0.0,,112.683,,0.0,27.5633,112.685,27.5633,-67.3149,2305.06,monload-611_runway,,,,,,,,2.4,,,0.9604416666666666
90,0.0,,112.016,,0.0,33.7547,112.017,33.7547,-67.9831,2275.43,monload-611_runway,,,,,,,,2.4,,,0.9480958333333332
91,0.0,,113.062,,0.0,41.4629,113.06,41.4629,-66.94,2317.28,monload-611_runway,,,,,,,,2.4,,,0.9655333333333335
92,0.0,,113.067,,0.0,44.545,113.066,44.545,-66.9344,2317.53,monload-611_runway,,,,,,,,2.4,,,0.9656375
93,0.0,,113.371,,0.0,49.2734,113.367,49.2734,-66.6328,2328.77,monload-611_runway,,,,,,,,2.4,,,0.9703208333333333
94,0.0,,113.729,,0.0,46.4184,113.725,46.4184,-66.275,2343.43,monload-611_runway,,,,,,,,2.4,,,0.9764291666666666
95,0.0,,114.493,,0.0,34.3923,114.486,34.3923,-65.5138,2373.86,monload-611_runway,,,,,,,,2.4,,,0.9891083333333334
96,0.0,,114.799,,0.0,24.0131,114.796,24.0131,-65.2042,2386.12,monload-611_runway,,,,,,,,2.4,,,0.9942166666666666
97,0.0,,114.949,,0.0,21.7964,114.948,21.7964,-65.0525,2392.16,monload-611_runway,,,,,,,,2.4,,,0.9967333333333332
98,0.0,,115.208,,0.0,20.8093,115.206,20.8093,-64.7942,2402.95,monload-611_runway,,,,,,,,2.4,,,1.0012291666666666
99,0.0,,115.028,,0.0,19.5335,115.029,19.5335,-64.9705,2395.29,monload-611_runway,,,,,,,,2.4,,,0.9980375
100,0.0,,115.072,,0.0,19.3539,115.067,19.3539,-64.9327,2397.04,monload-611_runway,,,,,,,,2.4,,,0.9987666666666667
101,0.0,,114.541,,0.0,19.795,114.546,19.795,-65.4537,2376.15,monload-611_runway,,,,,,,,2.4,,,0.9900625000000001
102,0.0,,114.438,,0.0,23.6849,114.439,23.6849,-65.5609,2372.26,monload-611_runway,,,,,,,,2.4,,,0.9884416666666668
103,0.0,,112.579,,0.0,38.4226,112.583,38.4226,-67.4165,2297.1,monload-611_runway,,,,,,,,2.4,,,0.957125
104,0.0,,111.812,,0.0,42.4156,111.809,42.4156,-68.191,2265.51,monload-611_runway,,,,,,,,2.4,,,0.9439625
105,0.0,,112.179,,0.0,39.7651,112.177,39.7651,-67.8226,2282.81,monload-611_runway,,,,,,,,2.4,,,0.9511708333333333
106,0.0,,112.592,,0.0,42.459,112.589,42.459,-67.4109,2302.44,monload-611_runway,,,,,,,,2.4,,,0.95935
107,0.0,,112.95,,0.0,36.7749,112.952,36.7749,-67.0475,2318.29,monload-611_runway,,,,,,,,2.4,,,0.9659541666666667
108,0.0,,113.673,,0.0,34.924,113.669,34.924,-66.3307,2349.01,monload-611_runway,,,,,,,,2.4,,,0.9787541666666667
109,0.0,,114.143,,0.0,35.3309,114.141,35.3309,-65.859,2368.01,monload-611_runway,,,,,,,,2.4,,,0.9866708333333334
110,0.0,,114.23,,0.0,36.1511,114.228,36.1511,-65.7717,2372.01,monload-611_runway,,,,,,,,2.4,,,0.9883375000000001
111,0.0,,113.718,,0.0,36.557,113.72,36.557,-66.2797,2350.43,monload-611_runway,,,,,,,,2.4,,,0.9793458333333332
112,0.0,,112.967,,0.0,35.8436,112.964,35.8436,-67.0364,2318.16,monload-611_runway,,,,,,,,2.4,,,0.9659
113,0.0,,112.2,,0.0,37.3236,112.199,37.3236,-67.8012,2284.06,monload-611_runway,,,,,,,,2.4,,,0.9516916666666666
114,0.0,,111.943,,0.0,42.191,111.942,42.191,-68.058,2271.71,monload-611_runway,,,,,,,,2.4,,,0.9465458333333333
115,0.0,,113.161,,0.0,48.2942,113.159,48.2942,-66.8412,2320.78,monload-611_runway,,,,,,,,2.4,,,0.9669916666666668
116,0.0,,113.199,,0.0,50.8826,113.193,50.8826,-66.8073,2322.45,monload-611_runway,,,,,,,,2.4,,,0.9676874999999999
117,0.0,,113.5,,0.0,55.1034,113.497,55.1034,-66.503,2333.5,monload-611_runway,,,,,,,,2.4,,,0.9722916666666667
118,0.0,,113.865,,0.0,52.4571,113.861,52.4571,-66.1387,2348.52,monload-611_runway,,,,,,,,2.4,,,0.97855
119,0.0,,114.645,,0.0,40.733,114.638,40.733,-65.3623,2379.51,monload-611_runway,,,,,,,,2.4,,,0.9914625000000001
120,0.0,,115.198,,0.0,29.5798,115.193,29.5798,-64.8068,2402.1,monload-611_runway,,,,,,,,2.4,,,1.000875
121,0.0,,115.196,,0.0,25.8806,115.198,25.8806,-64.8023,2401.64,monload-611_runway,,,,,,,,2.4,,,1.0006833333333334
122,0.0,,115.235,,0.0,24.5759,115.231,24.5759,-64.7691,2403.22,monload-611_runway,,,,,,,,2.4,,,1.0013416666666666
123,0.0,,115.494,,0.0,22.9971,115.491,22.9971,-64.5088,2413.92,monload-611_runway,,,,,,,,2.4,,,1.0058
124,0.0,,115.292,,0.0,22.3842,115.294,22.3842,-64.7064,2405.47,monload-611_runway,,,,,,,,2.4,,,1.0022791666666666
125,0.0,,114.693,,0.0,22.8134,114.699,22.8134,-65.3012,2382.02,monload-611_runway,,,,,,,,2.4,,,0.9925083333333333
126,0.0,,114.659,,0.0,26.7316,114.661,26.7316,-65.3388,2380.9,monload-611_runway,,,,,,,,2.4,,,0.9920416666666667
127,0.0,,112.826,,0.0,41.3038,112.83,41.3038,-67.1703,2307.04,monload-611_runway,,,,,,,,2.4,,,0.9612666666666666
128,0.0,,111.989,,0.0,45.3954,111.981,45.3954,-68.0187,2272.75,monload-611_runway,,,,,,,,2.4,,,0.9469791666666667
129,0.0,,112.308,,0.0,44.0571,112.305,44.0571,-67.6949,2287.73,monload-611_runway,,,,,,,,2.4,,,0.9532208333333333
130,0.0,,112.406,,0.0,44.3574,112.407,44.3574,-67.5932,2293.07,monload-611_runway,,,,,,,,2.4,,,0.9554458333333334
131,0.0,,112.967,,0.0,38.3172,112.964,38.3172,-67.0363,2318.03,monload-611_runway,,,,,,,,2.4,,,0.9658458333333334
132,0.0,,112.536,,0.0,39.0492,112.538,39.0492,-67.4621,2299.37,monload-611_runway,,,,,,,,2.4,,,0.9580708333333333
133,0.0,,113.039,,0.0,39.7514,113.036,39.7514,-66.964,2320.38,monload-611_runway,,,,,,,,2.4,,,0.966825
134,0.0,,113.348,,0.0,40.3209,113.346,40.3209,-66.6535,2334.3,monload-611_runway,,,,,,,,2.4,,,0.9726250000000001
135,0.0,,113.384,,0.0,40.0177,113.378,40.0177,-66.6215,2335.84,monload-611_runway,,,,,,,,2.4,,,0.9732666666666667
136,0.0,,112.708,,0.0,38.751,112.711,38.751,-67.2886,2306.58,monload-611_runway,,,,,,,,2.4,,,0.961075
137,0.0,,112.137,,0.0,37.858,112.139,37.858,-67.8612,2281.18,monload-611_runway,,,,,,,,2.4,,,0.9504916666666666
138,0.0,,111.86,,0.0,42.6603,111.854,42.6603,-68.1459,2268.04,monload-611_runway,,,,,,,,2.4,,,0.9450166666666666
139,0.0,,112.949,,0.0,49.9773,112.947,49.9773,-67.0528,2311.84,monload-611_runway,,,,,,,,2.4,,,0.9632666666666667
140,0.0,,112.977,,0.0,52.678,112.973,52.678,-67.0274,2313.12,monload-611_runway,,,,,,,,2.4,,,0.9638
141,0.0,,113.259,,0.0,57.1881,113.256,57.1881,-66.744,2323.45,monload-611_runway,,,,,,,,2.4,,,0.9681041666666665
142,0.0,,113.81,,0.0,51.6617,113.805,51.6617,-66.1952,2346.17,monload-611_runway,,,,,,,,2.4,,,0.9775708333333334
143,0.0,,114.774,,0.0,37.0848,114.766,37.0848,-65.2337,2384.81,monload-611_runway,,,,,,,,2.4,,,0.9936708333333333
144,0.0,,115.117,,0.0,25.3175,115.114,25.3175,-64.8858,2398.52,monload-611_runway,,,,,,,,2.4,,,0.9993833333333333
145,0.0,,115.255,,0.0,23.1146,115.254,23.1146,-64.7458,2404.07,monload-611_runway,,,,,,,,2.4,,,1.0016958333333335
146,0.0,,115.462,,0.0,22.7156,115.46,22.7156,-64.5402,2412.74,monload-611_runway,,,,,,,,2.4,,,1.0053083333333332
147,0.0,,115.31,,0.0,19.4987,115.31,19.4987,-64.6896,2406.15,monload-611_runway,,,,,,,,2.4,,,1.0025625
148,0.0,,115.322,,0.0,19.1538,115.321,19.1538,-64.6789,2406.62,monload-611_runway,,,,,,,,2.4,,,1.0027583333333332
149,0.0,,115.167,,0.0,19.44,115.168,19.44,-64.8322,2400.63,monload-611_runway,,,,,,,,2.4,,,1.0002625
150,0.0,,115.292,,0.0,20.7921,115.291,20.7921,-64.7091,2405.91,monload-611_runway,,,,,,,,2.4,,,1.0024625
151,0.0,,114.545,,0.0,30.6613,114.549,30.6613,-65.4508,2376.26,monload-611_runway,,,,,,,,2.4,,,0.9901083333333335
152,0.0,,113.938,,0.0,32.5578,113.938,32.5578,-66.0617,2352.15,monload-611_runway,,,,,,,,2.4,,,0.9800625000000001
153,0.0,,114.049,,0.0,45.5458,114.047,45.5458,-65.9528,2357.68,monload-611_runway,,,,,,,,2.4,,,0.9823666666666666
154,0.0,,113.606,,0.0,40.6198,113.607,40.6198,-66.3931,2340.07,monload-611_runway,,,,,,,,2.4,,,0.9750291666666667
155,0.0,,115.085,,0.0,31.8176,115.088,31.8176,-64.912,2402.72,monload-611_runway,,,,,,,,2.4,,,1.0011333333333332
156,0.0,,115.433,,0.0,31.3428,115.427,31.3428,-64.5726,2417.13,monload-611_runway,,,,,,,,2.4,,,1.0071375
157,0.0,,115.229,,0.0,32.0281,115.232,32.0281,-64.7676,2408.05,monload-611_runway,,,,,,,,2.4,,,1.0033541666666668
158,0.0,,115.608,,0.0,31.7662,115.604,31.7662,-64.3964,2423.52,monload-611_runway,,,,,,,,2.4,,,1.0098
159,0.0,,115.167,,0.0,32.0361,115.172,32.0361,-64.828,2405.37,monload-611_runway,,,,,,,,2.4,,,1.0022375
160,0.0,,114.376,,0.0,33.0122,114.374,33.0122,-65.6256,2370.86,monload-611_runway,,,,,,,,2.4,,,0.9878583333333334
161,0.0,,114.184,,0.0,33.2851,114.186,33.2851,-65.8142,2362.58,monload-611_runway,,,,,,,,2.4,,,0.9844083333333333
162,0.0,,113.807,,0.0,36.5459,113.807,36.5459,-66.1934,2346.22,monload-611_runway,,,,,,,,2.4,,,0.9775916666666666
163,0.0,,114.052,,0.0,47.5561,114.054,47.5561,-65.9465,2356.77,monload-611_runway,,,,,,,,2.4,,,0.9819875
164,0.0,,113.657,,0.0,49.2997,113.661,49.2997,-66.3389,2339.97,monload-611_runway,,,,,,,,2.4,,,0.9749874999999999
165,0.0,,114.245,,0.0,51.8892,114.239,51.8892,-65.7607,2363.51,monload-611_runway,,,,,,,,2.4,,,0.9847958333333334
166,0.0,,114.251,,0.0,51.0972,114.251,51.0972,-65.749,2363.76,monload-611_runway,,,,,,,,2.4,,,0.9849000000000001
167,0.0,,114.709,,0.0,40.8171,114.705,40.8171,-65.2953,2382.16,monload-611_runway,,,,,,,,2.4,,,0.9925666666666666
168,0.0,,115.079,,0.0,27.8677,115.076,27.8677,-64.9245,2396.98,monload-611_runway,,,,,,,,2.4,,,0.9987416666666666
169,0.0,,115.344,,0.0,23.6005,115.342,23.6005,-64.6579,2407.51,monload-611_runway,,,,,,,,2.4,,,1.0031291666666668
170,0.0,,115.366,,0.0,23.0303,115.364,23.0303,-64.6361,2408.4,monload-611_runway,,,,,,,,2.4,,,1.0035
171,0.0,,115.662,,0.0,19.8099,115.659,19.8099,-64.341,2420.5,monload-611_runway,,,,,,,,2.4,,,1.0085416666666667
172,0.0,,115.451,,0.0,19.6465,115.453,19.6465,-64.5469,2411.73,monload-611_runway,,,,,,,,2.4,,,1.0048875
173,0.0,,115.277,,0.0,20.1694,115.279,20.1694,-64.7212,2404.91,monload-611_runway,,,,,,,,2.4,,,1.0020458333333333
174,0.0,,115.18,,0.0,21.5583,115.181,21.5583,-64.8189,2400.95,monload-611_runway,,,,,,,,2.4,,,1.0003958333333332
175,0.0,,114.509,,0.0,31.2002,114.515,31.2002,-65.4851,2374.39,monload-611_runway,,,,,,,,2.4,,,0.9893291666666666
176,0.0,,114.48,,0.0,33.3904,114.483,33.3904,-65.517,2373.18,monload-611_runway,,,,,,,,2.4,,,0.988825
177,0.0,,114.491,,0.0,49.5935,114.491,49.5935,-65.5086,2375.52,monload-611_runway,,,,,,,,2.4,,,0.9898
178,0.0,,114.545,,0.0,48.4258,114.547,48.4258,-65.4526,2378.02,monload-611_runway,,,,,,,,2.4,,,0.9908416666666666
179,0.0,,114.263,,0.0,39.6712,114.266,39.6712,-65.7335,2365.22,monload-611_runway,,,,,,,,2.4,,,0.9855083333333332
180,0.0,,114.494,,0.0,38.1499,114.496,38.1499,-65.5042,2375.14,monload-611_runway,,,,,,,,2.4,,,0.9896416666666666
