hour,t(sec),V1,VAngle1,V2,VAngle2,V3,VAngle3,I1,IAngle1,I2,IAngle2,I3,IAngle3,Name,P1(kW),P2(kW),P3(kW)
1,0.0,2429.38,-2.6205700000000003,,,,,0.0,0.0,,,,,monisource-isource_newbattery675_1_shape,0.0,,
2,0.0,2428.74,-2.64206,,,,,0.0,0.0,,,,,monisource-isource_newbattery675_1_shape,0.0,,
3,0.0,2427.87,-2.65872,,,,,0.0,0.0,,,,,monisource-isource_newbattery675_1_shape,0.0,,
4,0.0,2427.64,-2.66348,,,,,0.0,0.0,,,,,monisource-isource_newbattery675_1_shape,0.0,,
5,0.0,2425.4,-2.7349799999999997,,,,,0.0,0.0,,,,,monisource-isource_newbattery675_1_shape,0.0,,
6,0.0,2425.71,-2.73062,,,,,0.0,0.0,,,,,monisource-isource_newbattery675_1_shape,0.0,,
7,0.0,2418.51,-2.98085,,,,,0.0,0.0,,,,,monisource-isource_newbattery675_1_shape,0.0,,
8,0.0,2422.88,-2.88064,,,,,0.0,0.0,,,,,monisource-isource_newbattery675_1_shape,0.0,,
9,0.0,2419.23,-3.07291,,,,,0.0,0.0,,,,,monisource-isource_newbattery675_1_shape,0.0,,
10,0.0,2422.08,-3.05579,,,,,0.0,0.0,,,,,monisource-isource_newbattery675_1_shape,0.0,,
11,0.0,2415.41,-3.20456,,,,,0.0,0.0,,,,,monisource-isource_newbattery675_1_shape,0.0,,
12,0.0,2415.19,-3.4902900000000003,,,,,0.0,0.0,,,,,monisource-isource_newbattery675_1_shape,0.0,,
13,0.0,2408.5,-3.29399,,,,,0.0,0.0,,,,,monisource-isource_newbattery675_1_shape,0.0,,
14,0.0,2410.21,-3.38205,,,,,0.0,0.0,,,,,monisource-isource_newbattery675_1_shape,0.0,,
15,0.0,2412.09,-3.4583699999999995,,,,,0.0,0.0,,,,,monisource-isource_newbattery675_1_shape,0.0,,
16,0.0,2412.81,-3.4705199999999996,,,,,0.0,0.0,,,,,monisource-isource_newbattery675_1_shape,0.0,,
17,0.0,2411.97,-3.29045,,,,,0.0,0.0,,,,,monisource-isource_newbattery675_1_shape,0.0,,
18,0.0,2413.67,-3.08204,,,,,0.0,0.0,,,,,monisource-isource_newbattery675_1_shape,0.0,,
19,0.0,2413.61,-3.08486,,,,,0.0,0.0,,,,,monisource-isource_newbattery675_1_shape,0.0,,
20,0.0,2415.92,-3.03979,,,,,0.0,0.0,,,,,monisource-isource_newbattery675_1_shape,0.0,,
21,0.0,2419.62,-2.9405099999999997,,,,,0.0,0.0,,,,,monisource-isource_newbattery675_1_shape,0.0,,
22,0.0,2422.79,-2.86845,,,,,0.0,0.0,,,,,monisource-isource_newbattery675_1_shape,0.0,,
23,0.0,2430.48,-2.6543099999999997,,,,,0.0,0.0,,,,,monisource-isource_newbattery675_1_shape,0.0,,
24,0.0,2425.25,-2.7286799999999998,,,,,0.0,0.0,,,,,monisource-isource_newbattery675_1_shape,0.0,,
25,0.0,2427.56,-2.67286,,,,,0.0,0.0,,,,,monisource-isource_newbattery675_1_shape,0.0,,
26,0.0,2428.56,-2.65085,,,,,0.0,0.0,,,,,monisource-isource_newbattery675_1_shape,0.0,,
27,0.0,2428.84,-2.64151,,,,,0.0,0.0,,,,,monisource-isource_newbattery675_1_shape,0.0,,
28,0.0,2429.06,-2.6357,,,,,0.0,0.0,,,,,monisource-isource_newbattery675_1_shape,0.0,,
29,0.0,2423.0,-2.87101,,,,,0.0,0.0,,,,,monisource-isource_newbattery675_1_shape,0.0,,
30,0.0,2422.6,-2.90374,,,,,0.0,0.0,,,,,monisource-isource_newbattery675_1_shape,0.0,,
31,0.0,2405.33,-3.5131699999999997,,,,,0.0,0.0,,,,,monisource-isource_newbattery675_1_shape,0.0,,
32,0.0,2397.5,-3.78807,,,,,0.0,0.0,,,,,monisource-isource_newbattery675_1_shape,0.0,,
33,0.0,2380.8,-4.23639,,,,,0.0,0.0,,,,,monisource-isource_newbattery675_1_shape,0.0,,
34,0.0,2370.98,-4.60352,,,,,0.0,0.0,,,,,monisource-isource_newbattery675_1_shape,0.0,,
35,0.0,2371.12,-4.6906300000000005,,,,,0.0,0.0,,,,,monisource-isource_newbattery675_1_shape,0.0,,
36,0.0,2362.41,-4.5978699999999995,,,,,0.0,0.0,,,,,monisource-isource_newbattery675_1_shape,0.0,,
37,0.0,2374.19,-4.97297,,,,,0.0,0.0,,,,,monisource-isource_newbattery675_1_shape,0.0,,
38,0.0,2366.05,-4.75151,,,,,0.0,0.0,,,,,monisource-isource_newbattery675_1_shape,0.0,,
39,0.0,2373.05,-5.21424,,,,,0.0,0.0,,,,,monisource-isource_newbattery675_1_shape,0.0,,
40,0.0,2370.45,-5.00755,,,,,0.0,0.0,,,,,monisource-isource_newbattery675_1_shape,0.0,,
41,0.0,2367.57,-4.79528,,,,,0.0,0.0,,,,,monisource-isource_newbattery675_1_shape,0.0,,
42,0.0,2375.37,-4.3354099999999995,,,,,0.0,0.0,,,,,monisource-isource_newbattery675_1_shape,0.0,,
43,0.0,2392.44,-3.7616300000000003,,,,,0.0,0.0,,,,,monisource-isource_newbattery675_1_shape,0.0,,
44,0.0,2394.7,-3.7195300000000002,,,,,0.0,0.0,,,,,monisource-isource_newbattery675_1_shape,0.0,,
45,0.0,2406.79,-3.3629800000000003,,,,,0.0,0.0,,,,,monisource-isource_newbattery675_1_shape,0.0,,
46,0.0,2417.52,-3.10126,,,,,0.0,0.0,,,,,monisource-isource_newbattery675_1_shape,0.0,,
47,0.0,2427.99,-2.7549900000000003,,,,,0.0,0.0,,,,,monisource-isource_newbattery675_1_shape,0.0,,
48,0.0,2423.06,-2.8281099999999997,,,,,0.0,0.0,,,,,monisource-isource_newbattery675_1_shape,0.0,,
49,0.0,2426.34,-2.74935,,,,,0.0,0.0,,,,,monisource-isource_newbattery675_1_shape,0.0,,
50,0.0,2427.43,-2.71944,,,,,0.0,0.0,,,,,monisource-isource_newbattery675_1_shape,0.0,,
51,0.0,2427.6,-2.70642,,,,,0.0,0.0,,,,,monisource-isource_newbattery675_1_shape,0.0,,
52,0.0,2427.93,-2.6987400000000004,,,,,0.0,0.0,,,,,monisource-isource_newbattery675_1_shape,0.0,,
53,0.0,2419.84,-2.97979,,,,,0.0,0.0,,,,,monisource-isource_newbattery675_1_shape,0.0,,
54,0.0,2419.8,-3.00811,,,,,0.0,0.0,,,,,monisource-isource_newbattery675_1_shape,0.0,,
55,0.0,2402.47,-3.6066800000000003,,,,,0.0,0.0,,,,,monisource-isource_newbattery675_1_shape,0.0,,
56,0.0,2395.27,-3.86836,,,,,0.0,0.0,,,,,monisource-isource_newbattery675_1_shape,0.0,,
57,0.0,2381.49,-4.41716,,,,,0.0,0.0,,,,,monisource-isource_newbattery675_1_shape,0.0,,
58,0.0,2374.63,-4.91673,,,,,0.0,0.0,,,,,monisource-isource_newbattery675_1_shape,0.0,,
59,0.0,2377.02,-5.0448699999999995,,,,,0.0,0.0,,,,,monisource-isource_newbattery675_1_shape,0.0,,
60,0.0,992.321,-143.80700000000002,,,,,73.5,60.0,,,,,monisource-isource_newbattery675_1_shape,72.9355935,,
61,0.0,1131.34,-144.484,,,,,73.5,60.0,,,,,monisource-isource_newbattery675_1_shape,83.15348999999999,,
62,0.0,1094.42,-143.67600000000002,,,,,73.5,60.0,,,,,monisource-isource_newbattery675_1_shape,80.43987000000001,,
63,0.0,1050.84,-143.69899999999998,,,,,73.5,60.0,,,,,monisource-isource_newbattery675_1_shape,77.23674,,
64,0.0,1026.55,-143.768,,,,,73.5,60.0,,,,,monisource-isource_newbattery675_1_shape,75.451425,,
65,0.0,946.961,-143.86700000000002,,,,,73.5,60.0,,,,,monisource-isource_newbattery675_1_shape,69.60163349999999,,
66,0.0,807.852,-146.952,,,,,61.283,60.0,,,,,monisource-isource_newbattery675_1_shape,49.507594116,,
67,0.0,956.9830000000001,-152.849,,,,,61.0373,60.0,,,,,monisource-isource_newbattery675_1_shape,58.411658465900004,,
68,0.0,829.7239999999999,-153.714,,,,,51.9959,60.0,,,,,monisource-isource_newbattery675_1_shape,43.1422461316,,
69,0.0,885.7860000000001,-157.576,,,,,50.1477,60.0,,,,,monisource-isource_newbattery675_1_shape,44.4201305922,,
70,0.0,802.748,-159.38,,,,,44.0329,60.0,,,,,monisource-isource_newbattery675_1_shape,35.347322409200004,,
71,0.0,859.309,-162.293,,,,,43.9415,60.0,,,,,monisource-isource_newbattery675_1_shape,37.75932642349999,,
72,0.0,847.3439999999999,-162.784,,,,,43.2714,60.0,,,,,monisource-isource_newbattery675_1_shape,36.6657611616,,
73,0.0,851.6569999999999,-163.063,,,,,43.2452,60.0,,,,,monisource-isource_newbattery675_1_shape,36.83007729639999,,
74,0.0,851.943,-163.144,,,,,43.2599,60.0,,,,,monisource-isource_newbattery675_1_shape,36.8549689857,,
75,0.0,851.807,-163.149,,,,,43.2699,60.0,,,,,monisource-isource_newbattery675_1_shape,36.8576037093,,
76,0.0,988.972,-162.297,,,,,50.8033,60.0,,,,,monisource-isource_newbattery675_1_shape,50.2430412076,,
77,0.0,904.2239999999999,-158.533,,,,,50.8302,60.0,,,,,monisource-isource_newbattery675_1_shape,45.96188676479999,,
78,0.0,1182.46,-157.18200000000002,,,,,67.7392,60.0,,,,,monisource-isource_newbattery675_1_shape,80.098894432,,
79,0.0,1059.34,-150.1,,,,,73.5,60.0,,,,,monisource-isource_newbattery675_1_shape,77.86148999999999,,
80,0.0,959.987,-147.011,,,,,73.5,60.0,,,,,monisource-isource_newbattery675_1_shape,70.5590445,,
81,0.0,1063.16,-145.002,,,,,73.5,60.0,,,,,monisource-isource_newbattery675_1_shape,78.14226000000001,,
82,0.0,1207.4,-143.461,,,,,73.5,60.0,,,,,monisource-isource_newbattery675_1_shape,88.74390000000001,,
83,0.0,1543.13,-147.436,,,,,73.5,60.0,,,,,monisource-isource_newbattery675_1_shape,113.420055,,
84,0.0,1643.78,-146.66,,,,,73.5,60.0,,,,,monisource-isource_newbattery675_1_shape,120.81783,,
85,0.0,1731.96,-147.428,,,,,73.5,60.0,,,,,monisource-isource_newbattery675_1_shape,127.29906,,
86,0.0,1649.62,-146.388,,,,,73.5,60.0,,,,,monisource-isource_newbattery675_1_shape,121.24707,,
87,0.0,1548.17,-146.099,,,,,73.5,60.0,,,,,monisource-isource_newbattery675_1_shape,113.790495,,
88,0.0,1208.14,-142.217,,,,,73.5,60.0,,,,,monisource-isource_newbattery675_1_shape,88.79829000000001,,
89,0.0,1035.68,-142.572,,,,,73.5,60.0,,,,,monisource-isource_newbattery675_1_shape,76.12248000000001,,
90,0.0,864.672,-145.262,,,,,66.3547,60.0,,,,,monisource-isource_newbattery675_1_shape,57.3750511584,,
91,0.0,971.9839999999999,-150.615,,,,,65.7527,60.0,,,,,monisource-isource_newbattery675_1_shape,63.910572356799996,,
92,0.0,850.112,-151.615,,,,,56.3471,60.0,,,,,monisource-isource_newbattery675_1_shape,47.90134587519999,,
93,0.0,906.367,-155.312,,,,,54.2474,60.0,,,,,monisource-isource_newbattery675_1_shape,49.1680531958,,
94,0.0,833.1310000000001,-156.905,,,,,48.2332,60.0,,,,,monisource-isource_newbattery675_1_shape,40.1845741492,,
95,0.0,891.779,-159.599,,,,,48.268,60.0,,,,,monisource-isource_newbattery675_1_shape,43.044388772,,
96,0.0,879.045,-159.907,,,,,47.5725,60.0,,,,,monisource-isource_newbattery675_1_shape,41.818368262499995,,
97,0.0,882.4730000000001,-160.19,,,,,47.4218,60.0,,,,,monisource-isource_newbattery675_1_shape,41.84845811140001,,
98,0.0,882.422,-160.321,,,,,47.3377,60.0,,,,,monisource-isource_newbattery675_1_shape,41.7718279094,,
99,0.0,874.633,-160.468,,,,,46.805,60.0,,,,,monisource-isource_newbattery675_1_shape,40.937197565000005,,
100,0.0,994.405,-160.091,,,,,53.4674,60.0,,,,,monisource-isource_newbattery675_1_shape,53.168249896999995,,
101,0.0,934.09,-156.847,,,,,54.3631,60.0,,,,,monisource-isource_newbattery675_1_shape,50.780028079000004,,
102,0.0,1205.78,-155.297,,,,,72.3417,60.0,,,,,monisource-isource_newbattery675_1_shape,87.228175026,,
103,0.0,1012.37,-148.611,,,,,73.5,60.0,,,,,monisource-isource_newbattery675_1_shape,74.40919500000001,,
104,0.0,920.1060000000001,-145.796,,,,,73.5,60.0,,,,,monisource-isource_newbattery675_1_shape,67.62779100000002,,
105,0.0,1034.52,-143.931,,,,,73.5,60.0,,,,,monisource-isource_newbattery675_1_shape,76.03722,,
106,0.0,1177.51,-142.40200000000002,,,,,73.5,60.0,,,,,monisource-isource_newbattery675_1_shape,86.546985,,
107,0.0,1338.5,-142.61700000000002,,,,,73.5,60.0,,,,,monisource-isource_newbattery675_1_shape,98.37975,,
108,0.0,1630.04,-145.929,,,,,73.5,60.0,,,,,monisource-isource_newbattery675_1_shape,119.80794,,
109,0.0,1742.02,-147.129,,,,,73.5,60.0,,,,,monisource-isource_newbattery675_1_shape,128.03847,,
110,0.0,1664.15,-146.30700000000002,,,,,73.5,60.0,,,,,monisource-isource_newbattery675_1_shape,122.315025,,
111,0.0,1572.06,-146.296,,,,,73.5,60.0,,,,,monisource-isource_newbattery675_1_shape,115.54641,,
112,0.0,1232.44,-142.579,,,,,73.5,60.0,,,,,monisource-isource_newbattery675_1_shape,90.58434000000001,,
113,0.0,1070.36,-143.296,,,,,73.5,60.0,,,,,monisource-isource_newbattery675_1_shape,78.67146,,
114,0.0,841.717,-146.735,,,,,61.0617,60.0,,,,,monisource-isource_newbattery675_1_shape,51.3966709389,,
115,0.0,953.216,-152.963,,,,,60.6156,60.0,,,,,monisource-isource_newbattery675_1_shape,57.7797597696,,
116,0.0,826.2710000000001,-153.91299999999998,,,,,51.5095,60.0,,,,,monisource-isource_newbattery675_1_shape,42.56080607450001,,
117,0.0,878.618,-157.857,,,,,49.4102,60.0,,,,,monisource-isource_newbattery675_1_shape,43.412691103600004,,
118,0.0,796.074,-159.836,,,,,43.2362,60.0,,,,,monisource-isource_newbattery675_1_shape,34.419214678799996,,
119,0.0,854.5419999999999,-162.79,,,,,43.2463,60.0,,,,,monisource-isource_newbattery675_1_shape,36.9557796946,,
120,0.0,841.472,-163.27100000000002,,,,,42.5794,60.0,,,,,monisource-isource_newbattery675_1_shape,35.8293728768,,
121,0.0,845.7510000000001,-163.534,,,,,42.5652,60.0,,,,,monisource-isource_newbattery675_1_shape,35.999560465200005,,
122,0.0,845.3760000000001,-163.619,,,,,42.5446,60.0,,,,,monisource-isource_newbattery675_1_shape,35.96618376960001,,
123,0.0,847.872,-163.6,,,,,42.6981,60.0,,,,,monisource-isource_newbattery675_1_shape,36.20252344319999,,
124,0.0,986.544,-162.645,,,,,50.3205,60.0,,,,,monisource-isource_newbattery675_1_shape,49.643387352000005,,
125,0.0,904.898,-158.776,,,,,50.6005,60.0,,,,,monisource-isource_newbattery675_1_shape,45.788291249000004,,
126,0.0,1194.71,-157.237,,,,,68.3286,60.0,,,,,monisource-isource_newbattery675_1_shape,81.632861706,,
127,0.0,1053.07,-149.90200000000002,,,,,73.5,60.0,,,,,monisource-isource_newbattery675_1_shape,77.40064499999998,,
128,0.0,954.8969999999999,-146.85299999999998,,,,,73.5,60.0,,,,,monisource-isource_newbattery675_1_shape,70.1849295,,
129,0.0,1036.01,-144.921,,,,,73.5,60.0,,,,,monisource-isource_newbattery675_1_shape,76.146735,,
130,0.0,1166.42,-143.463,,,,,73.5,60.0,,,,,monisource-isource_newbattery675_1_shape,85.73187000000001,,
131,0.0,1537.2,-147.53,,,,,73.5,60.0,,,,,monisource-isource_newbattery675_1_shape,112.9842,,
132,0.0,1469.67,-147.236,,,,,73.5,60.0,,,,,monisource-isource_newbattery675_1_shape,108.020745,,
133,0.0,1605.0,-148.039,,,,,73.5,60.0,,,,,monisource-isource_newbattery675_1_shape,117.9675,,
134,0.0,1565.31,-146.964,,,,,73.5,60.0,,,,,monisource-isource_newbattery675_1_shape,115.05028499999999,,
135,0.0,1566.26,-146.929,,,,,73.5,60.0,,,,,monisource-isource_newbattery675_1_shape,115.12011,,
136,0.0,1232.72,-143.157,,,,,73.5,60.0,,,,,monisource-isource_newbattery675_1_shape,90.60491999999999,,
137,0.0,1061.17,-143.45600000000002,,,,,73.5,60.0,,,,,monisource-isource_newbattery675_1_shape,77.99599500000001,,
138,0.0,845.2919999999999,-146.903,,,,,61.2749,60.0,,,,,monisource-isource_newbattery675_1_shape,51.7951827708,,
139,0.0,954.298,-152.872,,,,,60.8466,60.0,,,,,monisource-isource_newbattery675_1_shape,58.0657886868,,
140,0.0,827.0369999999999,-153.805,,,,,51.6998,60.0,,,,,monisource-isource_newbattery675_1_shape,42.7576474926,,
141,0.0,879.416,-157.753,,,,,49.5759,60.0,,,,,monisource-isource_newbattery675_1_shape,43.5978396744,,
142,0.0,798.7139999999999,-159.716,,,,,43.483999999999995,60.0,,,,,monisource-isource_newbattery675_1_shape,34.73127957599999,,
143,0.0,857.279,-162.619,,,,,43.5369,60.0,,,,,monisource-isource_newbattery675_1_shape,37.3232700951,,
144,0.0,845.915,-163.04,,,,,42.9965,60.0,,,,,monisource-isource_newbattery675_1_shape,36.37138429749999,,
145,0.0,855.615,-163.161,,,,,43.3722,60.0,,,,,monisource-isource_newbattery675_1_shape,37.109904903,,
146,0.0,854.453,-163.059,,,,,43.4989,60.0,,,,,monisource-isource_newbattery675_1_shape,37.1677656017,,
147,0.0,852.539,-162.99,,,,,43.4532,60.0,,,,,monisource-isource_newbattery675_1_shape,37.0455476748,,
148,0.0,881.987,-162.718,,,,,45.0798,60.0,,,,,monisource-isource_newbattery675_1_shape,39.7597975626,,
149,0.0,863.681,-162.113,,,,,44.9565,60.0,,,,,monisource-isource_newbattery675_1_shape,38.828074876500004,,
150,0.0,955.5419999999999,-161.399,,,,,50.0474,60.0,,,,,monisource-isource_newbattery675_1_shape,47.8223926908,,
151,0.0,988.949,-158.317,,,,,55.5121,60.0,,,,,monisource-isource_newbattery675_1_shape,54.898635782899994,,
152,0.0,919.186,-155.809,,,,,54.743,60.0,,,,,monisource-isource_newbattery675_1_shape,50.31899919800001,,
153,0.0,1261.03,-154.886,,,,,64.1099,60.0,,,,,monisource-isource_newbattery675_1_shape,80.844507197,,
154,0.0,1142.11,-151.22299999999998,,,,,64.4769,60.0,,,,,monisource-isource_newbattery675_1_shape,73.63971225899999,,
155,0.0,1811.15,-155.495,,,,,64.5098,60.0,,,,,monisource-isource_newbattery675_1_shape,116.83692427,,
156,0.0,1828.99,-155.549,,,,,59.3439,60.0,,,,,monisource-isource_newbattery675_1_shape,108.539399661,,
157,0.0,1840.83,-157.664,,,,,58.9794,60.0,,,,,monisource-isource_newbattery675_1_shape,108.571048902,,
158,0.0,1808.21,-158.1,,,,,58.9814,60.0,,,,,monisource-isource_newbattery675_1_shape,106.65075729400002,,
159,0.0,1600.13,-158.186,,,,,54.0813,60.0,,,,,monisource-isource_newbattery675_1_shape,86.53711056899999,,
160,0.0,1179.05,-155.769,,,,,52.273999999999994,60.0,,,,,monisource-isource_newbattery675_1_shape,61.63365969999999,,
161,0.0,1066.43,-156.806,,,,,52.162,60.0,,,,,monisource-isource_newbattery675_1_shape,55.62712166000001,,
162,0.0,937.832,-157.483,,,,,52.6539,60.0,,,,,monisource-isource_newbattery675_1_shape,49.3805123448,,
163,0.0,910.4830000000001,-157.3,,,,,52.2467,60.0,,,,,monisource-isource_newbattery675_1_shape,47.5697321561,,
164,0.0,797.982,-158.27700000000002,,,,,44.9077,60.0,,,,,monisource-isource_newbattery675_1_shape,35.835536261399994,,
165,0.0,867.279,-161.628,,,,,44.8714,60.0,,,,,monisource-isource_newbattery675_1_shape,38.9160229206,,
166,0.0,835.279,-162.278,,,,,43.1764,60.0,,,,,monisource-isource_newbattery675_1_shape,36.0643402156,,
167,0.0,852.0419999999999,-162.923,,,,,43.2242,60.0,,,,,monisource-isource_newbattery675_1_shape,36.8288338164,,
168,0.0,822.547,-163.44,,,,,41.6096,60.0,,,,,monisource-isource_newbattery675_1_shape,34.225851651199996,,
169,0.0,837.648,-164.062,,,,,41.6104,60.0,,,,,monisource-isource_newbattery675_1_shape,34.8548683392,,
170,0.0,836.2489999999999,-164.315,,,,,41.5206,60.0,,,,,monisource-isource_newbattery675_1_shape,34.7215602294,,
171,0.0,836.635,-164.378,,,,,41.5329,60.0,,,,,monisource-isource_newbattery675_1_shape,34.747877791499995,,
172,0.0,870.077,-164.037,,,,,43.3804,60.0,,,,,monisource-isource_newbattery675_1_shape,37.7442882908,,
173,0.0,852.7660000000001,-163.308,,,,,43.4402,60.0,,,,,monisource-isource_newbattery675_1_shape,37.0443255932,,
174,0.0,948.9630000000001,-162.38,,,,,48.7359,60.0,,,,,monisource-isource_newbattery675_1_shape,46.2485658717,,
175,0.0,823.8789999999999,-160.263,,,,,44.7305,60.0,,,,,monisource-isource_newbattery675_1_shape,36.85251960949999,,
176,0.0,915.5210000000001,-161.364,,,,,47.6995,60.0,,,,,monisource-isource_newbattery675_1_shape,43.66989393950001,,
177,0.0,1087.79,-159.029,,,,,47.2771,60.0,,,,,monisource-isource_newbattery675_1_shape,51.42755660899999,,
178,0.0,1546.75,-164.31400000000002,,,,,47.6607,60.0,,,,,monisource-isource_newbattery675_1_shape,73.719187725,,
179,0.0,1006.95,-160.27700000000002,,,,,47.6944,60.0,,,,,monisource-isource_newbattery675_1_shape,48.02587608,,
180,0.0,2426.31,-4.437530000000001,,,,,47.6006,60.0,,,,,monisource-isource_newbattery675_1_shape,115.493811786,,
181,0.0,2411.92,-3.78669,,,,,0.0,0.0,,,,,monisource-isource_newbattery675_1_shape,0.0,,
182,0.0,2413.14,-3.8562800000000004,,,,,0.0,0.0,,,,,monisource-isource_newbattery675_1_shape,0.0,,
183,0.0,2412.59,-3.7456,,,,,0.0,0.0,,,,,monisource-isource_newbattery675_1_shape,0.0,,
184,0.0,2410.61,-3.5810000000000004,,,,,0.0,0.0,,,,,monisource-isource_newbattery675_1_shape,0.0,,
185,0.0,2409.87,-3.39845,,,,,0.0,0.0,,,,,monisource-isource_newbattery675_1_shape,0.0,,
186,0.0,2412.57,-3.15194,,,,,0.0,0.0,,,,,monisource-isource_newbattery675_1_shape,0.0,,
187,0.0,2412.01,-3.1461799999999998,,,,,0.0,0.0,,,,,monisource-isource_newbattery675_1_shape,0.0,,
188,0.0,2414.58,-3.0883,,,,,0.0,0.0,,,,,monisource-isource_newbattery675_1_shape,0.0,,
189,0.0,2418.26,-2.9933,,,,,0.0,0.0,,,,,monisource-isource_newbattery675_1_shape,0.0,,
190,0.0,2421.52,-2.92178,,,,,0.0,0.0,,,,,monisource-isource_newbattery675_1_shape,0.0,,
191,0.0,2429.83,-2.69481,,,,,0.0,0.0,,,,,monisource-isource_newbattery675_1_shape,0.0,,
192,0.0,2425.03,-2.75783,,,,,0.0,0.0,,,,,monisource-isource_newbattery675_1_shape,0.0,,
193,0.0,2427.58,-2.69302,,,,,0.0,0.0,,,,,monisource-isource_newbattery675_1_shape,0.0,,
194,0.0,2428.9,-2.66083,,,,,0.0,0.0,,,,,monisource-isource_newbattery675_1_shape,0.0,,
195,0.0,2429.08,-2.65441,,,,,0.0,0.0,,,,,monisource-isource_newbattery675_1_shape,0.0,,
196,0.0,2429.13,-2.65585,,,,,0.0,0.0,,,,,monisource-isource_newbattery675_1_shape,0.0,,
197,0.0,2423.07,-2.8898900000000003,,,,,0.0,0.0,,,,,monisource-isource_newbattery675_1_shape,0.0,,
198,0.0,2423.37,-2.8940799999999998,,,,,0.0,0.0,,,,,monisource-isource_newbattery675_1_shape,0.0,,
