hour,t(sec),V1,VAngle1,V2,VAngle2,I1,IAngle1,I2,IAngle2,V3,Name,VAngle3,I3,IAngle3,V4,VAngle4,I4,IAngle4,kv,V1(PU),V2(PU),V3(PU)
1,0.0,,114.45100000000001,,0.0,20.2518,114.45200000000001,20.2518,-65.5481,2356.8,monload-611_runway,,,,,,,,2.4,,,0.9820000000000001
2,0.0,,114.425,,0.0,21.49,114.427,21.49,-65.57300000000001,2355.86,monload-611_runway,,,,,,,,2.4,,,0.9816083333333334
3,0.0,,114.456,,0.0,18.735,114.45299999999999,18.735,-65.5467,2357.08,monload-611_runway,,,,,,,,2.4,,,0.9821166666666666
4,0.0,,114.462,,0.0,18.1696,114.461,18.1696,-65.5385,2357.33,monload-611_runway,,,,,,,,2.4,,,0.9822208333333333
5,0.0,,114.26700000000001,,0.0,18.3433,114.26899999999999,18.3433,-65.7307,2349.53,monload-611_runway,,,,,,,,2.4,,,0.9789708333333335
6,0.0,,114.15700000000001,,0.0,19.8621,114.15799999999999,19.8621,-65.8418,2344.94,monload-611_runway,,,,,,,,2.4,,,0.9770583333333334
7,0.0,,113.376,,0.0,29.8483,113.37700000000001,29.8483,-66.6232,2313.44,monload-611_runway,,,,,,,,2.4,,,0.9639333333333333
8,0.0,,113.406,,0.0,31.8618,113.40299999999999,31.8618,-66.5973,2314.67,monload-611_runway,,,,,,,,2.4,,,0.9644458333333333
9,0.0,,112.898,,0.0,44.0268,112.899,44.0268,-67.1007,2294.39,monload-611_runway,,,,,,,,2.4,,,0.9559958333333333
10,0.0,,113.21600000000001,,0.0,37.8158,113.212,37.8158,-66.7884,2307.54,monload-611_runway,,,,,,,,2.4,,,0.961475
11,0.0,,113.541,,0.0,26.7204,113.537,26.7204,-66.4625,2320.86,monload-611_runway,,,,,,,,2.4,,,0.967025
12,0.0,,113.90100000000001,,0.0,25.0426,113.897,25.0426,-66.10300000000001,2336.08,monload-611_runway,,,,,,,,2.4,,,0.9733666666666666
13,0.0,,113.542,,0.0,24.9564,113.54700000000001,24.9564,-66.4529,2320.76,monload-611_runway,,,,,,,,2.4,,,0.9669833333333334
14,0.0,,113.745,,0.0,24.9959,113.743,24.9959,-66.2573,2329.29,monload-611_runway,,,,,,,,2.4,,,0.9705374999999999
15,0.0,,113.87200000000001,,0.0,24.9268,113.87100000000001,24.9268,-66.1294,2334.7,monload-611_runway,,,,,,,,2.4,,,0.9727916666666666
16,0.0,,113.875,,0.0,24.7866,113.875,24.7866,-66.1248,2334.85,monload-611_runway,,,,,,,,2.4,,,0.9728541666666666
17,0.0,,113.596,,0.0,25.989,113.59899999999999,25.989,-66.4009,2322.78,monload-611_runway,,,,,,,,2.4,,,0.967825
18,0.0,,113.242,,0.0,31.4301,113.24600000000001,31.4301,-66.7535,2307.67,monload-611_runway,,,,,,,,2.4,,,0.9615291666666667
19,0.0,,113.012,,0.0,43.1551,113.015,43.1551,-66.9851,2298.17,monload-611_runway,,,,,,,,2.4,,,0.9575708333333334
20,0.0,,113.012,,0.0,45.3034,113.012,45.3034,-66.9885,2298.19,monload-611_runway,,,,,,,,2.4,,,0.9575791666666666
21,0.0,,113.154,,0.0,47.8087,113.15299999999999,47.8087,-66.8474,2303.98,monload-611_runway,,,,,,,,2.4,,,0.9599916666666667
22,0.0,,113.311,,0.0,46.4444,113.31,46.4444,-66.6903,2310.57,monload-611_runway,,,,,,,,2.4,,,0.9627375
23,0.0,,113.831,,0.0,35.6973,113.82600000000001,35.6973,-66.1736,2331.74,monload-611_runway,,,,,,,,2.4,,,0.9715583333333332
24,0.0,,114.215,,0.0,22.9122,114.212,22.9122,-65.7882,2347.23,monload-611_runway,,,,,,,,2.4,,,0.9780125000000001
25,0.0,,114.346,,0.0,18.6667,114.345,18.6667,-65.655,2352.59,monload-611_runway,,,,,,,,2.4,,,0.9802458333333334
26,0.0,,114.359,,0.0,17.8494,114.35799999999999,17.8494,-65.6423,2353.1,monload-611_runway,,,,,,,,2.4,,,0.9804583333333333
27,0.0,,114.38,,0.0,16.9263,114.37799999999999,16.9263,-65.6215,2353.94,monload-611_runway,,,,,,,,2.4,,,0.9808083333333334
28,0.0,,114.385,,0.0,17.0116,114.385,17.0116,-65.6153,2354.12,monload-611_runway,,,,,,,,2.4,,,0.9808833333333333
29,0.0,,113.662,,0.0,17.6802,113.663,17.6802,-66.3366,2325.24,monload-611_runway,,,,,,,,2.4,,,0.9688499999999999
30,0.0,,113.397,,0.0,21.26,113.4,21.26,-66.5999,2314.4,monload-611_runway,,,,,,,,2.4,,,0.9643333333333334
31,0.0,,111.759,,0.0,32.9008,111.759,32.9008,-68.241,2261.77,monload-611_runway,,,,,,,,2.4,,,0.9424041666666667
32,0.0,,111.163,,0.0,34.1584,111.164,34.1584,-68.8363,2236.98,monload-611_runway,,,,,,,,2.4,,,0.932075
33,0.0,,111.206,,0.0,30.1946,111.206,30.1946,-68.7939,2239.22,monload-611_runway,,,,,,,,2.4,,,0.9330083333333332
34,0.0,,111.199,,0.0,30.5151,111.199,30.5151,-68.8006,2239.53,monload-611_runway,,,,,,,,2.4,,,0.9331375000000001
35,0.0,,111.35,,0.0,24.7417,111.34899999999999,24.7417,-68.6506,2246.21,monload-611_runway,,,,,,,,2.4,,,0.9359208333333333
36,0.0,,110.90700000000001,,0.0,25.5293,110.906,25.5293,-69.0936,2240.52,monload-611_runway,,,,,,,,2.4,,,0.93355
37,0.0,,111.631,,0.0,26.3266,111.632,26.3266,-68.3683,2273.06,monload-611_runway,,,,,,,,2.4,,,0.9471083333333333
38,0.0,,111.11200000000001,,0.0,25.0233,111.11200000000001,25.0233,-68.8876,2250.04,monload-611_runway,,,,,,,,2.4,,,0.9375166666666667
39,0.0,,111.73899999999999,,0.0,24.4886,111.73899999999999,24.4886,-68.26100000000001,2278.27,monload-611_runway,,,,,,,,2.4,,,0.9492791666666667
40,0.0,,111.44200000000001,,0.0,24.5762,111.44200000000001,24.5762,-68.5576,2265.0,monload-611_runway,,,,,,,,2.4,,,0.94375
41,0.0,,111.04899999999999,,0.0,25.4765,111.04899999999999,25.4765,-68.9508,2247.25,monload-611_runway,,,,,,,,2.4,,,0.9363541666666667
42,0.0,,110.61399999999999,,0.0,30.8896,110.61399999999999,30.8896,-69.3858,2227.22,monload-611_runway,,,,,,,,2.4,,,0.9280083333333332
43,0.0,,111.602,,0.0,38.5967,111.603,38.5967,-68.3973,2268.75,monload-611_runway,,,,,,,,2.4,,,0.9453125
44,0.0,,111.59100000000001,,0.0,40.9559,111.59100000000001,40.9559,-68.4087,2268.35,monload-611_runway,,,,,,,,2.4,,,0.9451458333333332
45,0.0,,112.301,,0.0,45.1231,112.29899999999999,45.1231,-67.70100000000001,2297.95,monload-611_runway,,,,,,,,2.4,,,0.9574791666666665
46,0.0,,112.684,,0.0,42.3023,112.68299999999999,42.3023,-67.3172,2314.06,monload-611_runway,,,,,,,,2.4,,,0.9641916666666667
47,0.0,,113.63799999999999,,0.0,30.8497,113.635,30.8497,-66.3649,2353.18,monload-611_runway,,,,,,,,2.4,,,0.9804916666666667
48,0.0,,113.96700000000001,,0.0,21.1497,113.959,21.1497,-66.0408,2366.69,monload-611_runway,,,,,,,,2.4,,,0.9861208333333333
49,0.0,,114.09899999999999,,0.0,18.8942,114.096,18.8942,-65.904,2372.17,monload-611_runway,,,,,,,,2.4,,,0.9884041666666668
50,0.0,,114.14,,0.0,18.3946,114.133,18.3946,-65.8665,2373.85,monload-611_runway,,,,,,,,2.4,,,0.9891041666666667
51,0.0,,114.195,,0.0,17.8874,114.186,17.8874,-65.8138,2376.06,monload-611_runway,,,,,,,,2.4,,,0.9900249999999999
52,0.0,,114.19,,0.0,18.4384,114.191,18.4384,-65.8088,2375.81,monload-611_runway,,,,,,,,2.4,,,0.9899208333333334
53,0.0,,113.46700000000001,,0.0,19.6598,113.469,19.6598,-66.5309,2346.43,monload-611_runway,,,,,,,,2.4,,,0.9776791666666665
54,0.0,,113.179,,0.0,23.9779,113.186,23.9779,-66.814,2334.46,monload-611_runway,,,,,,,,2.4,,,0.9726916666666667
55,0.0,,111.49799999999999,,0.0,35.471,111.50299999999999,35.471,-68.4968,2264.86,monload-611_runway,,,,,,,,2.4,,,0.9436916666666667
56,0.0,,110.92299999999999,,0.0,35.324,110.92299999999999,35.324,-69.0766,2240.73,monload-611_runway,,,,,,,,2.4,,,0.9336375
57,0.0,,111.16799999999999,,0.0,31.1498,111.16799999999999,31.1498,-68.832,2252.1,monload-611_runway,,,,,,,,2.4,,,0.938375
58,0.0,,111.40100000000001,,0.0,31.0092,111.40100000000001,31.0092,-68.5991,2263.15,monload-611_runway,,,,,,,,2.4,,,0.9429791666666667
59,0.0,,111.759,,0.0,24.7683,111.756,24.7683,-68.2436,2278.81,monload-611_runway,,,,,,,,2.4,,,0.9495041666666666
60,0.0,,0.0,,0.0,0.0,0.0,0.0,0.0,0.0,monload-611_runway,,,,,,,,2.4,,,0.0
61,0.0,,0.0,,0.0,0.0,0.0,0.0,0.0,0.0,monload-611_runway,,,,,,,,2.4,,,0.0
62,0.0,,0.0,,0.0,0.0,0.0,0.0,0.0,0.0,monload-611_runway,,,,,,,,2.4,,,0.0
63,0.0,,0.0,,0.0,0.0,0.0,0.0,0.0,0.0,monload-611_runway,,,,,,,,2.4,,,0.0
64,0.0,,0.0,,0.0,0.0,0.0,0.0,0.0,0.0,monload-611_runway,,,,,,,,2.4,,,0.0
65,0.0,,0.0,,0.0,0.0,0.0,0.0,0.0,0.0,monload-611_runway,,,,,,,,2.4,,,0.0
66,0.0,,0.0,,0.0,0.0,0.0,0.0,0.0,0.0,monload-611_runway,,,,,,,,2.4,,,0.0
67,0.0,,0.0,,0.0,0.0,0.0,0.0,0.0,0.0,monload-611_runway,,,,,,,,2.4,,,0.0
68,0.0,,0.0,,0.0,0.0,0.0,0.0,0.0,0.0,monload-611_runway,,,,,,,,2.4,,,0.0
69,0.0,,0.0,,0.0,0.0,0.0,0.0,0.0,0.0,monload-611_runway,,,,,,,,2.4,,,0.0
70,0.0,,0.0,,0.0,0.0,0.0,0.0,0.0,0.0,monload-611_runway,,,,,,,,2.4,,,0.0
71,0.0,,0.0,,0.0,0.0,0.0,0.0,0.0,0.0,monload-611_runway,,,,,,,,2.4,,,0.0
72,0.0,,0.0,,0.0,0.0,0.0,0.0,0.0,0.0,monload-611_runway,,,,,,,,2.4,,,0.0
73,0.0,,0.0,,0.0,0.0,0.0,0.0,0.0,0.0,monload-611_runway,,,,,,,,2.4,,,0.0
74,0.0,,0.0,,0.0,0.0,0.0,0.0,0.0,0.0,monload-611_runway,,,,,,,,2.4,,,0.0
75,0.0,,0.0,,0.0,0.0,0.0,0.0,0.0,0.0,monload-611_runway,,,,,,,,2.4,,,0.0
76,0.0,,0.0,,0.0,0.0,0.0,0.0,0.0,0.0,monload-611_runway,,,,,,,,2.4,,,0.0
77,0.0,,0.0,,0.0,0.0,0.0,0.0,0.0,0.0,monload-611_runway,,,,,,,,2.4,,,0.0
78,0.0,,0.0,,0.0,0.0,0.0,0.0,0.0,0.0,monload-611_runway,,,,,,,,2.4,,,0.0
79,0.0,,0.0,,0.0,0.0,0.0,0.0,0.0,0.0,monload-611_runway,,,,,,,,2.4,,,0.0
80,0.0,,0.0,,0.0,0.0,0.0,0.0,0.0,0.0,monload-611_runway,,,,,,,,2.4,,,0.0
81,0.0,,0.0,,0.0,0.0,0.0,0.0,0.0,0.0,monload-611_runway,,,,,,,,2.4,,,0.0
82,0.0,,0.0,,0.0,0.0,0.0,0.0,0.0,0.0,monload-611_runway,,,,,,,,2.4,,,0.0
83,0.0,,0.0,,0.0,0.0,0.0,0.0,0.0,0.0,monload-611_runway,,,,,,,,2.4,,,0.0
84,0.0,,0.0,,0.0,0.0,0.0,0.0,0.0,0.0,monload-611_runway,,,,,,,,2.4,,,0.0
85,0.0,,0.0,,0.0,0.0,0.0,0.0,0.0,0.0,monload-611_runway,,,,,,,,2.4,,,0.0
86,0.0,,0.0,,0.0,0.0,0.0,0.0,0.0,0.0,monload-611_runway,,,,,,,,2.4,,,0.0
87,0.0,,0.0,,0.0,0.0,0.0,0.0,0.0,0.0,monload-611_runway,,,,,,,,2.4,,,0.0
88,0.0,,0.0,,0.0,0.0,0.0,0.0,0.0,0.0,monload-611_runway,,,,,,,,2.4,,,0.0
89,0.0,,0.0,,0.0,0.0,0.0,0.0,0.0,0.0,monload-611_runway,,,,,,,,2.4,,,0.0
90,0.0,,0.0,,0.0,0.0,0.0,0.0,0.0,0.0,monload-611_runway,,,,,,,,2.4,,,0.0
91,0.0,,0.0,,0.0,0.0,0.0,0.0,0.0,0.0,monload-611_runway,,,,,,,,2.4,,,0.0
92,0.0,,0.0,,0.0,0.0,0.0,0.0,0.0,0.0,monload-611_runway,,,,,,,,2.4,,,0.0
93,0.0,,0.0,,0.0,0.0,0.0,0.0,0.0,0.0,monload-611_runway,,,,,,,,2.4,,,0.0
94,0.0,,0.0,,0.0,0.0,0.0,0.0,0.0,0.0,monload-611_runway,,,,,,,,2.4,,,0.0
95,0.0,,0.0,,0.0,0.0,0.0,0.0,0.0,0.0,monload-611_runway,,,,,,,,2.4,,,0.0
96,0.0,,0.0,,0.0,0.0,0.0,0.0,0.0,0.0,monload-611_runway,,,,,,,,2.4,,,0.0
97,0.0,,0.0,,0.0,0.0,0.0,0.0,0.0,0.0,monload-611_runway,,,,,,,,2.4,,,0.0
98,0.0,,0.0,,0.0,0.0,0.0,0.0,0.0,0.0,monload-611_runway,,,,,,,,2.4,,,0.0
99,0.0,,0.0,,0.0,0.0,0.0,0.0,0.0,0.0,monload-611_runway,,,,,,,,2.4,,,0.0
100,0.0,,0.0,,0.0,0.0,0.0,0.0,0.0,0.0,monload-611_runway,,,,,,,,2.4,,,0.0
101,0.0,,0.0,,0.0,0.0,0.0,0.0,0.0,0.0,monload-611_runway,,,,,,,,2.4,,,0.0
102,0.0,,0.0,,0.0,0.0,0.0,0.0,0.0,0.0,monload-611_runway,,,,,,,,2.4,,,0.0
103,0.0,,0.0,,0.0,0.0,0.0,0.0,0.0,0.0,monload-611_runway,,,,,,,,2.4,,,0.0
104,0.0,,0.0,,0.0,0.0,0.0,0.0,0.0,0.0,monload-611_runway,,,,,,,,2.4,,,0.0
105,0.0,,0.0,,0.0,0.0,0.0,0.0,0.0,0.0,monload-611_runway,,,,,,,,2.4,,,0.0
106,0.0,,0.0,,0.0,0.0,0.0,0.0,0.0,0.0,monload-611_runway,,,,,,,,2.4,,,0.0
107,0.0,,0.0,,0.0,0.0,0.0,0.0,0.0,0.0,monload-611_runway,,,,,,,,2.4,,,0.0
108,0.0,,0.0,,0.0,0.0,0.0,0.0,0.0,0.0,monload-611_runway,,,,,,,,2.4,,,0.0
109,0.0,,0.0,,0.0,0.0,0.0,0.0,0.0,0.0,monload-611_runway,,,,,,,,2.4,,,0.0
110,0.0,,0.0,,0.0,0.0,0.0,0.0,0.0,0.0,monload-611_runway,,,,,,,,2.4,,,0.0
111,0.0,,0.0,,0.0,0.0,0.0,0.0,0.0,0.0,monload-611_runway,,,,,,,,2.4,,,0.0
112,0.0,,0.0,,0.0,0.0,0.0,0.0,0.0,0.0,monload-611_runway,,,,,,,,2.4,,,0.0
113,0.0,,0.0,,0.0,0.0,0.0,0.0,0.0,0.0,monload-611_runway,,,,,,,,2.4,,,0.0
114,0.0,,0.0,,0.0,0.0,0.0,0.0,0.0,0.0,monload-611_runway,,,,,,,,2.4,,,0.0
115,0.0,,0.0,,0.0,0.0,0.0,0.0,0.0,0.0,monload-611_runway,,,,,,,,2.4,,,0.0
116,0.0,,0.0,,0.0,0.0,0.0,0.0,0.0,0.0,monload-611_runway,,,,,,,,2.4,,,0.0
117,0.0,,0.0,,0.0,0.0,0.0,0.0,0.0,0.0,monload-611_runway,,,,,,,,2.4,,,0.0
118,0.0,,0.0,,0.0,0.0,0.0,0.0,0.0,0.0,monload-611_runway,,,,,,,,2.4,,,0.0
119,0.0,,0.0,,0.0,0.0,0.0,0.0,0.0,0.0,monload-611_runway,,,,,,,,2.4,,,0.0
120,0.0,,0.0,,0.0,0.0,0.0,0.0,0.0,0.0,monload-611_runway,,,,,,,,2.4,,,0.0
121,0.0,,0.0,,0.0,0.0,0.0,0.0,0.0,0.0,monload-611_runway,,,,,,,,2.4,,,0.0
122,0.0,,0.0,,0.0,0.0,0.0,0.0,0.0,0.0,monload-611_runway,,,,,,,,2.4,,,0.0
123,0.0,,0.0,,0.0,0.0,0.0,0.0,0.0,0.0,monload-611_runway,,,,,,,,2.4,,,0.0
124,0.0,,0.0,,0.0,0.0,0.0,0.0,0.0,0.0,monload-611_runway,,,,,,,,2.4,,,0.0
125,0.0,,0.0,,0.0,0.0,0.0,0.0,0.0,0.0,monload-611_runway,,,,,,,,2.4,,,0.0
126,0.0,,0.0,,0.0,0.0,0.0,0.0,0.0,0.0,monload-611_runway,,,,,,,,2.4,,,0.0
127,0.0,,0.0,,0.0,0.0,0.0,0.0,0.0,0.0,monload-611_runway,,,,,,,,2.4,,,0.0
128,0.0,,0.0,,0.0,0.0,0.0,0.0,0.0,0.0,monload-611_runway,,,,,,,,2.4,,,0.0
129,0.0,,0.0,,0.0,0.0,0.0,0.0,0.0,0.0,monload-611_runway,,,,,,,,2.4,,,0.0
130,0.0,,0.0,,0.0,0.0,0.0,0.0,0.0,0.0,monload-611_runway,,,,,,,,2.4,,,0.0
131,0.0,,0.0,,0.0,0.0,0.0,0.0,0.0,0.0,monload-611_runway,,,,,,,,2.4,,,0.0
132,0.0,,0.0,,0.0,0.0,0.0,0.0,0.0,0.0,monload-611_runway,,,,,,,,2.4,,,0.0
133,0.0,,0.0,,0.0,0.0,0.0,0.0,0.0,0.0,monload-611_runway,,,,,,,,2.4,,,0.0
134,0.0,,0.0,,0.0,0.0,0.0,0.0,0.0,0.0,monload-611_runway,,,,,,,,2.4,,,0.0
135,0.0,,0.0,,0.0,0.0,0.0,0.0,0.0,0.0,monload-611_runway,,,,,,,,2.4,,,0.0
136,0.0,,0.0,,0.0,0.0,0.0,0.0,0.0,0.0,monload-611_runway,,,,,,,,2.4,,,0.0
137,0.0,,0.0,,0.0,0.0,0.0,0.0,0.0,0.0,monload-611_runway,,,,,,,,2.4,,,0.0
138,0.0,,0.0,,0.0,0.0,0.0,0.0,0.0,0.0,monload-611_runway,,,,,,,,2.4,,,0.0
139,0.0,,0.0,,0.0,0.0,0.0,0.0,0.0,0.0,monload-611_runway,,,,,,,,2.4,,,0.0
140,0.0,,0.0,,0.0,0.0,0.0,0.0,0.0,0.0,monload-611_runway,,,,,,,,2.4,,,0.0
141,0.0,,0.0,,0.0,0.0,0.0,0.0,0.0,0.0,monload-611_runway,,,,,,,,2.4,,,0.0
142,0.0,,0.0,,0.0,0.0,0.0,0.0,0.0,0.0,monload-611_runway,,,,,,,,2.4,,,0.0
143,0.0,,0.0,,0.0,0.0,0.0,0.0,0.0,0.0,monload-611_runway,,,,,,,,2.4,,,0.0
144,0.0,,0.0,,0.0,0.0,0.0,0.0,0.0,0.0,monload-611_runway,,,,,,,,2.4,,,0.0
145,0.0,,0.0,,0.0,0.0,0.0,0.0,0.0,0.0,monload-611_runway,,,,,,,,2.4,,,0.0
146,0.0,,0.0,,0.0,0.0,0.0,0.0,0.0,0.0,monload-611_runway,,,,,,,,2.4,,,0.0
147,0.0,,0.0,,0.0,0.0,0.0,0.0,0.0,0.0,monload-611_runway,,,,,,,,2.4,,,0.0
148,0.0,,0.0,,0.0,0.0,0.0,0.0,0.0,0.0,monload-611_runway,,,,,,,,2.4,,,0.0
149,0.0,,0.0,,0.0,0.0,0.0,0.0,0.0,0.0,monload-611_runway,,,,,,,,2.4,,,0.0
150,0.0,,0.0,,0.0,0.0,0.0,0.0,0.0,0.0,monload-611_runway,,,,,,,,2.4,,,0.0
151,0.0,,0.0,,0.0,0.0,0.0,0.0,0.0,0.0,monload-611_runway,,,,,,,,2.4,,,0.0
152,0.0,,0.0,,0.0,0.0,0.0,0.0,0.0,0.0,monload-611_runway,,,,,,,,2.4,,,0.0
153,0.0,,0.0,,0.0,0.0,0.0,0.0,0.0,0.0,monload-611_runway,,,,,,,,2.4,,,0.0
154,0.0,,0.0,,0.0,0.0,0.0,0.0,0.0,0.0,monload-611_runway,,,,,,,,2.4,,,0.0
155,0.0,,0.0,,0.0,0.0,0.0,0.0,0.0,0.0,monload-611_runway,,,,,,,,2.4,,,0.0
156,0.0,,0.0,,0.0,0.0,0.0,0.0,0.0,0.0,monload-611_runway,,,,,,,,2.4,,,0.0
157,0.0,,0.0,,0.0,0.0,0.0,0.0,0.0,0.0,monload-611_runway,,,,,,,,2.4,,,0.0
158,0.0,,0.0,,0.0,0.0,0.0,0.0,0.0,0.0,monload-611_runway,,,,,,,,2.4,,,0.0
159,0.0,,0.0,,0.0,0.0,0.0,0.0,0.0,0.0,monload-611_runway,,,,,,,,2.4,,,0.0
160,0.0,,0.0,,0.0,0.0,0.0,0.0,0.0,0.0,monload-611_runway,,,,,,,,2.4,,,0.0
161,0.0,,0.0,,0.0,0.0,0.0,0.0,0.0,0.0,monload-611_runway,,,,,,,,2.4,,,0.0
162,0.0,,0.0,,0.0,0.0,0.0,0.0,0.0,0.0,monload-611_runway,,,,,,,,2.4,,,0.0
163,0.0,,0.0,,0.0,0.0,0.0,0.0,0.0,0.0,monload-611_runway,,,,,,,,2.4,,,0.0
164,0.0,,0.0,,0.0,0.0,0.0,0.0,0.0,0.0,monload-611_runway,,,,,,,,2.4,,,0.0
165,0.0,,0.0,,0.0,0.0,0.0,0.0,0.0,0.0,monload-611_runway,,,,,,,,2.4,,,0.0
166,0.0,,0.0,,0.0,0.0,0.0,0.0,0.0,0.0,monload-611_runway,,,,,,,,2.4,,,0.0
167,0.0,,0.0,,0.0,0.0,0.0,0.0,0.0,0.0,monload-611_runway,,,,,,,,2.4,,,0.0
168,0.0,,0.0,,0.0,0.0,0.0,0.0,0.0,0.0,monload-611_runway,,,,,,,,2.4,,,0.0
169,0.0,,0.0,,0.0,0.0,0.0,0.0,0.0,0.0,monload-611_runway,,,,,,,,2.4,,,0.0
170,0.0,,0.0,,0.0,0.0,0.0,0.0,0.0,0.0,monload-611_runway,,,,,,,,2.4,,,0.0
171,0.0,,0.0,,0.0,0.0,0.0,0.0,0.0,0.0,monload-611_runway,,,,,,,,2.4,,,0.0
172,0.0,,0.0,,0.0,0.0,0.0,0.0,0.0,0.0,monload-611_runway,,,,,,,,2.4,,,0.0
173,0.0,,0.0,,0.0,0.0,0.0,0.0,0.0,0.0,monload-611_runway,,,,,,,,2.4,,,0.0
174,0.0,,0.0,,0.0,0.0,0.0,0.0,0.0,0.0,monload-611_runway,,,,,,,,2.4,,,0.0
175,0.0,,0.0,,0.0,0.0,0.0,0.0,0.0,0.0,monload-611_runway,,,,,,,,2.4,,,0.0
176,0.0,,0.0,,0.0,0.0,0.0,0.0,0.0,0.0,monload-611_runway,,,,,,,,2.4,,,0.0
177,0.0,,0.0,,0.0,0.0,0.0,0.0,0.0,0.0,monload-611_runway,,,,,,,,2.4,,,0.0
178,0.0,,0.0,,0.0,0.0,0.0,0.0,0.0,0.0,monload-611_runway,,,,,,,,2.4,,,0.0
179,0.0,,0.0,,0.0,0.0,0.0,0.0,0.0,0.0,monload-611_runway,,,,,,,,2.4,,,0.0
180,0.0,,112.93700000000001,,0.0,38.1499,112.943,38.1499,-67.0573,2324.56,monload-611_runway,,,,,,,,2.4,,,0.9685666666666667
181,0.0,,113.307,,0.0,38.4204,113.301,38.4204,-66.699,2340.6,monload-611_runway,,,,,,,,2.4,,,0.97525
182,0.0,,113.355,,0.0,39.8211,113.354,39.8211,-66.6459,2342.72,monload-611_runway,,,,,,,,2.4,,,0.9761333333333333
183,0.0,,113.087,,0.0,41.1387,113.09100000000001,41.1387,-66.9091,2331.24,monload-611_runway,,,,,,,,2.4,,,0.9713499999999999
184,0.0,,112.844,,0.0,40.2542,112.848,40.2542,-67.1517,2320.6,monload-611_runway,,,,,,,,2.4,,,0.9669166666666666
185,0.0,,112.71600000000001,,0.0,39.4232,112.719,39.4232,-67.2812,2314.66,monload-611_runway,,,,,,,,2.4,,,0.9644416666666666
186,0.0,,112.645,,0.0,41.61,112.647,41.61,-67.3533,2311.26,monload-611_runway,,,,,,,,2.4,,,0.9630250000000001
187,0.0,,112.648,,0.0,50.661,112.646,50.661,-67.3545,2311.5,monload-611_runway,,,,,,,,2.4,,,0.963125
188,0.0,,112.816,,0.0,50.93600000000001,112.81299999999999,50.93600000000001,-67.1872,2318.7,monload-611_runway,,,,,,,,2.4,,,0.9661249999999999
189,0.0,,113.014,,0.0,52.3523,113.01100000000001,52.3523,-66.9892,2327.03,monload-611_runway,,,,,,,,2.4,,,0.9695958333333334
190,0.0,,113.197,,0.0,50.5692,113.194,50.5692,-66.8058,2334.87,monload-611_runway,,,,,,,,2.4,,,0.9728625
191,0.0,,113.751,,0.0,39.6945,113.75,39.6945,-66.2502,2357.8,monload-611_runway,,,,,,,,2.4,,,0.9824166666666667
192,0.0,,114.167,,0.0,26.4536,114.161,26.4536,-65.839,2374.86,monload-611_runway,,,,,,,,2.4,,,0.9895250000000001
193,0.0,,114.296,,0.0,21.0984,114.3,21.0984,-65.6997,2365.5,monload-611_runway,,,,,,,,2.4,,,0.985625
194,0.0,,114.34200000000001,,0.0,19.0118,114.338,19.0118,-65.6617,2367.36,monload-611_runway,,,,,,,,2.4,,,0.9864
195,0.0,,114.368,,0.0,17.1605,114.366,17.1605,-65.6345,2368.37,monload-611_runway,,,,,,,,2.4,,,0.9868208333333333
196,0.0,,114.35,,0.0,16.8089,114.352,16.8089,-65.6478,2367.68,monload-611_runway,,,,,,,,2.4,,,0.9865333333333333
197,0.0,,113.652,,0.0,17.2796,113.65299999999999,17.2796,-66.3474,2339.56,monload-611_runway,,,,,,,,2.4,,,0.9748166666666667
198,0.0,,113.477,,0.0,20.6862,113.48,20.6862,-66.5203,2332.33,monload-611_runway,,,,,,,,2.4,,,0.9718041666666667
199,0.0,,111.742,,0.0,32.9614,111.725,32.9614,-68.2751,2261.02,monload-611_runway,,,,,,,,2.4,,,0.9420916666666667
200,0.0,,111.09200000000001,,0.0,35.5795,111.09700000000001,35.5795,-68.9029,2234.08,monload-611_runway,,,,,,,,2.4,,,0.9308666666666666
201,0.0,,111.363,,0.0,32.6652,111.36,32.6652,-68.64,2246.65,monload-611_runway,,,,,,,,2.4,,,0.9361041666666667
202,0.0,,111.616,,0.0,34.8423,111.613,34.8423,-68.3871,2258.66,monload-611_runway,,,,,,,,2.4,,,0.9411083333333333
203,0.0,,111.262,,0.0,30.4261,111.266,30.4261,-68.7342,2242.61,monload-611_runway,,,,,,,,2.4,,,0.9344208333333334
204,0.0,,111.55,,0.0,33.6368,111.546,33.6368,-68.4539,2255.78,monload-611_runway,,,,,,,,2.4,,,0.9399083333333335
205,0.0,,111.39200000000001,,0.0,35.9866,111.39399999999999,35.9866,-68.6061,2248.29,monload-611_runway,,,,,,,,2.4,,,0.9367875
206,0.0,,110.757,,0.0,37.1638,110.757,37.1638,-69.2431,2234.26,monload-611_runway,,,,,,,,2.4,,,0.9309416666666668
207,0.0,,110.73700000000001,,0.0,38.1423,110.73700000000001,38.1423,-69.2626,2233.54,monload-611_runway,,,,,,,,2.4,,,0.9306416666666667
208,0.0,,110.714,,0.0,35.7748,110.714,35.7748,-69.2861,2232.44,monload-611_runway,,,,,,,,2.4,,,0.9301833333333334
209,0.0,,110.515,,0.0,35.2722,110.515,35.2722,-69.4849,2223.32,monload-611_runway,,,,,,,,2.4,,,0.9263833333333334
210,0.0,,110.436,,0.0,39.6517,110.436,39.6517,-69.5635,2219.28,monload-611_runway,,,,,,,,2.4,,,0.9247000000000001
211,0.0,,111.45200000000001,,0.0,46.1496,111.45200000000001,46.1496,-68.548,2262.07,monload-611_runway,,,,,,,,2.4,,,0.9425291666666668
212,0.0,,111.455,,0.0,48.0036,111.455,48.0036,-68.545,2262.41,monload-611_runway,,,,,,,,2.4,,,0.9426708333333332
