hour,t(sec),P1(kW),Q1(kvar),P2(kW),Q2(kvar),P3(kW),Name,Q3(kvar),P4(kW),Q4(kvar)
1,0.0,0.0,0.0,,0.0,,mongenerator-battery_634_existing,,,
2,0.0,0.0,0.0,,0.0,,mongenerator-battery_634_existing,,,
3,0.0,0.0,0.0,,0.0,,mongenerator-battery_634_existing,,,
4,0.0,0.0,0.0,,0.0,,mongenerator-battery_634_existing,,,
5,0.0,0.0,0.0,,0.0,,mongenerator-battery_634_existing,,,
6,0.0,0.0,0.0,,0.0,,mongenerator-battery_634_existing,,,
7,0.0,0.0,0.0,,0.0,,mongenerator-battery_634_existing,,,
8,0.0,0.0,0.0,,0.0,,mongenerator-battery_634_existing,,,
9,0.0,0.0,0.0,,0.0,,mongenerator-battery_634_existing,,,
10,0.0,0.0,0.0,,0.0,,mongenerator-battery_634_existing,,,
11,0.0,0.0,0.0,,0.0,,mongenerator-battery_634_existing,,,
12,0.0,0.0,0.0,,0.0,,mongenerator-battery_634_existing,,,
13,0.0,0.0,0.0,,0.0,,mongenerator-battery_634_existing,,,
14,0.0,0.0,0.0,,0.0,,mongenerator-battery_634_existing,,,
15,0.0,0.0,0.0,,0.0,,mongenerator-battery_634_existing,,,
16,0.0,0.0,0.0,,0.0,,mongenerator-battery_634_existing,,,
17,0.0,0.0,0.0,,0.0,,mongenerator-battery_634_existing,,,
18,0.0,0.0,0.0,,0.0,,mongenerator-battery_634_existing,,,
19,0.0,0.0,0.0,,0.0,,mongenerator-battery_634_existing,,,
20,0.0,0.0,0.0,,0.0,,mongenerator-battery_634_existing,,,
21,0.0,0.0,0.0,,0.0,,mongenerator-battery_634_existing,,,
22,0.0,0.0,0.0,,0.0,,mongenerator-battery_634_existing,,,
23,0.0,0.0,0.0,,0.0,,mongenerator-battery_634_existing,,,
24,0.0,0.0,0.0,,0.0,,mongenerator-battery_634_existing,,,
25,0.0,0.0,0.0,,0.0,,mongenerator-battery_634_existing,,,
26,0.0,0.0,0.0,,0.0,,mongenerator-battery_634_existing,,,
27,0.0,0.0,0.0,,0.0,,mongenerator-battery_634_existing,,,
28,0.0,0.0,0.0,,0.0,,mongenerator-battery_634_existing,,,
29,0.0,0.0,0.0,,0.0,,mongenerator-battery_634_existing,,,
30,0.0,0.0,0.0,,0.0,,mongenerator-battery_634_existing,,,
31,0.0,0.0,0.0,,0.0,,mongenerator-battery_634_existing,,,
32,0.0,0.0,0.0,,0.0,,mongenerator-battery_634_existing,,,
33,0.0,0.0,0.0,,0.0,,mongenerator-battery_634_existing,,,
34,0.0,0.0,0.0,,0.0,,mongenerator-battery_634_existing,,,
35,0.0,0.0,0.0,,0.0,,mongenerator-battery_634_existing,,,
36,0.0,-32.0261,-0.000115712,,0.0,,mongenerator-battery_634_existing,,,
37,0.0,33.52,-1.10901e-05,,0.0,,mongenerator-battery_634_existing,,,
38,0.0,-58.7714,-0.000407083,,0.0,,mongenerator-battery_634_existing,,,
39,0.0,79.0,-5.1675e-06,,0.0,,mongenerator-battery_634_existing,,,
40,0.0,0.0,0.0,,0.0,,mongenerator-battery_634_existing,,,
41,0.0,0.0,0.0,,0.0,,mongenerator-battery_634_existing,,,
42,0.0,-19.157,-5.69584e-06,,0.0,,mongenerator-battery_634_existing,,,
43,0.0,-19.007,1.89535e-05,,0.0,,mongenerator-battery_634_existing,,,
44,0.0,-25.1632,-0.000226869,,0.0,,mongenerator-battery_634_existing,,,
45,0.0,-74.728,-5.80624e-05,,0.0,,mongenerator-battery_634_existing,,,
46,0.0,-22.471,-1.60563e-06,,0.0,,mongenerator-battery_634_existing,,,
47,0.0,19.98,-9.01457e-06,,0.0,,mongenerator-battery_634_existing,,,
48,0.0,-2.56796,3.90262e-05,,0.0,,mongenerator-battery_634_existing,,,
49,0.0,17.5521,0.000640822,,0.0,,mongenerator-battery_634_existing,,,
50,0.0,22.7181,0.000150063,,0.0,,mongenerator-battery_634_existing,,,
51,0.0,23.056,9.20639e-05,,0.0,,mongenerator-battery_634_existing,,,
52,0.0,23.325,1.65642e-05,,0.0,,mongenerator-battery_634_existing,,,
53,0.0,8.397,-2.32764e-06,,0.0,,mongenerator-battery_634_existing,,,
54,0.0,8.84899,-2.65784e-05,,0.0,,mongenerator-battery_634_existing,,,
55,0.0,-27.3829,0.000192477,,0.0,,mongenerator-battery_634_existing,,,
56,0.0,-17.029,-1.1275e-05,,0.0,,mongenerator-battery_634_existing,,,
57,0.0,-14.104,6.65649e-06,,0.0,,mongenerator-battery_634_existing,,,
58,0.0,33.069,-1.21151e-05,,0.0,,mongenerator-battery_634_existing,,,
59,0.0,78.9999,0.00109247,,0.0,,mongenerator-battery_634_existing,,,
60,0.0,-43.009,4.55531e-10,,0.0,,mongenerator-battery_634_existing,,,
61,0.0,65.4897,0.000296414,,0.0,,mongenerator-battery_634_existing,,,
62,0.0,0.0,0.0,,0.0,,mongenerator-battery_634_existing,,,
63,0.0,0.0,0.0,,0.0,,mongenerator-battery_634_existing,,,
64,0.0,0.0,0.0,,0.0,,mongenerator-battery_634_existing,,,
65,0.0,0.0,0.0,,0.0,,mongenerator-battery_634_existing,,,
66,0.0,0.0,0.0,,0.0,,mongenerator-battery_634_existing,,,
67,0.0,0.0,0.0,,0.0,,mongenerator-battery_634_existing,,,
68,0.0,0.0,0.0,,0.0,,mongenerator-battery_634_existing,,,
69,0.0,0.0,0.0,,0.0,,mongenerator-battery_634_existing,,,
70,0.0,0.0,0.0,,0.0,,mongenerator-battery_634_existing,,,
71,0.0,0.0,0.0,,0.0,,mongenerator-battery_634_existing,,,
72,0.0,0.0,0.0,,0.0,,mongenerator-battery_634_existing,,,
73,0.0,0.0,0.0,,0.0,,mongenerator-battery_634_existing,,,
74,0.0,0.0,0.0,,0.0,,mongenerator-battery_634_existing,,,
75,0.0,0.0,0.0,,0.0,,mongenerator-battery_634_existing,,,
76,0.0,0.0,0.0,,0.0,,mongenerator-battery_634_existing,,,
77,0.0,0.0,0.0,,0.0,,mongenerator-battery_634_existing,,,
78,0.0,0.0,0.0,,0.0,,mongenerator-battery_634_existing,,,
79,0.0,0.0,0.0,,0.0,,mongenerator-battery_634_existing,,,
80,0.0,0.0,0.0,,0.0,,mongenerator-battery_634_existing,,,
81,0.0,0.0,0.0,,0.0,,mongenerator-battery_634_existing,,,
82,0.0,0.0,0.0,,0.0,,mongenerator-battery_634_existing,,,
83,0.0,-79.0011,-0.00118249,,0.0,,mongenerator-battery_634_existing,,,
84,0.0,-78.9999,0.000151618,,0.0,,mongenerator-battery_634_existing,,,
85,0.0,-78.9998,0.000157472,,0.0,,mongenerator-battery_634_existing,,,
86,0.0,0.0,0.0,,0.0,,mongenerator-battery_634_existing,,,
87,0.0,0.0,0.0,,0.0,,mongenerator-battery_634_existing,,,
88,0.0,0.0,0.0,,0.0,,mongenerator-battery_634_existing,,,
89,0.0,79.0009,0.000865144,,0.0,,mongenerator-battery_634_existing,,,
90,0.0,78.9992,-0.00083765,,0.0,,mongenerator-battery_634_existing,,,
91,0.0,78.9998,-0.000149743,,0.0,,mongenerator-battery_634_existing,,,
92,0.0,70.0001,0.000105602,,0.0,,mongenerator-battery_634_existing,,,
93,0.0,0.0,0.0,,0.0,,mongenerator-battery_634_existing,,,
94,0.0,0.0,0.0,,0.0,,mongenerator-battery_634_existing,,,
95,0.0,0.0,0.0,,0.0,,mongenerator-battery_634_existing,,,
96,0.0,0.0,0.0,,0.0,,mongenerator-battery_634_existing,,,
97,0.0,0.0,0.0,,0.0,,mongenerator-battery_634_existing,,,
98,0.0,0.0,0.0,,0.0,,mongenerator-battery_634_existing,,,
99,0.0,0.0,0.0,,0.0,,mongenerator-battery_634_existing,,,
100,0.0,0.0,0.0,,0.0,,mongenerator-battery_634_existing,,,
101,0.0,0.0,0.0,,0.0,,mongenerator-battery_634_existing,,,
102,0.0,0.0,0.0,,0.0,,mongenerator-battery_634_existing,,,
103,0.0,0.0,0.0,,0.0,,mongenerator-battery_634_existing,,,
104,0.0,0.0,0.0,,0.0,,mongenerator-battery_634_existing,,,
105,0.0,0.0,0.0,,0.0,,mongenerator-battery_634_existing,,,
106,0.0,0.0,0.0,,0.0,,mongenerator-battery_634_existing,,,
107,0.0,-59.1468,-0.000965234,,0.0,,mongenerator-battery_634_existing,,,
108,0.0,-78.9997,0.000308208,,0.0,,mongenerator-battery_634_existing,,,
109,0.0,-78.9999,0.000130633,,0.0,,mongenerator-battery_634_existing,,,
110,0.0,-23.7635,-0.000122423,,0.0,,mongenerator-battery_634_existing,,,
111,0.0,0.0,0.0,,0.0,,mongenerator-battery_634_existing,,,
112,0.0,3.45305,1.5035e-05,,0.0,,mongenerator-battery_634_existing,,,
113,0.0,78.999,-0.000989902,,0.0,,mongenerator-battery_634_existing,,,
114,0.0,78.9991,-0.000896087,,0.0,,mongenerator-battery_634_existing,,,
115,0.0,78.9999,-0.000120301,,0.0,,mongenerator-battery_634_existing,,,
116,0.0,66.5471,0.000137329,,0.0,,mongenerator-battery_634_existing,,,
117,0.0,0.0,0.0,,0.0,,mongenerator-battery_634_existing,,,
118,0.0,0.0,0.0,,0.0,,mongenerator-battery_634_existing,,,
119,0.0,0.0,0.0,,0.0,,mongenerator-battery_634_existing,,,
120,0.0,0.0,0.0,,0.0,,mongenerator-battery_634_existing,,,
121,0.0,0.0,0.0,,0.0,,mongenerator-battery_634_existing,,,
122,0.0,0.0,0.0,,0.0,,mongenerator-battery_634_existing,,,
123,0.0,0.0,0.0,,0.0,,mongenerator-battery_634_existing,,,
124,0.0,0.0,0.0,,0.0,,mongenerator-battery_634_existing,,,
125,0.0,0.0,0.0,,0.0,,mongenerator-battery_634_existing,,,
126,0.0,0.0,0.0,,0.0,,mongenerator-battery_634_existing,,,
127,0.0,0.0,0.0,,0.0,,mongenerator-battery_634_existing,,,
128,0.0,0.0,0.0,,0.0,,mongenerator-battery_634_existing,,,
129,0.0,0.0,0.0,,0.0,,mongenerator-battery_634_existing,,,
130,0.0,0.0,0.0,,0.0,,mongenerator-battery_634_existing,,,
131,0.0,-33.4738,-0.000429903,,0.0,,mongenerator-battery_634_existing,,,
132,0.0,9.45222,-2.54106e-05,,0.0,,mongenerator-battery_634_existing,,,
133,0.0,-21.7755,4.86956e-05,,0.0,,mongenerator-battery_634_existing,,,
134,0.0,-28.5957,1.48994e-05,,0.0,,mongenerator-battery_634_existing,,,
135,0.0,-36.4274,-1.17926e-05,,0.0,,mongenerator-battery_634_existing,,,
136,0.0,28.8966,0.000245762,,0.0,,mongenerator-battery_634_existing,,,
137,0.0,78.9992,-0.000852134,,0.0,,mongenerator-battery_634_existing,,,
138,0.0,2.92351,-4.91797e-06,,0.0,,mongenerator-battery_634_existing,,,
139,0.0,0.0,0.0,,0.0,,mongenerator-battery_634_existing,,,
140,0.0,0.0,0.0,,0.0,,mongenerator-battery_634_existing,,,
141,0.0,0.0,0.0,,0.0,,mongenerator-battery_634_existing,,,
142,0.0,0.0,0.0,,0.0,,mongenerator-battery_634_existing,,,
143,0.0,0.0,0.0,,0.0,,mongenerator-battery_634_existing,,,
144,0.0,0.0,0.0,,0.0,,mongenerator-battery_634_existing,,,
145,0.0,0.0,0.0,,0.0,,mongenerator-battery_634_existing,,,
146,0.0,0.0,0.0,,0.0,,mongenerator-battery_634_existing,,,
147,0.0,0.0,0.0,,0.0,,mongenerator-battery_634_existing,,,
148,0.0,0.0,0.0,,0.0,,mongenerator-battery_634_existing,,,
149,0.0,0.0,0.0,,0.0,,mongenerator-battery_634_existing,,,
150,0.0,0.0,0.0,,0.0,,mongenerator-battery_634_existing,,,
151,0.0,0.0,0.0,,0.0,,mongenerator-battery_634_existing,,,
152,0.0,0.0,0.0,,0.0,,mongenerator-battery_634_existing,,,
153,0.0,0.0,0.0,,0.0,,mongenerator-battery_634_existing,,,
154,0.0,0.0,0.0,,0.0,,mongenerator-battery_634_existing,,,
155,0.0,-50.9035,-0.000872149,,0.0,,mongenerator-battery_634_existing,,,
156,0.0,-72.4636,0.000167912,,0.0,,mongenerator-battery_634_existing,,,
157,0.0,-47.2044,-0.000128159,,0.0,,mongenerator-battery_634_existing,,,
158,0.0,-35.4101,-4.49342e-05,,0.0,,mongenerator-battery_634_existing,,,
159,0.0,2.92875,1.98433e-05,,0.0,,mongenerator-battery_634_existing,,,
160,0.0,79.0006,0.000567391,,0.0,,mongenerator-battery_634_existing,,,
161,0.0,78.9996,-0.00037478,,0.0,,mongenerator-battery_634_existing,,,
162,0.0,45.0522,-0.000115479,,0.0,,mongenerator-battery_634_existing,,,
163,0.0,0.0,0.0,,0.0,,mongenerator-battery_634_existing,,,
164,0.0,0.0,0.0,,0.0,,mongenerator-battery_634_existing,,,
165,0.0,0.0,0.0,,0.0,,mongenerator-battery_634_existing,,,
166,0.0,0.0,0.0,,0.0,,mongenerator-battery_634_existing,,,
167,0.0,0.0,0.0,,0.0,,mongenerator-battery_634_existing,,,
168,0.0,0.0,0.0,,0.0,,mongenerator-battery_634_existing,,,
169,0.0,0.0,0.0,,0.0,,mongenerator-battery_634_existing,,,
170,0.0,0.0,0.0,,0.0,,mongenerator-battery_634_existing,,,
171,0.0,0.0,0.0,,0.0,,mongenerator-battery_634_existing,,,
172,0.0,0.0,0.0,,0.0,,mongenerator-battery_634_existing,,,
173,0.0,0.0,0.0,,0.0,,mongenerator-battery_634_existing,,,
174,0.0,0.0,0.0,,0.0,,mongenerator-battery_634_existing,,,
175,0.0,0.0,0.0,,0.0,,mongenerator-battery_634_existing,,,
176,0.0,0.0,0.0,,0.0,,mongenerator-battery_634_existing,,,
177,0.0,0.0,0.0,,0.0,,mongenerator-battery_634_existing,,,
178,0.0,-46.0656,-0.000396446,,0.0,,mongenerator-battery_634_existing,,,
179,0.0,46.0647,-0.000844717,,0.0,,mongenerator-battery_634_existing,,,
180,0.0,0.0,0.0,,0.0,,mongenerator-battery_634_existing,,,
181,0.0,24.0359,-0.000303975,,0.0,,mongenerator-battery_634_existing,,,
182,0.0,45.155,-4.71753e-06,,0.0,,mongenerator-battery_634_existing,,,
183,0.0,0.0,0.0,,0.0,,mongenerator-battery_634_existing,,,
184,0.0,0.0,0.0,,0.0,,mongenerator-battery_634_existing,,,
185,0.0,0.0,0.0,,0.0,,mongenerator-battery_634_existing,,,
186,0.0,0.0,0.0,,0.0,,mongenerator-battery_634_existing,,,
187,0.0,0.0,0.0,,0.0,,mongenerator-battery_634_existing,,,
188,0.0,-50.555,0.000973431,,0.0,,mongenerator-battery_634_existing,,,
189,0.0,-59.2253,-0.000343628,,0.0,,mongenerator-battery_634_existing,,,
190,0.0,-40.659,-8.98765e-05,,0.0,,mongenerator-battery_634_existing,,,
191,0.0,6.307,1.92455e-07,,0.0,,mongenerator-battery_634_existing,,,
192,0.0,-12.7528,0.000203975,,0.0,,mongenerator-battery_634_existing,,,
193,0.0,6.247,4.11855e-06,,0.0,,mongenerator-battery_634_existing,,,
194,0.0,17.193,-4.92308e-05,,0.0,,mongenerator-battery_634_existing,,,
195,0.0,21.3269,-0.000169343,,0.0,,mongenerator-battery_634_existing,,,
196,0.0,23.6439,-0.000248855,,0.0,,mongenerator-battery_634_existing,,,
197,0.0,19.721,-4.20856e-06,,0.0,,mongenerator-battery_634_existing,,,
198,0.0,19.874,-4.55882e-05,,0.0,,mongenerator-battery_634_existing,,,
199,0.0,-18.6668,0.000169085,,0.0,,mongenerator-battery_634_existing,,,
200,0.0,-16.018,-2.37932e-06,,0.0,,mongenerator-battery_634_existing,,,
201,0.0,-0.782,2.97556e-07,,0.0,,mongenerator-battery_634_existing,,,
202,0.0,62.535,-1.15135e-05,,0.0,,mongenerator-battery_634_existing,,,
203,0.0,-25.905,-4.62052e-06,,0.0,,mongenerator-battery_634_existing,,,
204,0.0,58.166,-1.55797e-06,,0.0,,mongenerator-battery_634_existing,,,
205,0.0,14.903,-0.000164414,,0.0,,mongenerator-battery_634_existing,,,
206,0.0,0.0,0.0,,0.0,,mongenerator-battery_634_existing,,,
207,0.0,0.0,0.0,,0.0,,mongenerator-battery_634_existing,,,
208,0.0,0.0,0.0,,0.0,,mongenerator-battery_634_existing,,,
209,0.0,-11.669,-5.00782e-06,,0.0,,mongenerator-battery_634_existing,,,
210,0.0,-36.0335,-0.000462559,,0.0,,mongenerator-battery_634_existing,,,
211,0.0,-46.0298,0.000198341,,0.0,,mongenerator-battery_634_existing,,,
212,0.0,-36.7309,-0.00205503,,0.0,,mongenerator-battery_634_existing,,,
213,0.0,-15.484,-1.30605e-05,,0.0,,mongenerator-battery_634_existing,,,
214,0.0,0.0,0.0,,0.0,,mongenerator-battery_634_existing,,,
215,0.0,0.0,0.0,,0.0,,mongenerator-battery_634_existing,,,
216,0.0,0.0,0.0,,0.0,,mongenerator-battery_634_existing,,,
217,0.0,0.0,0.0,,0.0,,mongenerator-battery_634_existing,,,
218,0.0,0.0,0.0,,0.0,,mongenerator-battery_634_existing,,,
219,0.0,0.0,0.0,,0.0,,mongenerator-battery_634_existing,,,
220,0.0,0.0,0.0,,0.0,,mongenerator-battery_634_existing,,,
221,0.0,0.0,0.0,,0.0,,mongenerator-battery_634_existing,,,
222,0.0,0.0,0.0,,0.0,,mongenerator-battery_634_existing,,,
223,0.0,0.0,0.0,,0.0,,mongenerator-battery_634_existing,,,
224,0.0,0.0,0.0,,0.0,,mongenerator-battery_634_existing,,,
225,0.0,0.0,0.0,,0.0,,mongenerator-battery_634_existing,,,
226,0.0,0.0,0.0,,0.0,,mongenerator-battery_634_existing,,,
227,0.0,0.0,0.0,,0.0,,mongenerator-battery_634_existing,,,
228,0.0,79.0,-6.2884e-06,,0.0,,mongenerator-battery_634_existing,,,
229,0.0,0.0,0.0,,0.0,,mongenerator-battery_634_existing,,,
230,0.0,33.247,-6.73781e-05,,0.0,,mongenerator-battery_634_existing,,,
231,0.0,40.449,2.01234e-05,,0.0,,mongenerator-battery_634_existing,,,
232,0.0,8.894,-2.65456e-06,,0.0,,mongenerator-battery_634_existing,,,
233,0.0,0.0,0.0,,0.0,,mongenerator-battery_634_existing,,,
234,0.0,-43.957,-1.65652e-05,,0.0,,mongenerator-battery_634_existing,,,
235,0.0,-48.9704,-0.00035565,,0.0,,mongenerator-battery_634_existing,,,
236,0.0,-35.6464,-0.00272205,,0.0,,mongenerator-battery_634_existing,,,
237,0.0,-15.472,-1.55747e-05,,0.0,,mongenerator-battery_634_existing,,,
238,0.0,0.0,0.0,,0.0,,mongenerator-battery_634_existing,,,
239,0.0,0.0,0.0,,0.0,,mongenerator-battery_634_existing,,,
240,0.0,-1.266,8.45942e-07,,0.0,,mongenerator-battery_634_existing,,,
241,0.0,-7.17003,-2.4476e-05,,0.0,,mongenerator-battery_634_existing,,,
242,0.0,1.057,-5.25431e-07,,0.0,,mongenerator-battery_634_existing,,,
243,0.0,1.88,1.3113e-06,,0.0,,mongenerator-battery_634_existing,,,
244,0.0,2.561,-3.509e-06,,0.0,,mongenerator-battery_634_existing,,,
245,0.0,-2.00397,3.00678e-05,,0.0,,mongenerator-battery_634_existing,,,
246,0.0,-1.331,1.20126e-06,,0.0,,mongenerator-battery_634_existing,,,
247,0.0,-39.147,-4.72497e-06,,0.0,,mongenerator-battery_634_existing,,,
248,0.0,-39.315,-5.95362e-06,,0.0,,mongenerator-battery_634_existing,,,
249,0.0,-2.727,1.40311e-06,,0.0,,mongenerator-battery_634_existing,,,
250,0.0,0.0,0.0,,0.0,,mongenerator-battery_634_existing,,,
251,0.0,77.1449,-1.15944e-05,,0.0,,mongenerator-battery_634_existing,,,
252,0.0,78.9999,-6.85909e-05,,0.0,,mongenerator-battery_634_existing,,,
253,0.0,79.0002,0.000154777,,0.0,,mongenerator-battery_634_existing,,,
254,0.0,23.9479,-0.000121854,,0.0,,mongenerator-battery_634_existing,,,
255,0.0,0.0,0.0,,0.0,,mongenerator-battery_634_existing,,,
256,0.0,0.0,0.0,,0.0,,mongenerator-battery_634_existing,,,
257,0.0,0.0,0.0,,0.0,,mongenerator-battery_634_existing,,,
258,0.0,-24.1726,-0.000454039,,0.0,,mongenerator-battery_634_existing,,,
259,0.0,-50.7158,-0.000755284,,0.0,,mongenerator-battery_634_existing,,,
260,0.0,-40.8323,-0.000327191,,0.0,,mongenerator-battery_634_existing,,,
261,0.0,-15.751,-1.90975e-05,,0.0,,mongenerator-battery_634_existing,,,
262,0.0,-28.98,-3.39041e-05,,0.0,,mongenerator-battery_634_existing,,,
263,0.0,1.529,-1.38165e-06,,0.0,,mongenerator-battery_634_existing,,,
264,0.0,-18.592,6.04313e-06,,0.0,,mongenerator-battery_634_existing,,,
265,0.0,-3.477,-8.63166e-08,,0.0,,mongenerator-battery_634_existing,,,
266,0.0,3.59701,0.000165681,,0.0,,mongenerator-battery_634_existing,,,
267,0.0,4.27602,4.28591e-05,,0.0,,mongenerator-battery_634_existing,,,
268,0.0,4.96901,2.48439e-05,,0.0,,mongenerator-battery_634_existing,,,
269,0.0,0.376,-7.99584e-08,,0.0,,mongenerator-battery_634_existing,,,
270,0.0,1.397,-5.29188e-06,,0.0,,mongenerator-battery_634_existing,,,
271,0.0,-34.746,-1.37783e-05,,0.0,,mongenerator-battery_634_existing,,,
272,0.0,-30.0491,-5.80547e-05,,0.0,,mongenerator-battery_634_existing,,,
273,0.0,0.0,0.0,,0.0,,mongenerator-battery_634_existing,,,
274,0.0,0.0,0.0,,0.0,,mongenerator-battery_634_existing,,,
275,0.0,78.9999,-8.93721e-06,,0.0,,mongenerator-battery_634_existing,,,
276,0.0,78.9999,-6.77203e-05,,0.0,,mongenerator-battery_634_existing,,,
277,0.0,79.0001,0.000124799,,0.0,,mongenerator-battery_634_existing,,,
278,0.0,22.093,0.00132294,,0.0,,mongenerator-battery_634_existing,,,
279,0.0,0.0,0.0,,0.0,,mongenerator-battery_634_existing,,,
280,0.0,0.0,0.0,,0.0,,mongenerator-battery_634_existing,,,
281,0.0,0.0,0.0,,0.0,,mongenerator-battery_634_existing,,,
282,0.0,0.0,0.0,,0.0,,mongenerator-battery_634_existing,,,
283,0.0,-64.7282,0.000897384,,0.0,,mongenerator-battery_634_existing,,,
284,0.0,-79.0004,-0.00055865,,0.0,,mongenerator-battery_634_existing,,,
285,0.0,-69.669,-2.14811e-05,,0.0,,mongenerator-battery_634_existing,,,
286,0.0,-19.412,-6.12545e-05,,0.0,,mongenerator-battery_634_existing,,,
287,0.0,22.062,-8.87805e-06,,0.0,,mongenerator-battery_634_existing,,,
288,0.0,1.032,3.2073e-06,,0.0,,mongenerator-battery_634_existing,,,
289,0.0,13.807,6.7298e-05,,0.0,,mongenerator-battery_634_existing,,,
290,0.0,0.0,0.0,,0.0,,mongenerator-battery_634_existing,,,
291,0.0,0.0,0.0,,0.0,,mongenerator-battery_634_existing,,,
292,0.0,0.0,0.0,,0.0,,mongenerator-battery_634_existing,,,
293,0.0,0.0,0.0,,0.0,,mongenerator-battery_634_existing,,,
294,0.0,0.0,0.0,,0.0,,mongenerator-battery_634_existing,,,
295,0.0,-21.657,-3.90566e-06,,0.0,,mongenerator-battery_634_existing,,,
296,0.0,-11.5,-8.56507e-06,,0.0,,mongenerator-battery_634_existing,,,
297,0.0,0.0,0.0,,0.0,,mongenerator-battery_634_existing,,,
298,0.0,8.296,-1.78682e-06,,0.0,,mongenerator-battery_634_existing,,,
299,0.0,78.9999,-1.00705e-05,,0.0,,mongenerator-battery_634_existing,,,
300,0.0,44.2893,-0.000830969,,0.0,,mongenerator-battery_634_existing,,,
1,0.0,,0.0,0.0,0.0,,mongenerator-battery_646,,,
2,0.0,,0.0,0.0,0.0,,mongenerator-battery_646,,,
3,0.0,,0.0,0.0,0.0,,mongenerator-battery_646,,,
4,0.0,,0.0,0.0,0.0,,mongenerator-battery_646,,,
5,0.0,,0.0,0.0,0.0,,mongenerator-battery_646,,,
6,0.0,,0.0,0.0,0.0,,mongenerator-battery_646,,,
7,0.0,,3.30961e-07,-2.28051,0.0,,mongenerator-battery_646,,,
8,0.0,,-1.11565e-06,-9.87572,0.0,,mongenerator-battery_646,,,
9,0.0,,0.0,0.0,0.0,,mongenerator-battery_646,,,
10,0.0,,0.0,0.0,0.0,,mongenerator-battery_646,,,
11,0.0,,3.21498e-06,3.76519,0.0,,mongenerator-battery_646,,,
12,0.0,,4.6257e-06,32.3113,0.0,,mongenerator-battery_646,,,
