hour,t(sec),V1,VAngle1,V2,VAngle2,I1,IAngle1,I2,IAngle2,V3,Name,VAngle3,I3,IAngle3,V4,VAngle4,I4,IAngle4,kv,V1(PU),V2(PU),V3(PU)
1,0.0,,112.362,,0.0,20.2518,112.365,20.2518,-67.6352,2441.2,monload-611_runway,,,,,,,,2.4,,,1.0171666666666666
2,0.0,,111.915,,0.0,21.49,111.918,21.49,-68.0822,2419.8,monload-611_runway,,,,,,,,2.4,,,1.00825
3,0.0,,111.942,,0.0,18.735,111.939,18.735,-68.0614,2421.0,monload-611_runway,,,,,,,,2.4,,,1.00875
4,0.0,,111.948,,0.0,18.1696,111.948,18.1696,-68.0524,2421.26,monload-611_runway,,,,,,,,2.4,,,1.0088583333333334
5,0.0,,111.789,,0.0,18.3433,111.79,18.3433,-68.2102,2414.09,monload-611_runway,,,,,,,,2.4,,,1.0058708333333335
6,0.0,,111.704,,0.0,19.8621,111.705,19.8621,-68.2952,2410.18,monload-611_runway,,,,,,,,2.4,,,1.0042416666666667
7,0.0,,111.496,,0.0,29.8483,111.498,29.8483,-68.5021,2400.67,monload-611_runway,,,,,,,,2.4,,,1.0002791666666666
8,0.0,,111.535,,0.0,31.8618,111.534,31.8618,-68.4663,2402.04,monload-611_runway,,,,,,,,2.4,,,1.00085
9,0.0,,111.548,,0.0,44.0268,111.547,44.0268,-68.4525,2402.64,monload-611_runway,,,,,,,,2.4,,,1.0010999999999999
10,0.0,,111.569,,0.0,37.8158,111.567,37.8158,-68.4326,2403.6,monload-611_runway,,,,,,,,2.4,,,1.0015
11,0.0,,111.59,,0.0,26.7204,111.588,26.7204,-68.4119,2404.59,monload-611_runway,,,,,,,,2.4,,,1.0019125
12,0.0,,112.442,,0.0,25.0426,112.443,25.0426,-67.557,2443.48,monload-611_runway,,,,,,,,2.4,,,1.0181166666666668
13,0.0,,111.591,,0.0,24.9564,111.591,24.9564,-68.4088,2404.63,monload-611_runway,,,,,,,,2.4,,,1.0019291666666668
14,0.0,,111.595,,0.0,24.9959,111.593,24.9959,-68.4066,2404.84,monload-611_runway,,,,,,,,2.4,,,1.0020166666666668
15,0.0,,112.667,,0.0,24.9268,112.66,24.9268,-67.3399,2452.31,monload-611_runway,,,,,,,,2.4,,,1.0217958333333332
16,0.0,,113.051,,0.0,24.7866,113.05,24.7866,-66.9502,2469.34,monload-611_runway,,,,,,,,2.4,,,1.0288916666666668
17,0.0,,111.961,,0.0,25.989,111.961,25.989,-68.0389,2420.69,monload-611_runway,,,,,,,,2.4,,,1.0086208333333333
18,0.0,,111.464,,0.0,31.4301,111.467,31.4301,-68.5335,2398.68,monload-611_runway,,,,,,,,2.4,,,0.99945
19,0.0,,111.418,,0.0,43.1551,111.419,43.1551,-68.581,2396.73,monload-611_runway,,,,,,,,2.4,,,0.9986375
20,0.0,,111.424,,0.0,45.3034,111.424,45.3034,-68.5763,2397.06,monload-611_runway,,,,,,,,2.4,,,0.998775
21,0.0,,111.432,,0.0,47.8087,111.431,47.8087,-68.569,2397.44,monload-611_runway,,,,,,,,2.4,,,0.9989333333333333
22,0.0,,111.465,,0.0,46.4444,111.463,46.4444,-68.5373,2399.15,monload-611_runway,,,,,,,,2.4,,,0.9996458333333333
23,0.0,,111.509,,0.0,35.6973,111.511,35.6973,-68.4893,2401.4,monload-611_runway,,,,,,,,2.4,,,1.0005833333333334
24,0.0,,111.543,,0.0,22.9122,111.541,22.9122,-68.459,2403.08,monload-611_runway,,,,,,,,2.4,,,1.0012833333333333
25,0.0,,111.562,,0.0,18.6667,111.56,18.6667,-68.4405,2404.05,monload-611_runway,,,,,,,,2.4,,,1.0016875
26,0.0,,111.562,,0.0,17.8494,111.562,17.8494,-68.4384,2404.04,monload-611_runway,,,,,,,,2.4,,,1.0016833333333333
27,0.0,,111.559,,0.0,16.9263,111.559,16.9263,-68.4411,2403.94,monload-611_runway,,,,,,,,2.4,,,1.0016416666666668
28,0.0,,111.556,,0.0,17.0116,111.556,17.0116,-68.4442,2403.84,monload-611_runway,,,,,,,,2.4,,,1.0016
29,0.0,,111.521,,0.0,17.6802,111.525,17.6802,-68.475,2402.14,monload-611_runway,,,,,,,,2.4,,,1.0008916666666665
30,0.0,,111.486,,0.0,21.26,111.489,21.26,-68.5108,2400.36,monload-611_runway,,,,,,,,2.4,,,1.00015
31,0.0,,111.407,,0.0,33.1809,111.408,33.1809,-68.5924,2396.57,monload-611_runway,,,,,,,,2.4,,,0.9985708333333334
32,0.0,,111.394,,0.0,34.8528,111.397,34.8528,-68.6034,2396.23,monload-611_runway,,,,,,,,2.4,,,0.9984291666666667
33,0.0,,111.377,,0.0,30.7756,111.373,30.7756,-68.6269,2396.0,monload-611_runway,,,,,,,,2.4,,,0.9983333333333333
34,0.0,,111.38,,0.0,31.0977,111.378,31.0977,-68.6218,2396.64,monload-611_runway,,,,,,,,2.4,,,0.9985999999999999
35,0.0,,111.401,,0.0,25.135,111.405,25.135,-68.5955,2397.69,monload-611_runway,,,,,,,,2.4,,,0.9990375
36,0.0,,111.391,,0.0,26.0047,111.392,26.0047,-68.6081,2397.2,monload-611_runway,,,,,,,,2.4,,,0.9988333333333332
37,0.0,,111.409,,0.0,26.4116,111.407,26.4116,-68.5934,2397.83,monload-611_runway,,,,,,,,2.4,,,0.9990958333333333
38,0.0,,111.402,,0.0,25.3752,111.403,25.3752,-68.5972,2397.74,monload-611_runway,,,,,,,,2.4,,,0.9990583333333333
39,0.0,,112.034,,0.0,24.5082,112.033,24.5082,-67.967,2425.65,monload-611_runway,,,,,,,,2.4,,,1.0106875
40,0.0,,111.398,,0.0,24.748,111.399,24.748,-68.6014,2397.54,monload-611_runway,,,,,,,,2.4,,,0.998975
41,0.0,,111.35,,0.0,25.8685,111.355,25.8685,-68.6451,2395.11,monload-611_runway,,,,,,,,2.4,,,0.9979625000000001
42,0.0,,111.357,,0.0,31.6633,111.357,31.6633,-68.6431,2394.01,monload-611_runway,,,,,,,,2.4,,,0.9975041666666667
43,0.0,,111.37,,0.0,38.7986,111.37,38.7986,-68.6299,2394.41,monload-611_runway,,,,,,,,2.4,,,0.9976708333333333
44,0.0,,111.374,,0.0,41.1781,111.375,41.1781,-68.6251,2394.62,monload-611_runway,,,,,,,,2.4,,,0.9977583333333333
45,0.0,,111.394,,0.0,45.1231,111.393,45.1231,-68.6075,2395.67,monload-611_runway,,,,,,,,2.4,,,0.9981958333333334
46,0.0,,111.431,,0.0,42.3023,111.427,42.3023,-68.5732,2397.56,monload-611_runway,,,,,,,,2.4,,,0.9989833333333333
47,0.0,,111.488,,0.0,30.8497,111.489,30.8497,-68.511,2400.39,monload-611_runway,,,,,,,,2.4,,,1.0001624999999998
48,0.0,,111.521,,0.0,21.1497,111.518,21.1497,-68.4823,2402.04,monload-611_runway,,,,,,,,2.4,,,1.00085
49,0.0,,111.54,,0.0,18.8942,111.539,18.8942,-68.461,2403.02,monload-611_runway,,,,,,,,2.4,,,1.0012583333333334
50,0.0,,111.539,,0.0,18.3946,111.539,18.3946,-68.4613,2403.01,monload-611_runway,,,,,,,,2.4,,,1.0012541666666668
51,0.0,,111.536,,0.0,17.8874,111.536,17.8874,-68.464,2402.92,monload-611_runway,,,,,,,,2.4,,,1.0012166666666666
52,0.0,,111.534,,0.0,18.4384,111.535,18.4384,-68.4654,2402.84,monload-611_runway,,,,,,,,2.4,,,1.0011833333333333
53,0.0,,111.499,,0.0,19.6598,111.5,19.6598,-68.5003,2401.07,monload-611_runway,,,,,,,,2.4,,,1.0004458333333335
54,0.0,,111.465,,0.0,23.9779,111.468,23.9779,-68.532,2399.31,monload-611_runway,,,,,,,,2.4,,,0.9997125
55,0.0,,111.385,,0.0,35.7182,111.385,35.7182,-68.615,2395.44,monload-611_runway,,,,,,,,2.4,,,0.9981
56,0.0,,111.376,,0.0,35.9782,111.378,35.9782,-68.6225,2395.32,monload-611_runway,,,,,,,,2.4,,,0.9980500000000001
57,0.0,,111.369,,0.0,31.5574,111.368,31.5574,-68.632,2395.59,monload-611_runway,,,,,,,,2.4,,,0.9981625000000001
58,0.0,,111.373,,0.0,31.2533,111.372,31.2533,-68.6284,2396.28,monload-611_runway,,,,,,,,2.4,,,0.9984500000000001
59,0.0,,111.77,,0.0,24.7817,111.766,24.7817,-68.234,2414.13,monload-611_runway,,,,,,,,2.4,,,1.0058875
60,0.0,,111.386,,0.0,25.9092,111.387,25.9092,-68.6133,2396.93,monload-611_runway,,,,,,,,2.4,,,0.9987208333333333
61,0.0,,111.396,,0.0,27.1001,111.395,27.1001,-68.6049,2397.15,monload-611_runway,,,,,,,,2.4,,,0.9988125
62,0.0,,111.375,,0.0,27.5835,111.376,27.5835,-68.6235,2396.37,monload-611_runway,,,,,,,,2.4,,,0.9984875
63,0.0,,111.369,,0.0,27.9419,111.37,27.9419,-68.6303,2396.09,monload-611_runway,,,,,,,,2.4,,,0.9983708333333334
64,0.0,,111.355,,0.0,28.0794,111.357,28.0794,-68.6432,2395.37,monload-611_runway,,,,,,,,2.4,,,0.9980708333333332
65,0.0,,111.318,,0.0,28.5183,111.318,28.5183,-68.682,2393.44,monload-611_runway,,,,,,,,2.4,,,0.9972666666666666
66,0.0,,111.355,,0.0,32.6003,111.355,32.6003,-68.6451,2393.91,monload-611_runway,,,,,,,,2.4,,,0.9974624999999999
67,0.0,,111.367,,0.0,38.728,111.366,38.728,-68.6336,2394.27,monload-611_runway,,,,,,,,2.4,,,0.9976125
68,0.0,,111.381,,0.0,40.8709,111.382,40.8709,-68.6183,2394.97,monload-611_runway,,,,,,,,2.4,,,0.9979041666666666
69,0.0,,111.402,,0.0,44.806,111.4,44.806,-68.6,2396.05,monload-611_runway,,,,,,,,2.4,,,0.9983541666666668
70,0.0,,111.439,,0.0,41.9513,111.443,41.9513,-68.5572,2397.92,monload-611_runway,,,,,,,,2.4,,,0.9991333333333333
71,0.0,,111.493,,0.0,30.874,111.494,30.874,-68.5062,2400.71,monload-611_runway,,,,,,,,2.4,,,1.0002958333333334
72,0.0,,111.532,,0.0,21.1947,111.53,21.1947,-68.47,2402.62,monload-611_runway,,,,,,,,2.4,,,1.0010916666666667
73,0.0,,111.555,,0.0,18.5785,111.552,18.5785,-68.4483,2403.81,monload-611_runway,,,,,,,,2.4,,,1.0015875
74,0.0,,111.557,,0.0,17.7129,111.557,17.7129,-68.4432,2403.94,monload-611_runway,,,,,,,,2.4,,,1.0016416666666668
75,0.0,,111.56,,0.0,16.7422,111.56,16.7422,-68.4403,2404.08,monload-611_runway,,,,,,,,2.4,,,1.0017
76,0.0,,111.56,,0.0,16.8093,111.56,16.8093,-68.4396,2404.09,monload-611_runway,,,,,,,,2.4,,,1.0017041666666666
77,0.0,,111.526,,0.0,17.5128,111.53,17.5128,-68.4701,2402.4,monload-611_runway,,,,,,,,2.4,,,1.0010000000000001
78,0.0,,111.498,,0.0,20.9229,111.501,20.9229,-68.4994,2400.94,monload-611_runway,,,,,,,,2.4,,,1.0003916666666668
79,0.0,,111.392,,0.0,32.7171,111.396,32.7171,-68.6041,2395.86,monload-611_runway,,,,,,,,2.4,,,0.998275
80,0.0,,111.162,,0.0,34.9942,111.163,34.9942,-68.837,2384.88,monload-611_runway,,,,,,,,2.4,,,0.9937
81,0.0,,111.384,,0.0,30.82,111.383,30.82,-68.6167,2396.45,monload-611_runway,,,,,,,,2.4,,,0.9985208333333333
82,0.0,,113.541,,0.0,30.1071,113.538,30.1071,-66.4615,2492.17,monload-611_runway,,,,,,,,2.4,,,1.0384041666666668
83,0.0,,115.087,,0.0,23.2784,115.085,23.2784,-64.9149,2541.74,monload-611_runway,,,,,,,,2.4,,,1.0590583333333332
84,0.0,,116.736,,0.0,24.3492,116.733,24.3492,-63.2669,2597.74,monload-611_runway,,,,,,,,2.4,,,1.0823916666666666
85,0.0,,117.896,,0.0,25.952,117.896,25.952,-62.1045,2644.2,monload-611_runway,,,,,,,,2.4,,,1.10175
86,0.0,,117.724,,0.0,27.2689,117.733,27.2689,-62.2666,2636.55,monload-611_runway,,,,,,,,2.4,,,1.0985625
87,0.0,,116.465,,0.0,27.0847,116.455,27.0847,-63.5447,2584.99,monload-611_runway,,,,,,,,2.4,,,1.0770791666666666
88,0.0,,114.287,,0.0,26.3335,114.285,26.3335,-65.7147,2492.75,monload-611_runway,,,,,,,,2.4,,,1.0386458333333333
89,0.0,,111.342,,0.0,27.5633,111.339,27.5633,-68.6608,2394.98,monload-611_runway,,,,,,,,2.4,,,0.9979083333333333
90,0.0,,111.349,,0.0,33.8235,111.351,33.8235,-68.6493,2393.94,monload-611_runway,,,,,,,,2.4,,,0.997475
91,0.0,,111.367,,0.0,41.4629,111.37,41.4629,-68.6301,2394.55,monload-611_runway,,,,,,,,2.4,,,0.9977291666666668
92,0.0,,111.375,,0.0,44.545,111.374,44.545,-68.6256,2394.92,monload-611_runway,,,,,,,,2.4,,,0.9978833333333333
93,0.0,,111.4,,0.0,49.2734,111.399,49.2734,-68.6013,2396.18,monload-611_runway,,,,,,,,2.4,,,0.9984083333333332
94,0.0,,111.44,,0.0,46.4184,111.436,46.4184,-68.5639,2398.21,monload-611_runway,,,,,,,,2.4,,,0.9992541666666667
95,0.0,,111.501,,0.0,34.3923,111.502,34.3923,-68.4981,2401.26,monload-611_runway,,,,,,,,2.4,,,1.000525
96,0.0,,111.541,,0.0,24.0131,111.541,24.0131,-68.4588,2403.24,monload-611_runway,,,,,,,,2.4,,,1.00135
97,0.0,,111.567,,0.0,21.7964,111.567,21.7964,-68.4326,2404.55,monload-611_runway,,,,,,,,2.4,,,1.0018958333333334
98,0.0,,111.572,,0.0,20.8093,111.571,20.8093,-68.4289,2404.77,monload-611_runway,,,,,,,,2.4,,,1.0019875
99,0.0,,111.574,,0.0,19.5335,111.574,19.5335,-68.4263,2404.88,monload-611_runway,,,,,,,,2.4,,,1.0020333333333333
100,0.0,,111.576,,0.0,19.3539,111.576,19.3539,-68.424,2405.0,monload-611_runway,,,,,,,,2.4,,,1.0020833333333334
101,0.0,,111.546,,0.0,19.795,111.549,19.795,-68.4506,2403.51,monload-611_runway,,,,,,,,2.4,,,1.0014625000000001
102,0.0,,111.514,,0.0,23.6849,111.517,23.6849,-68.4828,2401.89,monload-611_runway,,,,,,,,2.4,,,1.0007875
103,0.0,,111.426,,0.0,38.4226,111.427,38.4226,-68.5735,2397.85,monload-611_runway,,,,,,,,2.4,,,0.9991041666666667
104,0.0,,111.087,,0.0,42.7031,111.09,42.7031,-68.9102,2381.56,monload-611_runway,,,,,,,,2.4,,,0.9923166666666666
105,0.0,,110.886,,0.0,39.7651,110.888,39.7651,-69.1123,2372.24,monload-611_runway,,,,,,,,2.4,,,0.9884333333333333
106,0.0,,112.945,,0.0,42.459,112.944,42.459,-67.0555,2465.76,monload-611_runway,,,,,,,,2.4,,,1.0274
107,0.0,,114.948,,0.0,36.9955,114.946,36.9955,-65.0542,2535.22,monload-611_runway,,,,,,,,2.4,,,1.0563416666666665
108,0.0,,115.472,,0.0,35.461,115.475,35.461,-64.5247,2558.57,monload-611_runway,,,,,,,,2.4,,,1.0660708333333333
109,0.0,,117.145,,0.0,36.6391,117.14,36.6391,-62.8601,2613.43,monload-611_runway,,,,,,,,2.4,,,1.0889291666666665
110,0.0,,117.251,,0.0,37.5288,117.247,37.5288,-62.7533,2616.14,monload-611_runway,,,,,,,,2.4,,,1.0900583333333334
111,0.0,,115.984,,0.0,37.1899,115.973,37.1899,-64.0269,2563.7,monload-611_runway,,,,,,,,2.4,,,1.0682083333333332
112,0.0,,113.954,,0.0,35.8436,113.953,35.8436,-66.0467,2477.62,monload-611_runway,,,,,,,,2.4,,,1.0323416666666667
113,0.0,,111.209,,0.0,37.3236,111.209,37.3236,-68.7911,2388.21,monload-611_runway,,,,,,,,2.4,,,0.9950875
114,0.0,,111.255,,0.0,42.3539,111.256,42.3539,-68.7443,2389.12,monload-611_runway,,,,,,,,2.4,,,0.9954666666666666
115,0.0,,111.312,,0.0,48.2942,111.31,48.2942,-68.6897,2391.68,monload-611_runway,,,,,,,,2.4,,,0.9965333333333333
116,0.0,,111.33,,0.0,50.8826,111.329,50.8826,-68.6713,2392.62,monload-611_runway,,,,,,,,2.4,,,0.996925
117,0.0,,111.358,,0.0,55.1034,111.356,55.1034,-68.6441,2394.05,monload-611_runway,,,,,,,,2.4,,,0.9975208333333334
118,0.0,,111.403,,0.0,52.4571,111.399,52.4571,-68.6007,2396.34,monload-611_runway,,,,,,,,2.4,,,0.9984750000000001
119,0.0,,111.475,,0.0,40.733,111.475,40.733,-68.5247,2399.9,monload-611_runway,,,,,,,,2.4,,,0.9999583333333334
120,0.0,,111.524,,0.0,29.5798,111.524,29.5798,-68.4756,2402.37,monload-611_runway,,,,,,,,2.4,,,1.0009875
121,0.0,,111.564,,0.0,25.8806,111.563,25.8806,-68.437,2404.39,monload-611_runway,,,,,,,,2.4,,,1.0018291666666665
122,0.0,,111.569,,0.0,24.5759,111.569,24.5759,-68.4312,2404.66,monload-611_runway,,,,,,,,2.4,,,1.0019416666666665
123,0.0,,111.573,,0.0,22.9971,111.573,22.9971,-68.4275,2404.83,monload-611_runway,,,,,,,,2.4,,,1.0020125
124,0.0,,111.578,,0.0,22.3842,111.578,22.3842,-68.4224,2405.09,monload-611_runway,,,,,,,,2.4,,,1.0021208333333333
125,0.0,,111.545,,0.0,22.8134,111.546,22.8134,-68.454,2403.45,monload-611_runway,,,,,,,,2.4,,,1.0014375
126,0.0,,111.512,,0.0,26.7316,111.515,26.7316,-68.4849,2401.77,monload-611_runway,,,,,,,,2.4,,,1.0007375
127,0.0,,111.383,,0.0,41.3038,111.384,41.3038,-68.6163,2395.7,monload-611_runway,,,,,,,,2.4,,,0.9982083333333333
128,0.0,,111.102,,0.0,45.5509,111.102,45.5509,-68.8983,2382.25,monload-611_runway,,,,,,,,2.4,,,0.9926041666666666
129,0.0,,111.082,,0.0,44.0571,111.083,44.0571,-68.9169,2381.7,monload-611_runway,,,,,,,,2.4,,,0.9923749999999999
130,0.0,,111.033,,0.0,44.3574,111.031,44.3574,-68.9692,2379.69,monload-611_runway,,,,,,,,2.4,,,0.9915375000000001
131,0.0,,113.539,,0.0,38.3172,113.534,38.3172,-66.4657,2490.52,monload-611_runway,,,,,,,,2.4,,,1.0377166666666666
132,0.0,,114.019,,0.0,39.0492,114.021,39.0492,-65.9794,2511.54,monload-611_runway,,,,,,,,2.4,,,1.046475
133,0.0,,115.136,,0.0,40.1233,115.134,40.1233,-64.8658,2543.66,monload-611_runway,,,,,,,,2.4,,,1.0598583333333333
134,0.0,,115.1,,0.0,40.6722,115.101,40.6722,-64.8986,2541.89,monload-611_runway,,,,,,,,2.4,,,1.0591208333333333
135,0.0,,115.133,,0.0,40.3892,115.132,40.3892,-64.8683,2543.45,monload-611_runway,,,,,,,,2.4,,,1.0597708333333333
136,0.0,,113.091,,0.0,38.751,113.091,38.751,-66.909,2454.69,monload-611_runway,,,,,,,,2.4,,,1.0227875
137,0.0,,111.18,,0.0,37.858,111.177,37.858,-68.8226,2386.71,monload-611_runway,,,,,,,,2.4,,,0.9944625
138,0.0,,111.24,,0.0,42.9001,111.24,42.9001,-68.7601,2388.19,monload-611_runway,,,,,,,,2.4,,,0.9950791666666667
139,0.0,,111.263,,0.0,49.9773,111.262,49.9773,-68.7382,2389.19,monload-611_runway,,,,,,,,2.4,,,0.9954958333333334
140,0.0,,111.061,,0.0,52.678,111.062,52.678,-68.9376,2379.32,monload-611_runway,,,,,,,,2.4,,,0.9913833333333334
141,0.0,,111.303,,0.0,57.1881,111.305,57.1881,-68.695,2391.23,monload-611_runway,,,,,,,,2.4,,,0.9963458333333334
142,0.0,,111.4,,0.0,51.6617,111.4,51.6617,-68.5996,2396.16,monload-611_runway,,,,,,,,2.4,,,0.9984
143,0.0,,111.507,,0.0,37.0848,111.508,37.0848,-68.4925,2401.54,monload-611_runway,,,,,,,,2.4,,,1.0006416666666667
144,0.0,,111.552,,0.0,25.3175,111.55,25.3175,-68.4504,2403.77,monload-611_runway,,,,,,,,2.4,,,1.0015708333333333
145,0.0,,111.578,,0.0,23.1146,111.58,23.1146,-68.4202,2405.1,monload-611_runway,,,,,,,,2.4,,,1.002125
146,0.0,,111.581,,0.0,22.7156,111.581,22.7156,-68.4191,2405.25,monload-611_runway,,,,,,,,2.4,,,1.0021875
147,0.0,,111.583,,0.0,19.4987,111.583,19.4987,-68.4169,2405.34,monload-611_runway,,,,,,,,2.4,,,1.0022250000000001
148,0.0,,111.583,,0.0,19.1538,111.583,19.1538,-68.4165,2405.37,monload-611_runway,,,,,,,,2.4,,,1.0022375
149,0.0,,111.565,,0.0,19.44,111.564,19.44,-68.4359,2404.46,monload-611_runway,,,,,,,,2.4,,,1.0018583333333333
150,0.0,,111.536,,0.0,20.7921,111.537,20.7921,-68.4631,2402.97,monload-611_runway,,,,,,,,2.4,,,1.0012375
151,0.0,,111.487,,0.0,30.6613,111.483,30.6613,-68.5167,2400.55,monload-611_runway,,,,,,,,2.4,,,1.0002291666666667
152,0.0,,111.496,,0.0,32.5578,111.496,32.5578,-68.5039,2400.79,monload-611_runway,,,,,,,,2.4,,,1.0003291666666667
153,0.0,,111.733,,0.0,45.5458,111.732,45.5458,-68.2678,2411.26,monload-611_runway,,,,,,,,2.4,,,1.0046916666666668
154,0.0,,111.077,,0.0,40.6198,111.077,40.6198,-68.9228,2380.68,monload-611_runway,,,,,,,,2.4,,,0.9919499999999999
155,0.0,,115.536,,0.0,32.3445,115.535,32.3445,-64.4651,2561.77,monload-611_runway,,,,,,,,2.4,,,1.0674041666666667
156,0.0,,117.472,,0.0,32.6749,117.47,32.6749,-62.5305,2627.16,monload-611_runway,,,,,,,,2.4,,,1.09465
157,0.0,,117.499,,0.0,33.3818,117.495,33.3818,-62.5045,2626.69,monload-611_runway,,,,,,,,2.4,,,1.0944541666666667
158,0.0,,117.235,,0.0,32.9763,117.233,32.9763,-62.7667,2616.03,monload-611_runway,,,,,,,,2.4,,,1.0900125
159,0.0,,116.022,,0.0,32.6142,116.017,32.6142,-63.9825,2565.61,monload-611_runway,,,,,,,,2.4,,,1.0690041666666668
160,0.0,,112.894,,0.0,33.0122,112.893,33.0122,-67.1069,2446.26,monload-611_runway,,,,,,,,2.4,,,1.0192750000000002
161,0.0,,111.49,,0.0,33.2851,111.491,33.2851,-68.5093,2384.16,monload-611_runway,,,,,,,,2.4,,,0.9934
162,0.0,,111.415,,0.0,36.5459,111.412,36.5459,-68.588,2396.44,monload-611_runway,,,,,,,,2.4,,,0.9985166666666667
163,0.0,,111.377,,0.0,47.5561,111.377,47.5561,-68.6234,2394.96,monload-611_runway,,,,,,,,2.4,,,0.9979
164,0.0,,111.386,,0.0,49.2997,111.387,49.2997,-68.6135,2395.47,monload-611_runway,,,,,,,,2.4,,,0.9981125
165,0.0,,111.409,,0.0,51.8892,111.41,51.8892,-68.5895,2396.58,monload-611_runway,,,,,,,,2.4,,,0.998575
166,0.0,,111.446,,0.0,51.0972,111.443,51.0972,-68.5574,2398.47,monload-611_runway,,,,,,,,2.4,,,0.9993624999999999
167,0.0,,111.504,,0.0,40.8171,111.506,40.8171,-68.4936,2401.37,monload-611_runway,,,,,,,,2.4,,,1.0005708333333332
168,0.0,,111.55,,0.0,27.8677,111.552,27.8677,-68.4485,2403.66,monload-611_runway,,,,,,,,2.4,,,1.001525
169,0.0,,111.581,,0.0,23.6005,111.579,23.6005,-68.4214,2405.22,monload-611_runway,,,,,,,,2.4,,,1.0021749999999998
170,0.0,,111.586,,0.0,23.0303,111.585,23.0303,-68.415,2405.46,monload-611_runway,,,,,,,,2.4,,,1.002275
171,0.0,,111.588,,0.0,19.8099,111.588,19.8099,-68.4118,2405.59,monload-611_runway,,,,,,,,2.4,,,1.0023291666666667
172,0.0,,111.589,,0.0,19.6465,111.589,19.6465,-68.4107,2405.64,monload-611_runway,,,,,,,,2.4,,,1.0023499999999999
173,0.0,,111.572,,0.0,20.1694,111.574,20.1694,-68.4262,2404.74,monload-611_runway,,,,,,,,2.4,,,1.0019749999999998
174,0.0,,111.541,,0.0,21.5583,111.545,21.5583,-68.4548,2403.22,monload-611_runway,,,,,,,,2.4,,,1.0013416666666666
175,0.0,,111.492,,0.0,31.2002,111.496,31.2002,-68.5038,2400.78,monload-611_runway,,,,,,,,2.4,,,1.0003250000000001
176,0.0,,111.529,,0.0,33.3904,111.53,33.3904,-68.4699,2402.0,monload-611_runway,,,,,,,,2.4,,,1.0008333333333332
177,0.0,,111.377,,0.0,49.5935,111.378,49.5935,-68.6218,2394.42,monload-611_runway,,,,,,,,2.4,,,0.997675
178,0.0,,113.252,,0.0,48.4258,113.25,48.4258,-66.7505,2477.3,monload-611_runway,,,,,,,,2.4,,,1.0322083333333334
179,0.0,,111.425,,0.0,39.6712,111.426,39.6712,-68.5741,2396.52,monload-611_runway,,,,,,,,2.4,,,0.9985499999999999
180,0.0,,110.913,,0.0,38.1499,110.918,38.1499,-69.0816,2371.34,monload-611_runway,,,,,,,,2.4,,,0.9880583333333334
181,0.0,,113.191,,0.0,38.4204,113.192,38.4204,-66.8078,2473.82,monload-611_runway,,,,,,,,2.4,,,1.0307583333333334
