hour,t(sec),P1(kW),Q1(kvar),P2(kW),Q2(kvar),P3(kW),Name,Q3(kvar),P4(kW),Q4(kvar)
1,0.0,0.0,0.0,,0.0,,mongenerator-battery_634_existing,,,
2,0.0,0.0,0.0,,0.0,,mongenerator-battery_634_existing,,,
3,0.0,0.0,0.0,,0.0,,mongenerator-battery_634_existing,,,
4,0.0,0.0,0.0,,0.0,,mongenerator-battery_634_existing,,,
5,0.0,0.0,0.0,,0.0,,mongenerator-battery_634_existing,,,
6,0.0,0.0,0.0,,0.0,,mongenerator-battery_634_existing,,,
7,0.0,0.0,0.0,,0.0,,mongenerator-battery_634_existing,,,
8,0.0,0.0,0.0,,0.0,,mongenerator-battery_634_existing,,,
9,0.0,-29.63,7.96176e-06,,0.0,,mongenerator-battery_634_existing,,,
10,0.0,79.0,-2.46681e-05,,0.0,,mongenerator-battery_634_existing,,,
11,0.0,0.0,0.0,,0.0,,mongenerator-battery_634_existing,,,
12,0.0,0.0,0.0,,0.0,,mongenerator-battery_634_existing,,,
13,0.0,0.0,0.0,,0.0,,mongenerator-battery_634_existing,,,
14,0.0,0.0,0.0,,0.0,,mongenerator-battery_634_existing,,,
15,0.0,0.0,0.0,,0.0,,mongenerator-battery_634_existing,,,
16,0.0,0.0,0.0,,0.0,,mongenerator-battery_634_existing,,,
17,0.0,0.0,0.0,,0.0,,mongenerator-battery_634_existing,,,
18,0.0,0.0,0.0,,0.0,,mongenerator-battery_634_existing,,,
19,0.0,0.0,0.0,,0.0,,mongenerator-battery_634_existing,,,
20,0.0,0.0,0.0,,0.0,,mongenerator-battery_634_existing,,,
21,0.0,0.0,0.0,,0.0,,mongenerator-battery_634_existing,,,
22,0.0,0.0,0.0,,0.0,,mongenerator-battery_634_existing,,,
23,0.0,0.0,0.0,,0.0,,mongenerator-battery_634_existing,,,
24,0.0,0.0,0.0,,0.0,,mongenerator-battery_634_existing,,,
25,0.0,0.0,0.0,,0.0,,mongenerator-battery_634_existing,,,
26,0.0,0.0,0.0,,0.0,,mongenerator-battery_634_existing,,,
27,0.0,0.0,0.0,,0.0,,mongenerator-battery_634_existing,,,
28,0.0,0.0,0.0,,0.0,,mongenerator-battery_634_existing,,,
29,0.0,0.0,0.0,,0.0,,mongenerator-battery_634_existing,,,
30,0.0,0.0,0.0,,0.0,,mongenerator-battery_634_existing,,,
31,0.0,0.0,0.0,,0.0,,mongenerator-battery_634_existing,,,
32,0.0,0.0,0.0,,0.0,,mongenerator-battery_634_existing,,,
33,0.0,0.0,0.0,,0.0,,mongenerator-battery_634_existing,,,
34,0.0,0.0,0.0,,0.0,,mongenerator-battery_634_existing,,,
35,0.0,-47.0568,6.71691e-05,,0.0,,mongenerator-battery_634_existing,,,
36,0.0,-31.9567,-0.00138329,,0.0,,mongenerator-battery_634_existing,,,
37,0.0,79.0,-2.30746e-06,,0.0,,mongenerator-battery_634_existing,,,
38,0.0,8.91999,-2.74625e-06,,0.0,,mongenerator-battery_634_existing,,,
39,0.0,0.0,0.0,,0.0,,mongenerator-battery_634_existing,,,
40,0.0,0.0,0.0,,0.0,,mongenerator-battery_634_existing,,,
41,0.0,0.0,0.0,,0.0,,mongenerator-battery_634_existing,,,
42,0.0,0.0,0.0,,0.0,,mongenerator-battery_634_existing,,,
43,0.0,0.0,0.0,,0.0,,mongenerator-battery_634_existing,,,
44,0.0,0.0,0.0,,0.0,,mongenerator-battery_634_existing,,,
45,0.0,0.0,0.0,,0.0,,mongenerator-battery_634_existing,,,
46,0.0,0.0,0.0,,0.0,,mongenerator-battery_634_existing,,,
47,0.0,0.0,0.0,,0.0,,mongenerator-battery_634_existing,,,
48,0.0,0.0,0.0,,0.0,,mongenerator-battery_634_existing,,,
49,0.0,0.0,0.0,,0.0,,mongenerator-battery_634_existing,,,
50,0.0,0.0,0.0,,0.0,,mongenerator-battery_634_existing,,,
51,0.0,0.0,0.0,,0.0,,mongenerator-battery_634_existing,,,
52,0.0,0.0,0.0,,0.0,,mongenerator-battery_634_existing,,,
53,0.0,0.0,0.0,,0.0,,mongenerator-battery_634_existing,,,
54,0.0,0.0,0.0,,0.0,,mongenerator-battery_634_existing,,,
55,0.0,0.0,0.0,,0.0,,mongenerator-battery_634_existing,,,
56,0.0,0.0,0.0,,0.0,,mongenerator-battery_634_existing,,,
57,0.0,0.0,0.0,,0.0,,mongenerator-battery_634_existing,,,
58,0.0,-79.0,7.2667e-05,,0.0,,mongenerator-battery_634_existing,,,
59,0.0,79.0,-5.14246e-06,,0.0,,mongenerator-battery_634_existing,,,
60,0.0,8.92002,9.30977e-06,,0.0,,mongenerator-battery_634_existing,,,
61,0.0,0.0,0.0,,0.0,,mongenerator-battery_634_existing,,,
62,0.0,0.0,0.0,,0.0,,mongenerator-battery_634_existing,,,
63,0.0,0.0,0.0,,0.0,,mongenerator-battery_634_existing,,,
64,0.0,0.0,0.0,,0.0,,mongenerator-battery_634_existing,,,
65,0.0,0.0,0.0,,0.0,,mongenerator-battery_634_existing,,,
66,0.0,0.0,0.0,,0.0,,mongenerator-battery_634_existing,,,
67,0.0,0.0,0.0,,0.0,,mongenerator-battery_634_existing,,,
68,0.0,0.0,0.0,,0.0,,mongenerator-battery_634_existing,,,
69,0.0,0.0,0.0,,0.0,,mongenerator-battery_634_existing,,,
70,0.0,0.0,0.0,,0.0,,mongenerator-battery_634_existing,,,
71,0.0,0.0,0.0,,0.0,,mongenerator-battery_634_existing,,,
72,0.0,0.0,0.0,,0.0,,mongenerator-battery_634_existing,,,
73,0.0,0.0,0.0,,0.0,,mongenerator-battery_634_existing,,,
74,0.0,0.0,0.0,,0.0,,mongenerator-battery_634_existing,,,
75,0.0,0.0,0.0,,0.0,,mongenerator-battery_634_existing,,,
76,0.0,0.0,0.0,,0.0,,mongenerator-battery_634_existing,,,
77,0.0,0.0,0.0,,0.0,,mongenerator-battery_634_existing,,,
78,0.0,0.0,0.0,,0.0,,mongenerator-battery_634_existing,,,
79,0.0,0.0,0.0,,0.0,,mongenerator-battery_634_existing,,,
80,0.0,0.0,0.0,,0.0,,mongenerator-battery_634_existing,,,
81,0.0,0.0,0.0,,0.0,,mongenerator-battery_634_existing,,,
82,0.0,-71.0001,-6.60554e-05,,0.0,,mongenerator-battery_634_existing,,,
83,0.0,78.9998,-0.000171167,,0.0,,mongenerator-battery_634_existing,,,
84,0.0,0.0,0.0,,0.0,,mongenerator-battery_634_existing,,,
85,0.0,0.0,0.0,,0.0,,mongenerator-battery_634_existing,,,
86,0.0,-71.0,7.27139e-06,,0.0,,mongenerator-battery_634_existing,,,
87,0.0,79.0,-2.62211e-06,,0.0,,mongenerator-battery_634_existing,,,
88,0.0,0.0,0.0,,0.0,,mongenerator-battery_634_existing,,,
89,0.0,0.0,0.0,,0.0,,mongenerator-battery_634_existing,,,
90,0.0,0.0,0.0,,0.0,,mongenerator-battery_634_existing,,,
91,0.0,0.0,0.0,,0.0,,mongenerator-battery_634_existing,,,
92,0.0,0.0,0.0,,0.0,,mongenerator-battery_634_existing,,,
93,0.0,0.0,0.0,,0.0,,mongenerator-battery_634_existing,,,
94,0.0,0.0,0.0,,0.0,,mongenerator-battery_634_existing,,,
95,0.0,0.0,0.0,,0.0,,mongenerator-battery_634_existing,,,
96,0.0,0.0,0.0,,0.0,,mongenerator-battery_634_existing,,,
97,0.0,0.0,0.0,,0.0,,mongenerator-battery_634_existing,,,
98,0.0,0.0,0.0,,0.0,,mongenerator-battery_634_existing,,,
99,0.0,0.0,0.0,,0.0,,mongenerator-battery_634_existing,,,
100,0.0,0.0,0.0,,0.0,,mongenerator-battery_634_existing,,,
101,0.0,0.0,0.0,,0.0,,mongenerator-battery_634_existing,,,
102,0.0,0.0,0.0,,0.0,,mongenerator-battery_634_existing,,,
103,0.0,0.0,0.0,,0.0,,mongenerator-battery_634_existing,,,
104,0.0,0.0,0.0,,0.0,,mongenerator-battery_634_existing,,,
105,0.0,0.0,0.0,,0.0,,mongenerator-battery_634_existing,,,
106,0.0,0.0,0.0,,0.0,,mongenerator-battery_634_existing,,,
107,0.0,0.0,0.0,,0.0,,mongenerator-battery_634_existing,,,
108,0.0,0.0,0.0,,0.0,,mongenerator-battery_634_existing,,,
109,0.0,0.0,0.0,,0.0,,mongenerator-battery_634_existing,,,
110,0.0,0.0,0.0,,0.0,,mongenerator-battery_634_existing,,,
111,0.0,0.0,0.0,,0.0,,mongenerator-battery_634_existing,,,
112,0.0,0.0,0.0,,0.0,,mongenerator-battery_634_existing,,,
113,0.0,0.0,0.0,,0.0,,mongenerator-battery_634_existing,,,
114,0.0,-39.3001,7.84413e-05,,0.0,,mongenerator-battery_634_existing,,,
115,0.0,-22.1767,1.59971e-05,,0.0,,mongenerator-battery_634_existing,,,
116,0.0,1.18999,6.86081e-06,,0.0,,mongenerator-battery_634_existing,,,
117,0.0,67.2215,-0.0136802,,0.0,,mongenerator-battery_634_existing,,,
118,0.0,0.0,0.0,,0.0,,mongenerator-battery_634_existing,,,
119,0.0,0.0,0.0,,0.0,,mongenerator-battery_634_existing,,,
120,0.0,0.0,0.0,,0.0,,mongenerator-battery_634_existing,,,
121,0.0,0.0,0.0,,0.0,,mongenerator-battery_634_existing,,,
122,0.0,0.0,0.0,,0.0,,mongenerator-battery_634_existing,,,
123,0.0,0.0,0.0,,0.0,,mongenerator-battery_634_existing,,,
124,0.0,0.0,0.0,,0.0,,mongenerator-battery_634_existing,,,
125,0.0,0.0,0.0,,0.0,,mongenerator-battery_634_existing,,,
126,0.0,0.0,0.0,,0.0,,mongenerator-battery_634_existing,,,
127,0.0,0.0,0.0,,0.0,,mongenerator-battery_634_existing,,,
128,0.0,0.0,0.0,,0.0,,mongenerator-battery_634_existing,,,
129,0.0,0.0,0.0,,0.0,,mongenerator-battery_634_existing,,,
130,0.0,0.0,0.0,,0.0,,mongenerator-battery_634_existing,,,
131,0.0,0.0,0.0,,0.0,,mongenerator-battery_634_existing,,,
132,0.0,0.0,0.0,,0.0,,mongenerator-battery_634_existing,,,
133,0.0,0.0,0.0,,0.0,,mongenerator-battery_634_existing,,,
134,0.0,0.0,0.0,,0.0,,mongenerator-battery_634_existing,,,
135,0.0,0.0,0.0,,0.0,,mongenerator-battery_634_existing,,,
136,0.0,0.0,0.0,,0.0,,mongenerator-battery_634_existing,,,
137,0.0,0.0,0.0,,0.0,,mongenerator-battery_634_existing,,,
138,0.0,-44.7268,9.15133e-05,,0.0,,mongenerator-battery_634_existing,,,
139,0.0,-34.29,1.73055e-05,,0.0,,mongenerator-battery_634_existing,,,
140,0.0,0.0,0.0,,0.0,,mongenerator-battery_634_existing,,,
141,0.0,0.0,0.0,,0.0,,mongenerator-battery_634_existing,,,
142,0.0,0.0,0.0,,0.0,,mongenerator-battery_634_existing,,,
143,0.0,0.0,0.0,,0.0,,mongenerator-battery_634_existing,,,
144,0.0,0.0,0.0,,0.0,,mongenerator-battery_634_existing,,,
145,0.0,0.0,0.0,,0.0,,mongenerator-battery_634_existing,,,
146,0.0,0.0,0.0,,0.0,,mongenerator-battery_634_existing,,,
147,0.0,0.0,0.0,,0.0,,mongenerator-battery_634_existing,,,
148,0.0,0.0,0.0,,0.0,,mongenerator-battery_634_existing,,,
149,0.0,0.0,0.0,,0.0,,mongenerator-battery_634_existing,,,
150,0.0,0.0,0.0,,0.0,,mongenerator-battery_634_existing,,,
151,0.0,0.0,0.0,,0.0,,mongenerator-battery_634_existing,,,
152,0.0,0.0,0.0,,0.0,,mongenerator-battery_634_existing,,,
153,0.0,0.0,0.0,,0.0,,mongenerator-battery_634_existing,,,
154,0.0,25.7633,-2.62879e-06,,0.0,,mongenerator-battery_634_existing,,,
155,0.0,62.1733,6.10138e-05,,0.0,,mongenerator-battery_634_existing,,,
156,0.0,0.0,0.0,,0.0,,mongenerator-battery_634_existing,,,
157,0.0,0.0,0.0,,0.0,,mongenerator-battery_634_existing,,,
158,0.0,0.0,0.0,,0.0,,mongenerator-battery_634_existing,,,
159,0.0,0.0,0.0,,0.0,,mongenerator-battery_634_existing,,,
160,0.0,0.0,0.0,,0.0,,mongenerator-battery_634_existing,,,
161,0.0,0.0,0.0,,0.0,,mongenerator-battery_634_existing,,,
162,0.0,0.0,0.0,,0.0,,mongenerator-battery_634_existing,,,
163,0.0,0.0,0.0,,0.0,,mongenerator-battery_634_existing,,,
164,0.0,0.0,0.0,,0.0,,mongenerator-battery_634_existing,,,
165,0.0,0.0,0.0,,0.0,,mongenerator-battery_634_existing,,,
166,0.0,0.0,0.0,,0.0,,mongenerator-battery_634_existing,,,
167,0.0,0.0,0.0,,0.0,,mongenerator-battery_634_existing,,,
168,0.0,0.0,0.0,,0.0,,mongenerator-battery_634_existing,,,
169,0.0,0.0,0.0,,0.0,,mongenerator-battery_634_existing,,,
170,0.0,0.0,0.0,,0.0,,mongenerator-battery_634_existing,,,
171,0.0,0.0,0.0,,0.0,,mongenerator-battery_634_existing,,,
172,0.0,0.0,0.0,,0.0,,mongenerator-battery_634_existing,,,
173,0.0,0.0,0.0,,0.0,,mongenerator-battery_634_existing,,,
174,0.0,0.0,0.0,,0.0,,mongenerator-battery_634_existing,,,
175,0.0,0.0,0.0,,0.0,,mongenerator-battery_634_existing,,,
176,0.0,0.0,0.0,,0.0,,mongenerator-battery_634_existing,,,
177,0.0,-79.0,-3.12591e-06,,0.0,,mongenerator-battery_634_existing,,,
178,0.0,23.3234,-7.63683e-05,,0.0,,mongenerator-battery_634_existing,,,
179,0.0,64.61,-0.000210906,,0.0,,mongenerator-battery_634_existing,,,
180,0.0,0.0,0.0,,0.0,,mongenerator-battery_634_existing,,,
181,0.0,0.0,0.0,,0.0,,mongenerator-battery_634_existing,,,
182,0.0,0.0,0.0,,0.0,,mongenerator-battery_634_existing,,,
183,0.0,0.0,0.0,,0.0,,mongenerator-battery_634_existing,,,
184,0.0,0.0,0.0,,0.0,,mongenerator-battery_634_existing,,,
185,0.0,0.0,0.0,,0.0,,mongenerator-battery_634_existing,,,
186,0.0,0.0,0.0,,0.0,,mongenerator-battery_634_existing,,,
187,0.0,0.0,0.0,,0.0,,mongenerator-battery_634_existing,,,
188,0.0,0.0,0.0,,0.0,,mongenerator-battery_634_existing,,,
189,0.0,0.0,0.0,,0.0,,mongenerator-battery_634_existing,,,
190,0.0,0.0,0.0,,0.0,,mongenerator-battery_634_existing,,,
191,0.0,0.0,0.0,,0.0,,mongenerator-battery_634_existing,,,
192,0.0,0.0,0.0,,0.0,,mongenerator-battery_634_existing,,,
193,0.0,0.0,0.0,,0.0,,mongenerator-battery_634_existing,,,
194,0.0,0.0,0.0,,0.0,,mongenerator-battery_634_existing,,,
195,0.0,0.0,0.0,,0.0,,mongenerator-battery_634_existing,,,
196,0.0,0.0,0.0,,0.0,,mongenerator-battery_634_existing,,,
197,0.0,0.0,0.0,,0.0,,mongenerator-battery_634_existing,,,
198,0.0,0.0,0.0,,0.0,,mongenerator-battery_634_existing,,,
199,0.0,0.0,0.0,,0.0,,mongenerator-battery_634_existing,,,
200,0.0,0.0,0.0,,0.0,,mongenerator-battery_634_existing,,,
201,0.0,0.0,0.0,,0.0,,mongenerator-battery_634_existing,,,
202,0.0,0.0,0.0,,0.0,,mongenerator-battery_634_existing,,,
203,0.0,0.0,0.0,,0.0,,mongenerator-battery_634_existing,,,
204,0.0,0.0,0.0,,0.0,,mongenerator-battery_634_existing,,,
205,0.0,0.0,0.0,,0.0,,mongenerator-battery_634_existing,,,
206,0.0,0.0,0.0,,0.0,,mongenerator-battery_634_existing,,,
207,0.0,0.0,0.0,,0.0,,mongenerator-battery_634_existing,,,
208,0.0,-9.33356,-7.90554e-06,,0.0,,mongenerator-battery_634_existing,,,
209,0.0,10.3866,6.32027e-05,,0.0,,mongenerator-battery_634_existing,,,
210,0.0,-32.5732,0.00491264,,0.0,,mongenerator-battery_634_existing,,,
211,0.0,-0.960001,8.61214e-07,,0.0,,mongenerator-battery_634_existing,,,
212,0.0,6.42993,3.46371e-05,,0.0,,mongenerator-battery_634_existing,,,
213,0.0,0.0,0.0,,0.0,,mongenerator-battery_634_existing,,,
214,0.0,0.0,0.0,,0.0,,mongenerator-battery_634_existing,,,
215,0.0,0.0,0.0,,0.0,,mongenerator-battery_634_existing,,,
216,0.0,0.0,0.0,,0.0,,mongenerator-battery_634_existing,,,
217,0.0,0.0,0.0,,0.0,,mongenerator-battery_634_existing,,,
218,0.0,0.0,0.0,,0.0,,mongenerator-battery_634_existing,,,
219,0.0,0.0,0.0,,0.0,,mongenerator-battery_634_existing,,,
220,0.0,0.0,0.0,,0.0,,mongenerator-battery_634_existing,,,
221,0.0,0.0,0.0,,0.0,,mongenerator-battery_634_existing,,,
222,0.0,0.0,0.0,,0.0,,mongenerator-battery_634_existing,,,
223,0.0,0.0,0.0,,0.0,,mongenerator-battery_634_existing,,,
224,0.0,0.0,0.0,,0.0,,mongenerator-battery_634_existing,,,
225,0.0,0.0,0.0,,0.0,,mongenerator-battery_634_existing,,,
226,0.0,0.0,0.0,,0.0,,mongenerator-battery_634_existing,,,
227,0.0,0.0,0.0,,0.0,,mongenerator-battery_634_existing,,,
228,0.0,0.0,0.0,,0.0,,mongenerator-battery_634_existing,,,
229,0.0,0.0,0.0,,0.0,,mongenerator-battery_634_existing,,,
230,0.0,0.0,0.0,,0.0,,mongenerator-battery_634_existing,,,
231,0.0,0.0,0.0,,0.0,,mongenerator-battery_634_existing,,,
232,0.0,0.0,0.0,,0.0,,mongenerator-battery_634_existing,,,
233,0.0,0.0,0.0,,0.0,,mongenerator-battery_634_existing,,,
234,0.0,-40.5002,0.000424952,,0.0,,mongenerator-battery_634_existing,,,
235,0.0,-10.76,-1.09014e-05,,0.0,,mongenerator-battery_634_existing,,,
236,0.0,0.0,0.0,,0.0,,mongenerator-battery_634_existing,,,
237,0.0,0.0,0.0,,0.0,,mongenerator-battery_634_existing,,,
238,0.0,0.0,0.0,,0.0,,mongenerator-battery_634_existing,,,
239,0.0,0.0,0.0,,0.0,,mongenerator-battery_634_existing,,,
240,0.0,0.0,0.0,,0.0,,mongenerator-battery_634_existing,,,
241,0.0,0.0,0.0,,0.0,,mongenerator-battery_634_existing,,,
242,0.0,0.0,0.0,,0.0,,mongenerator-battery_634_existing,,,
243,0.0,0.0,0.0,,0.0,,mongenerator-battery_634_existing,,,
244,0.0,0.0,0.0,,0.0,,mongenerator-battery_634_existing,,,
245,0.0,0.0,0.0,,0.0,,mongenerator-battery_634_existing,,,
246,0.0,0.0,0.0,,0.0,,mongenerator-battery_634_existing,,,
247,0.0,0.0,0.0,,0.0,,mongenerator-battery_634_existing,,,
248,0.0,0.0,0.0,,0.0,,mongenerator-battery_634_existing,,,
249,0.0,0.0,0.0,,0.0,,mongenerator-battery_634_existing,,,
250,0.0,0.0,0.0,,0.0,,mongenerator-battery_634_existing,,,
251,0.0,79.0,2.15349e-06,,0.0,,mongenerator-battery_634_existing,,,
252,0.0,8.91998,-7.37822e-06,,0.0,,mongenerator-battery_634_existing,,,
253,0.0,0.0,0.0,,0.0,,mongenerator-battery_634_existing,,,
254,0.0,0.0,0.0,,0.0,,mongenerator-battery_634_existing,,,
255,0.0,0.0,0.0,,0.0,,mongenerator-battery_634_existing,,,
256,0.0,0.0,0.0,,0.0,,mongenerator-battery_634_existing,,,
257,0.0,0.0,0.0,,0.0,,mongenerator-battery_634_existing,,,
258,0.0,0.0,0.0,,0.0,,mongenerator-battery_634_existing,,,
259,0.0,-16.5757,-0.00613529,,0.0,,mongenerator-battery_634_existing,,,
260,0.0,0.0,0.0,,0.0,,mongenerator-battery_634_existing,,,
261,0.0,0.0,0.0,,0.0,,mongenerator-battery_634_existing,,,
262,0.0,0.0,0.0,,0.0,,mongenerator-battery_634_existing,,,
263,0.0,0.0,0.0,,0.0,,mongenerator-battery_634_existing,,,
264,0.0,0.0,0.0,,0.0,,mongenerator-battery_634_existing,,,
265,0.0,0.0,0.0,,0.0,,mongenerator-battery_634_existing,,,
266,0.0,0.0,0.0,,0.0,,mongenerator-battery_634_existing,,,
267,0.0,0.0,0.0,,0.0,,mongenerator-battery_634_existing,,,
268,0.0,0.0,0.0,,0.0,,mongenerator-battery_634_existing,,,
269,0.0,0.0,0.0,,0.0,,mongenerator-battery_634_existing,,,
270,0.0,0.0,0.0,,0.0,,mongenerator-battery_634_existing,,,
271,0.0,0.0,0.0,,0.0,,mongenerator-battery_634_existing,,,
272,0.0,0.0,0.0,,0.0,,mongenerator-battery_634_existing,,,
273,0.0,-15.4467,2.49497e-05,,0.0,,mongenerator-battery_634_existing,,,
274,0.0,-46.9902,0.000610367,,0.0,,mongenerator-battery_634_existing,,,
275,0.0,78.9999,-8.74448e-06,,0.0,,mongenerator-battery_634_existing,,,
276,0.0,8.91998,-5.13419e-05,,0.0,,mongenerator-battery_634_existing,,,
277,0.0,0.0,0.0,,0.0,,mongenerator-battery_634_existing,,,
278,0.0,0.0,0.0,,0.0,,mongenerator-battery_634_existing,,,
279,0.0,0.0,0.0,,0.0,,mongenerator-battery_634_existing,,,
280,0.0,0.0,0.0,,0.0,,mongenerator-battery_634_existing,,,
281,0.0,0.0,0.0,,0.0,,mongenerator-battery_634_existing,,,
282,0.0,0.0,0.0,,0.0,,mongenerator-battery_634_existing,,,
283,0.0,0.0,0.0,,0.0,,mongenerator-battery_634_existing,,,
284,0.0,0.0,0.0,,0.0,,mongenerator-battery_634_existing,,,
285,0.0,0.0,0.0,,0.0,,mongenerator-battery_634_existing,,,
286,0.0,0.0,0.0,,0.0,,mongenerator-battery_634_existing,,,
287,0.0,0.0,0.0,,0.0,,mongenerator-battery_634_existing,,,
288,0.0,0.0,0.0,,0.0,,mongenerator-battery_634_existing,,,
289,0.0,0.0,0.0,,0.0,,mongenerator-battery_634_existing,,,
290,0.0,0.0,0.0,,0.0,,mongenerator-battery_634_existing,,,
291,0.0,0.0,0.0,,0.0,,mongenerator-battery_634_existing,,,
292,0.0,0.0,0.0,,0.0,,mongenerator-battery_634_existing,,,
293,0.0,0.0,0.0,,0.0,,mongenerator-battery_634_existing,,,
294,0.0,0.0,0.0,,0.0,,mongenerator-battery_634_existing,,,
295,0.0,0.0,0.0,,0.0,,mongenerator-battery_634_existing,,,
296,0.0,0.0,0.0,,0.0,,mongenerator-battery_634_existing,,,
297,0.0,0.0,0.0,,0.0,,mongenerator-battery_634_existing,,,
298,0.0,-78.9999,0.000166977,,0.0,,mongenerator-battery_634_existing,,,
299,0.0,72.4831,-0.000370473,,0.0,,mongenerator-battery_634_existing,,,
300,0.0,15.4533,-8.32722e-07,,0.0,,mongenerator-battery_634_existing,,,
301,0.0,0.0,0.0,,0.0,,mongenerator-battery_634_existing,,,
302,0.0,0.0,0.0,,0.0,,mongenerator-battery_634_existing,,,
303,0.0,0.0,0.0,,0.0,,mongenerator-battery_634_existing,,,
304,0.0,0.0,0.0,,0.0,,mongenerator-battery_634_existing,,,
305,0.0,0.0,0.0,,0.0,,mongenerator-battery_634_existing,,,
306,0.0,0.0,0.0,,0.0,,mongenerator-battery_634_existing,,,
307,0.0,0.0,0.0,,0.0,,mongenerator-battery_634_existing,,,
308,0.0,0.0,0.0,,0.0,,mongenerator-battery_634_existing,,,
309,0.0,0.0,0.0,,0.0,,mongenerator-battery_634_existing,,,
310,0.0,0.0,0.0,,0.0,,mongenerator-battery_634_existing,,,
311,0.0,0.0,0.0,,0.0,,mongenerator-battery_634_existing,,,
312,0.0,0.0,0.0,,0.0,,mongenerator-battery_634_existing,,,
313,0.0,0.0,0.0,,0.0,,mongenerator-battery_634_existing,,,
314,0.0,0.0,0.0,,0.0,,mongenerator-battery_634_existing,,,
315,0.0,0.0,0.0,,0.0,,mongenerator-battery_634_existing,,,
316,0.0,0.0,0.0,,0.0,,mongenerator-battery_634_existing,,,
317,0.0,0.0,0.0,,0.0,,mongenerator-battery_634_existing,,,
318,0.0,0.0,0.0,,0.0,,mongenerator-battery_634_existing,,,
319,0.0,0.0,0.0,,0.0,,mongenerator-battery_634_existing,,,
320,0.0,0.0,0.0,,0.0,,mongenerator-battery_634_existing,,,
321,0.0,0.0,0.0,,0.0,,mongenerator-battery_634_existing,,,
322,0.0,0.0,0.0,,0.0,,mongenerator-battery_634_existing,,,
323,0.0,-78.9998,0.000298348,,0.0,,mongenerator-battery_634_existing,,,
324,0.0,79.0,-3.91894e-05,,0.0,,mongenerator-battery_634_existing,,,
325,0.0,8.92,2.19847e-06,,0.0,,mongenerator-battery_634_existing,,,
326,0.0,0.0,0.0,,0.0,,mongenerator-battery_634_existing,,,
327,0.0,0.0,0.0,,0.0,,mongenerator-battery_634_existing,,,
328,0.0,0.0,0.0,,0.0,,mongenerator-battery_634_existing,,,
329,0.0,0.0,0.0,,0.0,,mongenerator-battery_634_existing,,,
330,0.0,0.0,0.0,,0.0,,mongenerator-battery_634_existing,,,
