hour,t(sec),V1,VAngle1,V2,VAngle2,I1,IAngle1,I2,IAngle2,V3,Name,VAngle3,I3,IAngle3,V4,VAngle4,I4,IAngle4,kv,V1(PU),V2(PU),V3(PU)
1,0.0,,114.519,,0.0,20.2518,114.52,20.2518,-65.4798,2359.47,monload-611_runway,,,,,,,,2.4,,,0.9831125
2,0.0,,114.511,,0.0,21.49,114.511,21.49,-65.489,2359.2,monload-611_runway,,,,,,,,2.4,,,0.9829999999999999
3,0.0,,114.529,,0.0,18.735,114.528,18.735,-65.4721,2359.95,monload-611_runway,,,,,,,,2.4,,,0.9833124999999999
4,0.0,,114.534,,0.0,18.1696,114.534,18.1696,-65.4659,2360.17,monload-611_runway,,,,,,,,2.4,,,0.9834041666666667
5,0.0,,114.689,,0.0,18.3433,114.688,18.3433,-65.3124,2366.01,monload-611_runway,,,,,,,,2.4,,,0.9858375000000001
6,0.0,,114.793,,0.0,19.8621,114.792,19.8621,-65.2075,2369.81,monload-611_runway,,,,,,,,2.4,,,0.9874208333333333
7,0.0,,115.386,,0.0,29.8483,115.386,29.8483,-64.6142,2392.44,monload-611_runway,,,,,,,,2.4,,,0.99685
8,0.0,,114.854,,0.0,31.8618,114.854,31.8618,-65.1464,2371.67,monload-611_runway,,,,,,,,2.4,,,0.9881958333333334
9,0.0,,120.673,,0.0,45.0642,120.684,45.0642,-59.316,2579.22,monload-611_runway,,,,,,,,2.4,,,1.0746749999999998
10,0.0,,126.999,,0.0,41.2382,127.0,41.2382,-52.9999,2748.11,monload-611_runway,,,,,,,,2.4,,,1.1450458333333333
11,0.0,,139.079,,0.0,32.1311,139.08,32.1311,-40.9205,3030.23,monload-611_runway,,,,,,,,2.4,,,1.2625958333333334
12,0.0,,144.077,,0.0,31.0453,144.076,31.0453,-35.924,3124.03,monload-611_runway,,,,,,,,2.4,,,1.3016791666666667
13,0.0,,146.133,,0.0,31.3631,146.131,31.3631,-33.8686,3166.9,monload-611_runway,,,,,,,,2.4,,,1.3195416666666666
14,0.0,,144.683,,0.0,31.2534,144.685,31.2534,-35.3152,3150.88,monload-611_runway,,,,,,,,2.4,,,1.3128666666666666
15,0.0,,140.245,,0.0,30.3569,140.246,30.3569,-39.7542,3068.95,monload-611_runway,,,,,,,,2.4,,,1.2787291666666667
16,0.0,,133.026,,0.0,28.5873,133.028,28.5873,-46.972,2906.57,monload-611_runway,,,,,,,,2.4,,,1.2110708333333333
17,0.0,,123.165,,0.0,27.1168,123.151,27.1168,-56.8487,2629.2,monload-611_runway,,,,,,,,2.4,,,1.0955
18,0.0,,115.969,,0.0,31.4301,115.966,31.4301,-64.0338,2400.01,monload-611_runway,,,,,,,,2.4,,,1.0000041666666668
19,0.0,,116.583,,0.0,43.1551,116.581,43.1551,-63.4185,2423.62,monload-611_runway,,,,,,,,2.4,,,1.0098416666666665
20,0.0,,116.385,,0.0,45.3034,116.386,45.3034,-63.6142,2416.05,monload-611_runway,,,,,,,,2.4,,,1.0066875000000002
21,0.0,,116.032,,0.0,47.8087,116.033,47.8087,-63.9671,2402.28,monload-611_runway,,,,,,,,2.4,,,1.00095
22,0.0,,115.473,,0.0,46.4444,115.473,46.4444,-64.5273,2380.62,monload-611_runway,,,,,,,,2.4,,,0.991925
23,0.0,,114.771,,0.0,35.6973,114.768,35.6973,-65.2316,2368.64,monload-611_runway,,,,,,,,2.4,,,0.9869333333333333
24,0.0,,114.849,,0.0,22.9122,114.848,22.9122,-65.1518,2372.05,monload-611_runway,,,,,,,,2.4,,,0.9883541666666668
25,0.0,,114.677,,0.0,18.6667,114.678,18.6667,-65.3222,2365.58,monload-611_runway,,,,,,,,2.4,,,0.9856583333333333
26,0.0,,114.624,,0.0,17.8494,114.629,17.8494,-65.3711,2363.57,monload-611_runway,,,,,,,,2.4,,,0.9848208333333334
27,0.0,,114.614,,0.0,16.9263,114.615,16.9263,-65.3851,2363.16,monload-611_runway,,,,,,,,2.4,,,0.9846499999999999
28,0.0,,114.612,,0.0,17.0116,114.612,17.0116,-65.3877,2363.08,monload-611_runway,,,,,,,,2.4,,,0.9846166666666666
29,0.0,,114.929,,0.0,17.6802,114.927,17.6802,-65.0728,2375.03,monload-611_runway,,,,,,,,2.4,,,0.9895958333333335
30,0.0,,115.197,,0.0,21.26,115.195,21.26,-64.8048,2385.12,monload-611_runway,,,,,,,,2.4,,,0.9937999999999999
31,0.0,,119.55,,0.0,33.3962,119.549,33.3962,-60.4513,2536.39,monload-611_runway,,,,,,,,2.4,,,1.0568291666666667
32,0.0,,119.963,,0.0,35.2953,119.965,35.2953,-60.0353,2551.94,monload-611_runway,,,,,,,,2.4,,,1.0633083333333333
33,0.0,,121.469,,0.0,31.8115,121.466,31.8115,-58.5339,2604.87,monload-611_runway,,,,,,,,2.4,,,1.0853625
34,0.0,,121.988,,0.0,32.1669,121.984,32.1669,-58.0165,2606.6,monload-611_runway,,,,,,,,2.4,,,1.0860833333333333
35,0.0,,126.165,,0.0,27.3559,126.165,27.3559,-53.8353,2742.64,monload-611_runway,,,,,,,,2.4,,,1.1427666666666667
36,0.0,,130.137,,0.0,29.267,130.138,29.267,-49.8618,2836.26,monload-611_runway,,,,,,,,2.4,,,1.181775
37,0.0,,134.091,,0.0,30.728,134.091,30.728,-45.9087,2931.84,monload-611_runway,,,,,,,,2.4,,,1.2216
38,0.0,,136.103,,0.0,29.9649,136.103,29.9649,-43.8971,2975.79,monload-611_runway,,,,,,,,2.4,,,1.2399125
39,0.0,,126.392,,0.0,26.5767,126.395,26.5767,-53.605,2732.67,monload-611_runway,,,,,,,,2.4,,,1.1386125
40,0.0,,127.893,,0.0,27.263,127.893,27.263,-52.1066,2776.0,monload-611_runway,,,,,,,,2.4,,,1.1566666666666667
41,0.0,,122.469,,0.0,26.7537,122.47,26.7537,-57.5299,2606.21,monload-611_runway,,,,,,,,2.4,,,1.0859208333333334
42,0.0,,121.872,,0.0,32.487,121.869,32.487,-58.1309,2585.56,monload-611_runway,,,,,,,,2.4,,,1.0773166666666667
43,0.0,,120.223,,0.0,38.9084,120.223,38.9084,-59.7765,2527.13,monload-611_runway,,,,,,,,2.4,,,1.0529708333333334
44,0.0,,120.102,,0.0,41.2271,120.106,41.2271,-59.8945,2522.92,monload-611_runway,,,,,,,,2.4,,,1.0512166666666667
45,0.0,,118.73,,0.0,45.1231,118.726,45.1231,-61.2741,2489.22,monload-611_runway,,,,,,,,2.4,,,1.037175
46,0.0,,117.488,,0.0,42.3023,117.489,42.3023,-62.5108,2443.46,monload-611_runway,,,,,,,,2.4,,,1.0181083333333334
47,0.0,,114.948,,0.0,30.8497,114.945,30.8497,-65.0548,2375.32,monload-611_runway,,,,,,,,2.4,,,0.9897166666666667
48,0.0,,115.003,,0.0,21.1497,115.003,21.1497,-64.9974,2377.82,monload-611_runway,,,,,,,,2.4,,,0.9907583333333334
49,0.0,,114.766,,0.0,18.8942,114.767,18.8942,-65.2329,2368.83,monload-611_runway,,,,,,,,2.4,,,0.9870125
50,0.0,,114.715,,0.0,18.3946,114.719,18.3946,-65.2811,2366.88,monload-611_runway,,,,,,,,2.4,,,0.9862000000000001
51,0.0,,114.72,,0.0,17.8874,114.719,17.8874,-65.2806,2367.07,monload-611_runway,,,,,,,,2.4,,,0.9862791666666667
52,0.0,,114.764,,0.0,18.4384,114.76,18.4384,-65.2397,2368.77,monload-611_runway,,,,,,,,2.4,,,0.9869875
53,0.0,,115.278,,0.0,19.6598,115.275,19.6598,-64.7247,2388.5,monload-611_runway,,,,,,,,2.4,,,0.9952083333333334
54,0.0,,115.727,,0.0,23.9779,115.724,23.9779,-64.276,2406.26,monload-611_runway,,,,,,,,2.4,,,1.0026083333333333
55,0.0,,119.992,,0.0,36.1732,119.99,36.1732,-60.01,2552.15,monload-611_runway,,,,,,,,2.4,,,1.0633958333333333
56,0.0,,120.234,,0.0,36.5679,120.23,36.5679,-59.77,2561.38,monload-611_runway,,,,,,,,2.4,,,1.0672416666666666
57,0.0,,121.524,,0.0,32.6449,121.53,32.6449,-58.4696,2606.81,monload-611_runway,,,,,,,,2.4,,,1.0861708333333333
58,0.0,,125.345,,0.0,33.7037,125.346,33.7037,-54.6539,2717.6,monload-611_runway,,,,,,,,2.4,,,1.1323333333333332
59,0.0,,133.027,,0.0,28.5922,133.029,28.5922,-46.971,2907.67,monload-611_runway,,,,,,,,2.4,,,1.2115291666666668
60,0.0,,136.122,,0.0,30.5917,136.122,30.5917,-43.8777,2975.42,monload-611_runway,,,,,,,,2.4,,,1.2397583333333333
61,0.0,,136.614,,0.0,32.0966,136.615,32.0966,-43.3849,2984.56,monload-611_runway,,,,,,,,2.4,,,1.2435666666666667
62,0.0,,138.702,,0.0,33.0905,138.703,33.0905,-41.2973,3023.11,monload-611_runway,,,,,,,,2.4,,,1.2596291666666668
63,0.0,,123.272,,0.0,29.2106,123.279,29.2106,-56.7214,2635.14,monload-611_runway,,,,,,,,2.4,,,1.097975
64,0.0,,124.855,,0.0,29.9194,124.848,29.9194,-55.1521,2685.01,monload-611_runway,,,,,,,,2.4,,,1.1187541666666667
65,0.0,,122.508,,0.0,29.5002,122.518,29.5002,-57.4817,2607.16,monload-611_runway,,,,,,,,2.4,,,1.0863166666666666
66,0.0,,121.561,,0.0,33.3068,121.57,33.3068,-58.4305,2574.88,monload-611_runway,,,,,,,,2.4,,,1.0728666666666666
67,0.0,,119.693,,0.0,38.7929,119.69,38.7929,-60.3099,2524.32,monload-611_runway,,,,,,,,2.4,,,1.0518
68,0.0,,119.53,,0.0,40.8709,119.531,40.8709,-60.4695,2518.52,monload-611_runway,,,,,,,,2.4,,,1.0493833333333333
69,0.0,,118.18,,0.0,44.806,118.181,44.806,-61.8186,2468.89,monload-611_runway,,,,,,,,2.4,,,1.0287041666666665
70,0.0,,117.038,,0.0,41.9513,117.038,41.9513,-62.9623,2441.75,monload-611_runway,,,,,,,,2.4,,,1.0173958333333333
71,0.0,,114.827,,0.0,30.874,114.824,30.874,-65.176,2370.73,monload-611_runway,,,,,,,,2.4,,,0.9878041666666667
72,0.0,,114.864,,0.0,21.1947,114.863,21.1947,-65.1365,2372.56,monload-611_runway,,,,,,,,2.4,,,0.9885666666666666
73,0.0,,114.596,,0.0,18.5785,114.598,18.5785,-65.4019,2362.4,monload-611_runway,,,,,,,,2.4,,,0.9843333333333334
74,0.0,,114.544,,0.0,17.7129,114.548,17.7129,-65.4518,2360.4,monload-611_runway,,,,,,,,2.4,,,0.9835
75,0.0,,114.542,,0.0,16.7422,114.542,16.7422,-65.458,2360.34,monload-611_runway,,,,,,,,2.4,,,0.9834750000000001
76,0.0,,114.547,,0.0,16.8093,114.547,16.8093,-65.4532,2360.56,monload-611_runway,,,,,,,,2.4,,,0.9835666666666666
77,0.0,,114.884,,0.0,17.5128,114.881,17.5128,-65.1186,2373.27,monload-611_runway,,,,,,,,2.4,,,0.9888625
78,0.0,,115.022,,0.0,20.9229,115.021,20.9229,-64.9792,2378.34,monload-611_runway,,,,,,,,2.4,,,0.990975
79,0.0,,118.936,,0.0,32.7171,118.936,32.7171,-61.0639,2513.89,monload-611_runway,,,,,,,,2.4,,,1.0474541666666666
80,0.0,,119.647,,0.0,35.2798,119.649,35.2798,-60.351,2540.48,monload-611_runway,,,,,,,,2.4,,,1.0585333333333333
81,0.0,,121.384,,0.0,31.8238,121.382,31.8238,-58.6176,2602.16,monload-611_runway,,,,,,,,2.4,,,1.0842333333333334
82,0.0,,125.519,,0.0,32.5306,125.52,32.5306,-54.48,2722.86,monload-611_runway,,,,,,,,2.4,,,1.134525
83,0.0,,133.664,,0.0,26.7631,133.665,26.7631,-46.3347,2922.34,monload-611_runway,,,,,,,,2.4,,,1.2176416666666667
84,0.0,,129.885,,0.0,26.5245,129.884,26.5245,-50.1163,2829.72,monload-611_runway,,,,,,,,2.4,,,1.17905
85,0.0,,126.017,,0.0,26.7041,126.008,26.7041,-53.9918,2720.85,monload-611_runway,,,,,,,,2.4,,,1.1336875
86,0.0,,122.294,,0.0,26.8989,122.304,26.8989,-57.6964,2601.0,monload-611_runway,,,,,,,,2.4,,,1.08375
87,0.0,,135.492,,0.0,31.0429,135.491,31.0429,-44.509,2962.72,monload-611_runway,,,,,,,,2.4,,,1.2344666666666666
88,0.0,,122.585,,0.0,27.2832,122.586,27.2832,-57.4144,2610.87,monload-611_runway,,,,,,,,2.4,,,1.0878625
89,0.0,,122.935,,0.0,28.6734,122.937,28.6734,-57.0629,2621.44,monload-611_runway,,,,,,,,2.4,,,1.0922666666666667
90,0.0,,122.343,,0.0,34.9191,122.341,34.9191,-57.6593,2601.68,monload-611_runway,,,,,,,,2.4,,,1.0840333333333332
91,0.0,,120.555,,0.0,41.7759,120.555,41.7759,-59.445,2539.02,monload-611_runway,,,,,,,,2.4,,,1.057925
92,0.0,,120.399,,0.0,44.7877,120.403,44.7877,-59.5968,2533.62,monload-611_runway,,,,,,,,2.4,,,1.055675
93,0.0,,119.027,,0.0,49.2734,119.027,49.2734,-60.9733,2500.14,monload-611_runway,,,,,,,,2.4,,,1.041725
94,0.0,,117.753,,0.0,46.4184,117.754,46.4184,-62.2461,2453.57,monload-611_runway,,,,,,,,2.4,,,1.0223208333333333
95,0.0,,115.062,,0.0,34.3923,115.06,34.3923,-64.9401,2364.89,monload-611_runway,,,,,,,,2.4,,,0.9853708333333333
96,0.0,,115.046,,0.0,24.0131,115.046,24.0131,-64.9537,2364.63,monload-611_runway,,,,,,,,2.4,,,0.9852625
97,0.0,,114.852,,0.0,21.7964,114.849,21.7964,-65.1513,2372.32,monload-611_runway,,,,,,,,2.4,,,0.9884666666666667
98,0.0,,114.777,,0.0,20.8093,114.783,20.8093,-65.2167,2369.48,monload-611_runway,,,,,,,,2.4,,,0.9872833333333333
99,0.0,,114.769,,0.0,19.5335,114.77,19.5335,-65.2301,2369.2,monload-611_runway,,,,,,,,2.4,,,0.9871666666666666
100,0.0,,114.75,,0.0,19.3539,114.752,19.3539,-65.2483,2368.49,monload-611_runway,,,,,,,,2.4,,,0.9868708333333333
101,0.0,,115.047,,0.0,19.795,115.045,19.795,-64.9548,2379.67,monload-611_runway,,,,,,,,2.4,,,0.9915291666666667
102,0.0,,115.473,,0.0,23.6849,115.47,23.6849,-64.5298,2396.64,monload-611_runway,,,,,,,,2.4,,,0.9985999999999999
103,0.0,,119.127,,0.0,38.4461,119.132,38.4461,-60.8678,2521.39,monload-611_runway,,,,,,,,2.4,,,1.0505791666666666
104,0.0,,120.146,,0.0,43.3642,120.151,43.3642,-59.8488,2558.79,monload-611_runway,,,,,,,,2.4,,,1.0661625
105,0.0,,122.298,,0.0,41.2924,122.294,41.2924,-57.7064,2616.86,monload-611_runway,,,,,,,,2.4,,,1.0903583333333333
106,0.0,,123.659,,0.0,44.8492,123.659,44.8492,-56.3408,2661.86,monload-611_runway,,,,,,,,2.4,,,1.1091083333333334
107,0.0,,124.676,,0.0,39.3297,124.676,39.3297,-55.3244,2695.07,monload-611_runway,,,,,,,,2.4,,,1.1229458333333333
108,0.0,,128.913,,0.0,38.8427,128.914,38.8427,-51.0859,2802.85,monload-611_runway,,,,,,,,2.4,,,1.1678541666666666
109,0.0,,128.52,,0.0,39.1395,128.519,39.1395,-51.4814,2791.82,monload-611_runway,,,,,,,,2.4,,,1.1632583333333335
110,0.0,,125.15,,0.0,38.6383,125.149,38.6383,-54.851,2693.22,monload-611_runway,,,,,,,,2.4,,,1.122175
111,0.0,,125.246,,0.0,39.1164,125.246,39.1164,-54.7538,2696.3,monload-611_runway,,,,,,,,2.4,,,1.1234583333333334
112,0.0,,123.984,,0.0,37.7639,123.983,37.7639,-56.0173,2654.93,monload-611_runway,,,,,,,,2.4,,,1.1062208333333332
113,0.0,,124.389,,0.0,39.4999,124.385,39.4999,-55.615,2666.91,monload-611_runway,,,,,,,,2.4,,,1.1112125
114,0.0,,123.138,,0.0,44.1565,123.156,44.1565,-56.8437,2627.02,monload-611_runway,,,,,,,,2.4,,,1.0945916666666666
115,0.0,,120.889,,0.0,48.8636,120.89,48.8636,-59.1104,2549.7,monload-611_runway,,,,,,,,2.4,,,1.0623749999999998
116,0.0,,120.651,,0.0,51.3222,120.658,51.3222,-59.3416,2541.63,monload-611_runway,,,,,,,,2.4,,,1.0590125000000001
117,0.0,,119.271,,0.0,55.1034,119.271,55.1034,-60.7287,2508.27,monload-611_runway,,,,,,,,2.4,,,1.0451124999999999
118,0.0,,117.802,,0.0,52.4571,117.804,52.4571,-62.1965,2454.8,monload-611_runway,,,,,,,,2.4,,,1.0228333333333335
119,0.0,,115.068,,0.0,40.733,115.066,40.733,-64.9338,2364.76,monload-611_runway,,,,,,,,2.4,,,0.9853166666666667
120,0.0,,115.03,,0.0,29.5798,115.03,29.5798,-64.97,2363.85,monload-611_runway,,,,,,,,2.4,,,0.9849374999999999
121,0.0,,114.788,,0.0,25.8806,114.785,25.8806,-65.2146,2369.85,monload-611_runway,,,,,,,,2.4,,,0.9874375
122,0.0,,114.715,,0.0,24.5759,114.721,24.5759,-65.2795,2367.04,monload-611_runway,,,,,,,,2.4,,,0.9862666666666666
123,0.0,,114.697,,0.0,22.9971,114.699,22.9971,-65.3014,2366.4,monload-611_runway,,,,,,,,2.4,,,0.986
124,0.0,,114.677,,0.0,22.3842,114.679,22.3842,-65.3213,2365.68,monload-611_runway,,,,,,,,2.4,,,0.9856999999999999
125,0.0,,115.119,,0.0,22.8134,115.116,22.8134,-64.8836,2382.44,monload-611_runway,,,,,,,,2.4,,,0.9926833333333334
126,0.0,,115.437,,0.0,26.7316,115.435,26.7316,-64.5648,2394.89,monload-611_runway,,,,,,,,2.4,,,0.9978708333333333
127,0.0,,119.058,,0.0,41.3038,119.059,41.3038,-60.9415,2518.41,monload-611_runway,,,,,,,,2.4,,,1.0493375
128,0.0,,120.104,,0.0,46.2201,120.109,46.2201,-59.8913,2556.82,monload-611_runway,,,,,,,,2.4,,,1.0653416666666666
129,0.0,,122.758,,0.0,46.0036,122.755,46.0036,-57.2454,2631.38,monload-611_runway,,,,,,,,2.4,,,1.0964083333333334
130,0.0,,123.924,,0.0,46.9859,123.923,46.9859,-56.0775,2669.27,monload-611_runway,,,,,,,,2.4,,,1.1121958333333333
131,0.0,,124.302,,0.0,40.7668,124.302,40.7668,-55.6975,2681.11,monload-611_runway,,,,,,,,2.4,,,1.1171291666666667
132,0.0,,124.882,,0.0,41.824,124.882,41.824,-55.1181,2699.07,monload-611_runway,,,,,,,,2.4,,,1.1246125
133,0.0,,124.596,,0.0,42.4332,124.596,42.4332,-55.4035,2690.01,monload-611_runway,,,,,,,,2.4,,,1.1208375000000002
134,0.0,,125.295,,0.0,43.3873,125.295,43.3873,-54.7046,2711.65,monload-611_runway,,,,,,,,2.4,,,1.1298541666666666
135,0.0,,125.063,,0.0,42.9485,125.063,42.9485,-54.9375,2704.56,monload-611_runway,,,,,,,,2.4,,,1.1269
136,0.0,,124.841,,0.0,41.485,124.841,41.485,-55.1586,2697.79,monload-611_runway,,,,,,,,2.4,,,1.1240791666666667
137,0.0,,124.776,,0.0,40.4992,124.777,40.4992,-55.2235,2695.81,monload-611_runway,,,,,,,,2.4,,,1.1232541666666667
138,0.0,,122.594,,0.0,44.6837,122.596,44.6837,-57.4039,2624.63,monload-611_runway,,,,,,,,2.4,,,1.0935958333333333
139,0.0,,121.272,,0.0,51.1479,121.281,51.1479,-58.7185,2578.84,monload-611_runway,,,,,,,,2.4,,,1.0745166666666668
140,0.0,,120.959,,0.0,53.6871,120.97,53.6871,-59.0299,2568.08,monload-611_runway,,,,,,,,2.4,,,1.0700333333333334
141,0.0,,119.732,,0.0,57.2888,119.765,57.2888,-60.2351,2524.54,monload-611_runway,,,,,,,,2.4,,,1.0518916666666667
142,0.0,,117.642,,0.0,51.6617,117.644,51.6617,-62.3564,2448.82,monload-611_runway,,,,,,,,2.4,,,1.0203416666666667
143,0.0,,114.934,,0.0,37.0848,114.932,37.0848,-65.0679,2374.89,monload-611_runway,,,,,,,,2.4,,,0.9895375
144,0.0,,114.924,,0.0,25.3175,114.925,25.3175,-65.0751,2374.97,monload-611_runway,,,,,,,,2.4,,,0.9895708333333333
145,0.0,,114.637,,0.0,23.1146,114.639,23.1146,-65.3613,2364.06,monload-611_runway,,,,,,,,2.4,,,0.9850249999999999
146,0.0,,114.577,,0.0,22.7156,114.582,22.7156,-65.4184,2361.77,monload-611_runway,,,,,,,,2.4,,,0.9840708333333333
147,0.0,,114.577,,0.0,19.4987,114.577,19.4987,-65.4225,2361.81,monload-611_runway,,,,,,,,2.4,,,0.9840875
148,0.0,,114.573,,0.0,19.1538,114.573,19.1538,-65.4266,2361.66,monload-611_runway,,,,,,,,2.4,,,0.9840249999999999
149,0.0,,114.72,,0.0,19.44,114.719,19.44,-65.2807,2367.22,monload-611_runway,,,,,,,,2.4,,,0.9863416666666666
150,0.0,,114.83,,0.0,20.7921,114.829,20.7921,-65.171,2371.21,monload-611_runway,,,,,,,,2.4,,,0.9880041666666667
151,0.0,,116.394,,0.0,30.6613,116.385,30.6613,-63.6153,2432.42,monload-611_runway,,,,,,,,2.4,,,1.0135083333333335
152,0.0,,116.19,,0.0,32.5578,116.194,32.5578,-63.8059,2424.22,monload-611_runway,,,,,,,,2.4,,,1.0100916666666666
153,0.0,,120.201,,0.0,46.3042,120.21,46.3042,-59.7896,2561.74,monload-611_runway,,,,,,,,2.4,,,1.0673916666666665
154,0.0,,131.006,,0.0,46.0595,131.01,46.0595,-48.9902,2857.7,monload-611_runway,,,,,,,,2.4,,,1.1907083333333333
155,0.0,,136.889,,0.0,37.7536,136.888,37.7536,-43.1118,2990.11,monload-611_runway,,,,,,,,2.4,,,1.2458791666666666
156,0.0,,147.266,,0.0,39.5089,147.264,39.5089,-32.7365,3176.47,monload-611_runway,,,,,,,,2.4,,,1.3235291666666666
157,0.0,,149.753,,0.0,41.1292,149.752,41.1292,-30.2482,3236.02,monload-611_runway,,,,,,,,2.4,,,1.3483416666666665
158,0.0,,148.394,,0.0,40.6682,148.395,40.6682,-31.6049,3226.25,monload-611_runway,,,,,,,,2.4,,,1.3442708333333333
159,0.0,,143.485,,0.0,39.8545,143.486,39.8545,-36.5139,3135.01,monload-611_runway,,,,,,,,2.4,,,1.3062541666666667
160,0.0,,135.747,,0.0,38.843,135.749,38.843,-44.2514,2965.33,monload-611_runway,,,,,,,,2.4,,,1.2355541666666667
161,0.0,,124.388,,0.0,35.2464,124.386,35.2464,-55.6145,2668.58,monload-611_runway,,,,,,,,2.4,,,1.1119083333333333
162,0.0,,118.435,,0.0,36.5459,118.435,36.5459,-61.5654,2478.27,monload-611_runway,,,,,,,,2.4,,,1.0326125
163,0.0,,118.158,,0.0,47.5561,118.158,47.5561,-61.8422,2467.73,monload-611_runway,,,,,,,,2.4,,,1.0282208333333334
164,0.0,,117.594,,0.0,49.2997,117.594,49.2997,-62.406,2446.92,monload-611_runway,,,,,,,,2.4,,,1.01955
165,0.0,,116.695,,0.0,51.8892,116.694,51.8892,-63.3056,2427.89,monload-611_runway,,,,,,,,2.4,,,1.0116208333333332
166,0.0,,115.762,,0.0,51.0972,115.763,51.0972,-64.2366,2392.05,monload-611_runway,,,,,,,,2.4,,,0.9966875000000001
167,0.0,,114.869,,0.0,40.8171,114.866,40.8171,-65.1337,2372.27,monload-611_runway,,,,,,,,2.4,,,0.9884458333333334
168,0.0,,114.888,,0.0,27.8677,114.888,27.8677,-65.1117,2373.54,monload-611_runway,,,,,,,,2.4,,,0.9889749999999999
169,0.0,,114.614,,0.0,23.6005,114.616,23.6005,-65.3836,2363.22,monload-611_runway,,,,,,,,2.4,,,0.984675
170,0.0,,114.537,,0.0,23.0303,114.537,23.0303,-65.4629,2360.24,monload-611_runway,,,,,,,,2.4,,,0.9834333333333333
171,0.0,,114.53,,0.0,19.8099,114.531,19.8099,-65.4694,2360.02,monload-611_runway,,,,,,,,2.4,,,0.9833416666666667
172,0.0,,114.528,,0.0,19.6465,114.528,19.6465,-65.4718,2359.96,monload-611_runway,,,,,,,,2.4,,,0.9833166666666667
173,0.0,,114.684,,0.0,20.1694,114.683,20.1694,-65.3169,2365.87,monload-611_runway,,,,,,,,2.4,,,0.9857791666666667
174,0.0,,114.8,,0.0,21.5583,114.799,21.5583,-65.2012,2370.09,monload-611_runway,,,,,,,,2.4,,,0.9875375000000001
175,0.0,,115.291,,0.0,31.2002,115.291,31.2002,-64.7091,2388.51,monload-611_runway,,,,,,,,2.4,,,0.9952125
176,0.0,,114.857,,0.0,33.3904,114.86,33.3904,-65.1399,2371.82,monload-611_runway,,,,,,,,2.4,,,0.9882583333333333
177,0.0,,116.131,,0.0,49.5935,116.125,49.5935,-63.8753,2422.96,monload-611_runway,,,,,,,,2.4,,,1.0095666666666667
178,0.0,,125.234,,0.0,52.1124,125.234,52.1124,-54.7659,2711.83,monload-611_runway,,,,,,,,2.4,,,1.1299291666666667
179,0.0,,129.182,,0.0,44.2087,129.174,44.2087,-50.8263,2808.4,monload-611_runway,,,,,,,,2.4,,,1.1701666666666668
