hour,t(sec),V1,VAngle1,V2,VAngle2,I1,IAngle1,I2,IAngle2,V3,Name,VAngle3,I3,IAngle3,V4,VAngle4,I4,IAngle4,kv,V1(PU),V2(PU),V3(PU)
1,0.0,,111.165,,0.0,20.2518,111.168,20.2518,-68.8319,2404.75,monload-611_runway,,,,,,,,2.4,,,1.0019791666666666
2,0.0,,111.154,,0.0,21.49,111.155,21.49,-68.8452,2404.39,monload-611_runway,,,,,,,,2.4,,,1.0018291666666665
3,0.0,,111.181,,0.0,18.735,111.179,18.735,-68.8214,2405.56,monload-611_runway,,,,,,,,2.4,,,1.0023166666666667
4,0.0,,111.186,,0.0,18.1696,111.186,18.1696,-68.8143,2405.8,monload-611_runway,,,,,,,,2.4,,,1.0024166666666667
5,0.0,,110.956,,0.0,18.3433,110.958,18.3433,-69.0416,2395.04,monload-611_runway,,,,,,,,2.4,,,0.9979333333333333
6,0.0,,110.812,,0.0,19.8621,110.813,19.8621,-69.1871,2388.05,monload-611_runway,,,,,,,,2.4,,,0.9950208333333334
7,0.0,,109.955,,0.0,29.8483,109.956,29.8483,-70.044,2347.92,monload-611_runway,,,,,,,,2.4,,,0.9783000000000001
8,0.0,,110.086,,0.0,31.8618,110.085,31.8618,-69.9152,2354.03,monload-611_runway,,,,,,,,2.4,,,0.9808458333333334
9,0.0,,113.397,,0.0,44.0268,113.397,44.0268,-66.6026,2494.74,monload-611_runway,,,,,,,,2.4,,,1.039475
10,0.0,,113.977,,0.0,37.8585,113.977,37.8585,-66.0229,2522.85,monload-611_runway,,,,,,,,2.4,,,1.0511875
11,0.0,,118.004,,0.0,28.4362,118.004,28.4362,-61.9956,2681.81,monload-611_runway,,,,,,,,2.4,,,1.1174208333333333
12,0.0,,119.36,,0.0,27.0865,119.361,27.0865,-60.6391,2725.67,monload-611_runway,,,,,,,,2.4,,,1.1356958333333333
13,0.0,,119.936,,0.0,27.2467,119.936,27.2467,-60.0641,2751.24,monload-611_runway,,,,,,,,2.4,,,1.14635
14,0.0,,119.586,,0.0,27.1351,119.586,27.1351,-60.4137,2735.7,monload-611_runway,,,,,,,,2.4,,,1.139875
15,0.0,,118.388,,0.0,26.5273,118.388,26.5273,-61.6115,2681.78,monload-611_runway,,,,,,,,2.4,,,1.1174083333333333
16,0.0,,116.394,,0.0,25.4688,116.393,25.4688,-63.607,2589.38,monload-611_runway,,,,,,,,2.4,,,1.0789083333333334
17,0.0,,113.317,,0.0,25.989,113.317,25.989,-66.6835,2473.17,monload-611_runway,,,,,,,,2.4,,,1.0304875
18,0.0,,109.968,,0.0,31.4301,109.968,31.4301,-70.0322,2334.5,monload-611_runway,,,,,,,,2.4,,,0.9727083333333333
19,0.0,,109.525,,0.0,43.1551,109.52,43.1551,-70.4797,2327.53,monload-611_runway,,,,,,,,2.4,,,0.9698041666666668
20,0.0,,109.538,,0.0,45.3034,109.536,45.3034,-70.4644,2328.27,monload-611_runway,,,,,,,,2.4,,,0.9701125
21,0.0,,109.705,,0.0,47.8087,109.702,47.8087,-70.2975,2336.25,monload-611_runway,,,,,,,,2.4,,,0.9734375
22,0.0,,109.901,,0.0,46.4444,109.899,46.4444,-70.1012,2345.85,monload-611_runway,,,,,,,,2.4,,,0.9774375
23,0.0,,110.466,,0.0,35.6973,110.465,35.6973,-69.5349,2372.48,monload-611_runway,,,,,,,,2.4,,,0.9885333333333334
24,0.0,,110.872,,0.0,22.9122,110.866,22.9122,-69.1337,2391.37,monload-611_runway,,,,,,,,2.4,,,0.9964041666666666
25,0.0,,111.018,,0.0,18.6667,111.016,18.6667,-68.9844,2398.27,monload-611_runway,,,,,,,,2.4,,,0.9992791666666666
26,0.0,,111.026,,0.0,17.8494,111.025,17.8494,-68.975,2398.64,monload-611_runway,,,,,,,,2.4,,,0.9994333333333333
27,0.0,,111.043,,0.0,16.9263,111.041,16.9263,-68.9588,2399.41,monload-611_runway,,,,,,,,2.4,,,0.9997541666666666
28,0.0,,111.045,,0.0,17.0116,111.045,17.0116,-68.9551,2399.49,monload-611_runway,,,,,,,,2.4,,,0.9997874999999999
29,0.0,,110.231,,0.0,17.6802,110.233,17.6802,-69.7673,2361.45,monload-611_runway,,,,,,,,2.4,,,0.9839374999999999
30,0.0,,109.92,,0.0,21.26,109.925,21.26,-70.0754,2346.65,monload-611_runway,,,,,,,,2.4,,,0.9777708333333334
31,0.0,,108.048,,0.0,33.0642,108.051,33.0642,-71.9485,2272.21,monload-611_runway,,,,,,,,2.4,,,0.9467541666666667
32,0.0,,107.38,,0.0,34.2034,107.38,34.2034,-72.6196,2239.76,monload-611_runway,,,,,,,,2.4,,,0.9332333333333335
33,0.0,,107.937,,0.0,30.6407,107.937,30.6407,-72.0629,2270.53,monload-611_runway,,,,,,,,2.4,,,0.9460541666666668
34,0.0,,109.797,,0.0,31.0977,109.797,31.0977,-70.2029,2368.03,monload-611_runway,,,,,,,,2.4,,,0.9866791666666668
35,0.0,,112.563,,0.0,25.135,112.565,25.135,-67.4348,2476.91,monload-611_runway,,,,,,,,2.4,,,1.0320458333333333
36,0.0,,114.288,,0.0,26.2632,114.289,26.2632,-65.7112,2545.06,monload-611_runway,,,,,,,,2.4,,,1.0604416666666667
37,0.0,,114.26,,0.0,26.6577,114.263,26.6577,-65.7374,2543.5,monload-611_runway,,,,,,,,2.4,,,1.0597916666666667
38,0.0,,114.216,,0.0,25.5948,114.216,25.5948,-65.7836,2541.82,monload-611_runway,,,,,,,,2.4,,,1.0590916666666668
39,0.0,,111.975,,0.0,24.5082,111.977,24.5082,-68.0231,2432.67,monload-611_runway,,,,,,,,2.4,,,1.0136125
40,0.0,,112.438,,0.0,24.748,112.436,24.748,-67.5643,2455.36,monload-611_runway,,,,,,,,2.4,,,1.0230666666666668
41,0.0,,109.242,,0.0,25.8685,109.239,25.8685,-70.7607,2325.55,monload-611_runway,,,,,,,,2.4,,,0.9689791666666667
42,0.0,,107.193,,0.0,30.9511,107.192,30.9511,-72.8083,2231.44,monload-611_runway,,,,,,,,2.4,,,0.9297666666666667
43,0.0,,107.893,,0.0,38.5092,107.892,38.5092,-72.1076,2263.89,monload-611_runway,,,,,,,,2.4,,,0.9432875
44,0.0,,107.887,,0.0,40.8689,107.887,40.8689,-72.1125,2263.78,monload-611_runway,,,,,,,,2.4,,,0.9432416666666668
45,0.0,,108.659,,0.0,45.1231,108.657,45.1231,-71.3428,2301.28,monload-611_runway,,,,,,,,2.4,,,0.9588666666666668
46,0.0,,109.094,,0.0,42.3023,109.093,42.3023,-70.9072,2322.49,monload-611_runway,,,,,,,,2.4,,,0.9677041666666666
47,0.0,,110.145,,0.0,30.8497,110.142,30.8497,-69.8577,2372.26,monload-611_runway,,,,,,,,2.4,,,0.9884416666666668
48,0.0,,110.504,,0.0,21.1497,110.496,21.1497,-69.5039,2389.21,monload-611_runway,,,,,,,,2.4,,,0.9955041666666666
49,0.0,,110.658,,0.0,18.8942,110.654,18.8942,-69.3458,2396.57,monload-611_runway,,,,,,,,2.4,,,0.9985708333333334
50,0.0,,110.701,,0.0,18.3946,110.694,18.3946,-69.3058,2398.61,monload-611_runway,,,,,,,,2.4,,,0.9994208333333334
51,0.0,,110.757,,0.0,17.8874,110.755,17.8874,-69.2446,2401.14,monload-611_runway,,,,,,,,2.4,,,1.000475
52,0.0,,110.751,,0.0,18.4384,110.752,18.4384,-69.2478,2400.9,monload-611_runway,,,,,,,,2.4,,,1.000375
53,0.0,,109.924,,0.0,19.6598,109.926,19.6598,-70.0736,2361.83,monload-611_runway,,,,,,,,2.4,,,0.9840958333333333
54,0.0,,109.594,,0.0,23.9779,109.602,23.9779,-70.3985,2345.95,monload-611_runway,,,,,,,,2.4,,,0.9774791666666666
55,0.0,,107.76,,0.0,35.3534,107.755,35.3534,-72.2448,2258.06,monload-611_runway,,,,,,,,2.4,,,0.9408583333333334
56,0.0,,107.118,,0.0,35.091,107.119,35.091,-72.8808,2226.74,monload-611_runway,,,,,,,,2.4,,,0.9278083333333332
57,0.0,,109.131,,0.0,31.5574,109.133,31.5574,-70.8673,2333.2,monload-611_runway,,,,,,,,2.4,,,0.9721666666666666
58,0.0,,111.599,,0.0,31.2533,111.598,31.2533,-68.4016,2429.41,monload-611_runway,,,,,,,,2.4,,,1.0122541666666667
59,0.0,,114.136,,0.0,24.9568,114.136,24.9568,-65.8639,2537.81,monload-611_runway,,,,,,,,2.4,,,1.0574208333333333
60,0.0,,114.296,,0.0,26.1717,114.295,26.1717,-65.7054,2545.53,monload-611_runway,,,,,,,,2.4,,,1.0606375000000001
61,0.0,,114.3,,0.0,27.3736,114.298,27.3736,-65.7016,2545.41,monload-611_runway,,,,,,,,2.4,,,1.0605875
62,0.0,,115.552,,0.0,28.3367,115.553,28.3367,-64.4475,2588.81,monload-611_runway,,,,,,,,2.4,,,1.0786708333333332
63,0.0,,110.864,,0.0,27.9419,110.862,27.9419,-69.1384,2377.49,monload-611_runway,,,,,,,,2.4,,,0.9906208333333333
64,0.0,,111.372,,0.0,28.0794,111.369,28.0794,-68.6308,2402.72,monload-611_runway,,,,,,,,2.4,,,1.0011333333333332
65,0.0,,108.653,,0.0,28.5183,108.652,28.5183,-71.348,2295.11,monload-611_runway,,,,,,,,2.4,,,0.9562958333333333
66,0.0,,107.202,,0.0,31.8672,107.201,31.8672,-72.7991,2231.45,monload-611_runway,,,,,,,,2.4,,,0.9297708333333332
67,0.0,,108.126,,0.0,38.6429,108.126,38.6429,-71.8741,2275.26,monload-611_runway,,,,,,,,2.4,,,0.9480250000000001
68,0.0,,108.132,,0.0,40.7896,108.132,40.7896,-71.8678,2275.7,monload-611_runway,,,,,,,,2.4,,,0.9482083333333332
69,0.0,,108.949,,0.0,44.806,108.947,44.806,-71.0532,2315.2,monload-611_runway,,,,,,,,2.4,,,0.9646666666666666
70,0.0,,109.336,,0.0,41.9513,109.335,41.9513,-70.665,2334.02,monload-611_runway,,,,,,,,2.4,,,0.9725083333333333
71,0.0,,110.357,,0.0,30.874,110.354,30.874,-69.6457,2382.24,monload-611_runway,,,,,,,,2.4,,,0.9925999999999999
72,0.0,,110.727,,0.0,21.1947,110.719,21.1947,-69.281,2399.71,monload-611_runway,,,,,,,,2.4,,,0.9998791666666667
73,0.0,,110.916,,0.0,18.5785,110.919,18.5785,-69.0809,2393.4,monload-611_runway,,,,,,,,2.4,,,0.9972500000000001
74,0.0,,110.944,,0.0,17.7129,110.942,17.7129,-69.0585,2394.71,monload-611_runway,,,,,,,,2.4,,,0.9977958333333333
75,0.0,,110.975,,0.0,16.7422,110.972,16.7422,-69.0277,2396.15,monload-611_runway,,,,,,,,2.4,,,0.9983958333333334
76,0.0,,110.972,,0.0,16.8093,110.972,16.8093,-69.0276,2396.02,monload-611_runway,,,,,,,,2.4,,,0.9983416666666667
77,0.0,,110.156,,0.0,17.5128,110.156,17.5128,-69.8436,2357.82,monload-611_runway,,,,,,,,2.4,,,0.9824250000000001
78,0.0,,109.951,,0.0,20.9229,109.953,20.9229,-70.0475,2348.0,monload-611_runway,,,,,,,,2.4,,,0.9783333333333334
79,0.0,,108.038,,0.0,32.5946,108.042,32.5946,-71.9576,2271.73,monload-611_runway,,,,,,,,2.4,,,0.9465541666666667
80,0.0,,107.335,,0.0,34.3075,107.336,34.3075,-72.664,2237.62,monload-611_runway,,,,,,,,2.4,,,0.9323416666666666
81,0.0,,108.597,,0.0,30.82,108.594,30.82,-71.4057,2305.28,monload-611_runway,,,,,,,,2.4,,,0.9605333333333335
82,0.0,,111.784,,0.0,30.1071,111.784,30.1071,-68.2161,2438.5,monload-611_runway,,,,,,,,2.4,,,1.0160416666666667
83,0.0,,114.261,,0.0,23.2987,114.262,23.2987,-65.7383,2543.87,monload-611_runway,,,,,,,,2.4,,,1.0599458333333334
84,0.0,,113.2,,0.0,23.6213,113.202,23.6213,-66.7975,2492.44,monload-611_runway,,,,,,,,2.4,,,1.0385166666666668
85,0.0,,112.052,,0.0,24.733,112.056,24.733,-67.9439,2435.92,monload-611_runway,,,,,,,,2.4,,,1.0149666666666668
86,0.0,,109.987,,0.0,26.0612,109.986,26.0612,-70.0139,2348.75,monload-611_runway,,,,,,,,2.4,,,0.9786458333333333
87,0.0,,114.209,,0.0,26.6277,114.209,26.6277,-65.7911,2541.35,monload-611_runway,,,,,,,,2.4,,,1.0588958333333334
88,0.0,,109.898,,0.0,26.3335,109.896,26.3335,-70.1044,2344.52,monload-611_runway,,,,,,,,2.4,,,0.9768833333333333
89,0.0,,108.05,,0.0,27.3664,108.05,27.3664,-71.9497,2264.57,monload-611_runway,,,,,,,,2.4,,,0.9435708333333334
90,0.0,,107.116,,0.0,33.0139,107.115,33.0139,-72.885,2228.32,monload-611_runway,,,,,,,,2.4,,,0.9284666666666668
91,0.0,,107.663,,0.0,40.9393,107.663,40.9393,-72.3374,2252.73,monload-611_runway,,,,,,,,2.4,,,0.9386375
92,0.0,,107.68,,0.0,44.0031,107.68,44.0031,-72.3204,2253.72,monload-611_runway,,,,,,,,2.4,,,0.9390499999999999
93,0.0,,108.424,,0.0,49.2734,108.419,49.2734,-71.5808,2290.12,monload-611_runway,,,,,,,,2.4,,,0.9542166666666666
94,0.0,,108.847,,0.0,46.4184,108.846,46.4184,-71.1544,2310.81,monload-611_runway,,,,,,,,2.4,,,0.9628375
95,0.0,,109.894,,0.0,34.3923,109.891,34.3923,-70.1093,2360.62,monload-611_runway,,,,,,,,2.4,,,0.9835916666666666
96,0.0,,110.277,,0.0,24.0131,110.268,24.0131,-69.7323,2378.82,monload-611_runway,,,,,,,,2.4,,,0.991175
97,0.0,,110.498,,0.0,21.7964,110.492,21.7964,-69.5079,2389.4,monload-611_runway,,,,,,,,2.4,,,0.9955833333333334
98,0.0,,110.55,,0.0,20.8093,110.549,20.8093,-69.4509,2391.86,monload-611_runway,,,,,,,,2.4,,,0.9966083333333334
99,0.0,,110.593,,0.0,19.5335,110.585,19.5335,-69.4146,2393.86,monload-611_runway,,,,,,,,2.4,,,0.9974416666666667
100,0.0,,110.654,,0.0,19.3539,110.652,19.3539,-69.3479,2396.7,monload-611_runway,,,,,,,,2.4,,,0.9986249999999999
101,0.0,,109.931,,0.0,19.795,109.933,19.795,-70.0665,2362.5,monload-611_runway,,,,,,,,2.4,,,0.984375
102,0.0,,109.63,,0.0,23.6849,109.638,23.6849,-70.3619,2348.04,monload-611_runway,,,,,,,,2.4,,,0.9783499999999999
103,0.0,,107.633,,0.0,37.9237,107.628,37.9237,-72.3719,2252.08,monload-611_runway,,,,,,,,2.4,,,0.9383666666666667
104,0.0,,106.883,,0.0,41.7136,106.888,41.7136,-73.1123,2229.72,monload-611_runway,,,,,,,,2.4,,,0.9290499999999999
105,0.0,,107.497,,0.0,39.4675,107.497,39.4675,-72.5034,2263.83,monload-611_runway,,,,,,,,2.4,,,0.9432625
106,0.0,,109.493,,0.0,42.459,109.495,42.459,-70.5045,2354.06,monload-611_runway,,,,,,,,2.4,,,0.9808583333333333
107,0.0,,110.355,,0.0,36.7749,110.357,36.7749,-69.643,2382.46,monload-611_runway,,,,,,,,2.4,,,0.9926916666666666
108,0.0,,112.196,,0.0,34.924,112.198,34.924,-67.8023,2458.82,monload-611_runway,,,,,,,,2.4,,,1.0245083333333334
109,0.0,,112.302,,0.0,35.3309,112.299,35.3309,-67.7006,2463.68,monload-611_runway,,,,,,,,2.4,,,1.0265333333333333
110,0.0,,110.792,,0.0,36.1511,110.793,36.1511,-69.2066,2389.3,monload-611_runway,,,,,,,,2.4,,,0.9955416666666668
111,0.0,,110.829,,0.0,36.557,110.828,36.557,-69.1718,2391.11,monload-611_runway,,,,,,,,2.4,,,0.9962958333333334
112,0.0,,109.527,,0.0,35.8436,109.528,35.8436,-70.472,2325.88,monload-611_runway,,,,,,,,2.4,,,0.9691166666666667
113,0.0,,107.617,,0.0,36.9146,107.616,36.9146,-72.3836,2256.34,monload-611_runway,,,,,,,,2.4,,,0.9401416666666668
114,0.0,,107.238,,0.0,41.4621,107.238,41.4621,-72.7624,2234.52,monload-611_runway,,,,,,,,2.4,,,0.93105
115,0.0,,107.732,,0.0,47.75,107.732,47.75,-72.2682,2255.66,monload-611_runway,,,,,,,,2.4,,,0.9398583333333332
116,0.0,,107.786,,0.0,50.3774,107.786,50.3774,-72.2143,2258.55,monload-611_runway,,,,,,,,2.4,,,0.9410625
117,0.0,,108.552,,0.0,55.1034,108.551,55.1034,-71.449,2295.89,monload-611_runway,,,,,,,,2.4,,,0.9566208333333333
118,0.0,,108.99,,0.0,52.4571,108.988,52.4571,-71.0116,2317.29,monload-611_runway,,,,,,,,2.4,,,0.9655374999999999
119,0.0,,110.081,,0.0,40.733,110.078,40.733,-69.9216,2369.23,monload-611_runway,,,,,,,,2.4,,,0.9871791666666667
120,0.0,,110.524,,0.0,29.5798,110.514,29.5798,-69.4864,2390.28,monload-611_runway,,,,,,,,2.4,,,0.9959500000000001
121,0.0,,110.801,,0.0,25.8806,110.804,25.8806,-69.1957,2388.23,monload-611_runway,,,,,,,,2.4,,,0.9950958333333333
122,0.0,,110.851,,0.0,24.5759,110.846,24.5759,-69.1538,2390.59,monload-611_runway,,,,,,,,2.4,,,0.9960791666666667
123,0.0,,110.9,,0.0,22.9971,110.895,22.9971,-69.1047,2392.85,monload-611_runway,,,,,,,,2.4,,,0.9970208333333332
124,0.0,,110.923,,0.0,22.3842,110.92,22.3842,-69.0795,2393.95,monload-611_runway,,,,,,,,2.4,,,0.9974791666666666
125,0.0,,110.102,,0.0,22.8134,110.103,22.8134,-69.8975,2355.51,monload-611_runway,,,,,,,,2.4,,,0.9814625000000001
126,0.0,,109.847,,0.0,26.7316,109.85,26.7316,-70.1502,2343.33,monload-611_runway,,,,,,,,2.4,,,0.9763875
127,0.0,,107.853,,0.0,40.9786,107.857,40.9786,-72.1425,2262.79,monload-611_runway,,,,,,,,2.4,,,0.9428291666666666
128,0.0,,107.066,,0.0,44.3789,107.067,44.3789,-72.9327,2224.44,monload-611_runway,,,,,,,,2.4,,,0.9268500000000001
129,0.0,,107.293,,0.0,43.2038,107.292,43.2038,-72.7078,2238.16,monload-611_runway,,,,,,,,2.4,,,0.9325666666666667
130,0.0,,107.246,,0.0,43.4683,107.246,43.4683,-72.7538,2236.71,monload-611_runway,,,,,,,,2.4,,,0.9319625
131,0.0,,108.951,,0.0,38.3172,108.951,38.3172,-71.049,2325.22,monload-611_runway,,,,,,,,2.4,,,0.9688416666666666
132,0.0,,107.631,,0.0,38.6314,107.632,38.6314,-72.3682,2256.89,monload-611_runway,,,,,,,,2.4,,,0.9403708333333333
133,0.0,,109.901,,0.0,39.7514,109.901,39.7514,-70.0987,2373.4,monload-611_runway,,,,,,,,2.4,,,0.9889166666666667
134,0.0,,109.851,,0.0,40.3209,109.851,40.3209,-70.1492,2371.56,monload-611_runway,,,,,,,,2.4,,,0.98815
135,0.0,,109.098,,0.0,40.0177,109.102,40.0177,-70.8981,2333.16,monload-611_runway,,,,,,,,2.4,,,0.97215
136,0.0,,107.603,,0.0,38.3128,107.603,38.3128,-72.3975,2255.57,monload-611_runway,,,,,,,,2.4,,,0.9398208333333334
137,0.0,,107.118,,0.0,36.9755,107.118,36.9755,-72.8815,2229.65,monload-611_runway,,,,,,,,2.4,,,0.9290208333333334
138,0.0,,106.465,,0.0,41.4631,106.47,41.4631,-73.5302,2207.42,monload-611_runway,,,,,,,,2.4,,,0.9197583333333333
139,0.0,,107.506,,0.0,49.4784,107.505,49.4784,-72.4955,2258.49,monload-611_runway,,,,,,,,2.4,,,0.9410374999999999
140,0.0,,107.549,,0.0,52.2108,107.549,52.2108,-72.4511,2260.85,monload-611_runway,,,,,,,,2.4,,,0.9420208333333333
141,0.0,,108.293,,0.0,57.1881,108.292,57.1881,-71.7078,2297.41,monload-611_runway,,,,,,,,2.4,,,0.9572541666666666
142,0.0,,109.019,,0.0,51.6617,109.016,51.6617,-70.9837,2333.34,monload-611_runway,,,,,,,,2.4,,,0.972225
143,0.0,,110.278,,0.0,37.0848,110.282,37.0848,-69.7181,2378.74,monload-611_runway,,,,,,,,2.4,,,0.9911416666666666
144,0.0,,110.709,,0.0,25.3175,110.704,25.3175,-69.2957,2399.09,monload-611_runway,,,,,,,,2.4,,,0.9996208333333334
145,0.0,,110.882,,0.0,23.1146,110.886,23.1146,-69.1143,2392.09,monload-611_runway,,,,,,,,2.4,,,0.9967041666666667
146,0.0,,110.871,,0.0,22.7156,110.872,22.7156,-69.1278,2391.62,monload-611_runway,,,,,,,,2.4,,,0.9965083333333333
147,0.0,,110.933,,0.0,19.4987,110.928,19.4987,-69.0725,2394.41,monload-611_runway,,,,,,,,2.4,,,0.9976708333333333
148,0.0,,110.948,,0.0,19.1538,110.946,19.1538,-69.0536,2395.1,monload-611_runway,,,,,,,,2.4,,,0.9979583333333333
149,0.0,,110.722,,0.0,19.44,110.724,19.44,-69.2761,2384.46,monload-611_runway,,,,,,,,2.4,,,0.993525
150,0.0,,110.574,,0.0,20.7921,110.575,20.7921,-69.4251,2377.29,monload-611_runway,,,,,,,,2.4,,,0.9905375
151,0.0,,109.708,,0.0,30.6613,109.709,30.6613,-70.2909,2336.84,monload-611_runway,,,,,,,,2.4,,,0.9736833333333333
152,0.0,,109.057,,0.0,32.5578,109.058,32.5578,-70.9423,2306.02,monload-611_runway,,,,,,,,2.4,,,0.9608416666666667
153,0.0,,111.56,,0.0,45.5458,111.56,45.5458,-68.44,2436.23,monload-611_runway,,,,,,,,2.4,,,1.0150958333333333
154,0.0,,114.224,,0.0,40.9298,114.224,40.9298,-65.7759,2539.23,monload-611_runway,,,,,,,,2.4,,,1.0580125
155,0.0,,115.329,,0.0,32.5213,115.33,32.5213,-64.6704,2575.73,monload-611_runway,,,,,,,,2.4,,,1.0732208333333333
156,0.0,,118.977,,0.0,33.6956,118.979,33.6956,-61.0213,2709.18,monload-611_runway,,,,,,,,2.4,,,1.128825
157,0.0,,119.793,,0.0,34.8807,119.793,34.8807,-60.2073,2744.41,monload-611_runway,,,,,,,,2.4,,,1.1435041666666665
158,0.0,,119.491,,0.0,34.4301,119.492,34.4301,-60.5082,2731.36,monload-611_runway,,,,,,,,2.4,,,1.1380666666666668
159,0.0,,118.186,,0.0,33.9842,118.187,33.9842,-61.8134,2673.21,monload-611_runway,,,,,,,,2.4,,,1.1138375
160,0.0,,116.332,,0.0,33.9049,116.332,33.9049,-63.6683,2588.15,monload-611_runway,,,,,,,,2.4,,,1.0783958333333334
161,0.0,,112.888,,0.0,33.2851,112.887,33.2851,-67.1133,2455.28,monload-611_runway,,,,,,,,2.4,,,1.0230333333333335
162,0.0,,109.206,,0.0,36.5459,109.206,36.5459,-70.7936,2313.97,monload-611_runway,,,,,,,,2.4,,,0.9641541666666665
163,0.0,,108.637,,0.0,47.5561,108.639,47.5561,-71.3613,2285.22,monload-611_runway,,,,,,,,2.4,,,0.9521749999999999
164,0.0,,108.68,,0.0,49.2997,108.679,49.2997,-71.3212,2287.4,monload-611_runway,,,,,,,,2.4,,,0.9530833333333334
165,0.0,,109.377,,0.0,51.8892,109.376,51.8892,-70.6238,2320.71,monload-611_runway,,,,,,,,2.4,,,0.9669625000000001
166,0.0,,109.561,,0.0,51.0972,109.558,51.0972,-70.4418,2329.82,monload-611_runway,,,,,,,,2.4,,,0.9707583333333334
167,0.0,,110.171,,0.0,40.8171,110.17,40.8171,-69.8296,2358.83,monload-611_runway,,,,,,,,2.4,,,0.9828458333333333
168,0.0,,110.634,,0.0,27.8677,110.627,27.8677,-69.373,2380.56,monload-611_runway,,,,,,,,2.4,,,0.9919
169,0.0,,110.999,,0.0,23.6005,110.993,23.6005,-69.0067,2397.7,monload-611_runway,,,,,,,,2.4,,,0.9990416666666666
170,0.0,,111.032,,0.0,23.0303,111.027,23.0303,-68.9729,2399.23,monload-611_runway,,,,,,,,2.4,,,0.9996791666666667
171,0.0,,111.117,,0.0,19.8099,111.116,19.8099,-68.8845,2403.1,monload-611_runway,,,,,,,,2.4,,,1.0012916666666667
172,0.0,,111.123,,0.0,19.6465,111.122,19.6465,-68.8776,2403.41,monload-611_runway,,,,,,,,2.4,,,1.0014208333333332
173,0.0,,110.873,,0.0,20.1694,110.877,20.1694,-69.123,2391.65,monload-611_runway,,,,,,,,2.4,,,0.9965208333333334
174,0.0,,110.706,,0.0,21.5583,110.709,21.5583,-69.2915,2383.62,monload-611_runway,,,,,,,,2.4,,,0.9931749999999999
175,0.0,,109.829,,0.0,31.2002,109.831,31.2002,-70.1689,2342.49,monload-611_runway,,,,,,,,2.4,,,0.9760374999999999
176,0.0,,109.956,,0.0,33.3904,109.954,33.3904,-70.0457,2348.37,monload-611_runway,,,,,,,,2.4,,,0.9784875
177,0.0,,111.319,,0.0,49.5935,111.319,49.5935,-68.6807,2422.45,monload-611_runway,,,,,,,,2.4,,,1.0093541666666666
178,0.0,,113.882,,0.0,48.4258,113.882,48.4258,-66.1181,2519.69,monload-611_runway,,,,,,,,2.4,,,1.0498708333333333
