hour,t(sec),V1,VAngle1,V2,VAngle2,I1,IAngle1,I2,IAngle2,V3,Name,VAngle3,I3,IAngle3,V4,VAngle4,I4,IAngle4,kv,V1(PU),V2(PU),V3(PU)
1,0.0,,111.165,,0.0,20.2518,111.168,20.2518,-68.8319,2404.75,monload-611_runway,,,,,,,,2.4,,,1.0019791666666666
2,0.0,,111.154,,0.0,21.49,111.155,21.49,-68.8452,2404.39,monload-611_runway,,,,,,,,2.4,,,1.0018291666666665
3,0.0,,111.181,,0.0,18.735,111.179,18.735,-68.8214,2405.56,monload-611_runway,,,,,,,,2.4,,,1.0023166666666667
4,0.0,,111.186,,0.0,18.1696,111.186,18.1696,-68.8143,2405.8,monload-611_runway,,,,,,,,2.4,,,1.0024166666666667
5,0.0,,110.956,,0.0,18.3433,110.958,18.3433,-69.0416,2395.04,monload-611_runway,,,,,,,,2.4,,,0.9979333333333333
6,0.0,,110.812,,0.0,19.8621,110.813,19.8621,-69.1871,2388.05,monload-611_runway,,,,,,,,2.4,,,0.9950208333333334
7,0.0,,109.957,,0.0,29.8483,109.955,29.8483,-70.0448,2347.87,monload-611_runway,,,,,,,,2.4,,,0.9782791666666666
8,0.0,,110.084,,0.0,31.8618,110.085,31.8618,-69.915,2353.86,monload-611_runway,,,,,,,,2.4,,,0.9807750000000001
9,0.0,,112.818,,0.0,44.0268,112.818,44.0268,-67.1823,2481.98,monload-611_runway,,,,,,,,2.4,,,1.0341583333333333
10,0.0,,113.287,,0.0,37.8158,113.287,37.8158,-66.7125,2488.46,monload-611_runway,,,,,,,,2.4,,,1.0368583333333334
11,0.0,,114.479,,0.0,26.9972,114.479,26.9972,-65.521,2546.1,monload-611_runway,,,,,,,,2.4,,,1.060875
12,0.0,,117.075,,0.0,26.2127,117.075,26.2127,-62.9247,2637.75,monload-611_runway,,,,,,,,2.4,,,1.0990625
13,0.0,,117.493,,0.0,26.315,117.493,26.315,-62.507,2657.18,monload-611_runway,,,,,,,,2.4,,,1.1071583333333332
14,0.0,,117.257,,0.0,26.2469,117.257,26.2469,-62.7427,2646.14,monload-611_runway,,,,,,,,2.4,,,1.1025583333333333
15,0.0,,116.397,,0.0,25.7749,116.397,25.7749,-63.6031,2605.73,monload-611_runway,,,,,,,,2.4,,,1.0857208333333332
16,0.0,,114.939,,0.0,24.944,114.939,24.944,-65.0605,2535.95,monload-611_runway,,,,,,,,2.4,,,1.0566458333333333
17,0.0,,112.505,,0.0,25.989,112.5,25.989,-67.4998,2432.55,monload-611_runway,,,,,,,,2.4,,,1.0135625000000001
18,0.0,,109.919,,0.0,31.4301,109.918,31.4301,-70.082,2331.97,monload-611_runway,,,,,,,,2.4,,,0.9716541666666666
19,0.0,,109.525,,0.0,43.1551,109.52,43.1551,-70.4797,2327.53,monload-611_runway,,,,,,,,2.4,,,0.9698041666666668
20,0.0,,109.538,,0.0,45.3034,109.536,45.3034,-70.4644,2328.27,monload-611_runway,,,,,,,,2.4,,,0.9701125
21,0.0,,109.705,,0.0,47.8087,109.702,47.8087,-70.2975,2336.25,monload-611_runway,,,,,,,,2.4,,,0.9734375
22,0.0,,109.901,,0.0,46.4444,109.899,46.4444,-70.1012,2345.85,monload-611_runway,,,,,,,,2.4,,,0.9774375
23,0.0,,110.466,,0.0,35.6973,110.465,35.6973,-69.5349,2372.48,monload-611_runway,,,,,,,,2.4,,,0.9885333333333334
24,0.0,,110.872,,0.0,22.9122,110.866,22.9122,-69.1337,2391.37,monload-611_runway,,,,,,,,2.4,,,0.9964041666666666
25,0.0,,111.018,,0.0,18.6667,111.016,18.6667,-68.9844,2398.27,monload-611_runway,,,,,,,,2.4,,,0.9992791666666666
26,0.0,,111.026,,0.0,17.8494,111.025,17.8494,-68.975,2398.64,monload-611_runway,,,,,,,,2.4,,,0.9994333333333333
27,0.0,,111.043,,0.0,16.9263,111.041,16.9263,-68.9588,2399.41,monload-611_runway,,,,,,,,2.4,,,0.9997541666666666
28,0.0,,111.045,,0.0,17.0116,111.045,17.0116,-68.9551,2399.49,monload-611_runway,,,,,,,,2.4,,,0.9997874999999999
29,0.0,,110.231,,0.0,17.6802,110.233,17.6802,-69.7673,2361.45,monload-611_runway,,,,,,,,2.4,,,0.9839374999999999
30,0.0,,109.92,,0.0,21.26,109.925,21.26,-70.0754,2346.65,monload-611_runway,,,,,,,,2.4,,,0.9777708333333334
31,0.0,,108.049,,0.0,33.0639,108.053,33.0639,-71.947,2272.19,monload-611_runway,,,,,,,,2.4,,,0.9467458333333334
32,0.0,,107.516,,0.0,34.3189,107.516,34.3189,-72.4844,2247.04,monload-611_runway,,,,,,,,2.4,,,0.9362666666666667
33,0.0,,107.781,,0.0,30.5205,107.781,30.5205,-72.2194,2262.11,monload-611_runway,,,,,,,,2.4,,,0.9425458333333334
34,0.0,,109.08,,0.0,31.0977,109.082,31.0977,-70.9184,2330.98,monload-611_runway,,,,,,,,2.4,,,0.9712416666666667
35,0.0,,111.607,,0.0,25.135,111.609,25.135,-68.3906,2428.83,monload-611_runway,,,,,,,,2.4,,,1.0120125
36,0.0,,112.203,,0.0,26.0047,112.203,26.0047,-67.7968,2458.64,monload-611_runway,,,,,,,,2.4,,,1.0244333333333333
37,0.0,,112.267,,0.0,26.4116,112.266,26.4116,-67.7343,2461.32,monload-611_runway,,,,,,,,2.4,,,1.02555
38,0.0,,112.198,,0.0,25.3752,112.203,25.3752,-67.797,2458.26,monload-611_runway,,,,,,,,2.4,,,1.024275
39,0.0,,110.708,,0.0,24.5082,110.709,24.5082,-69.2906,2384.34,monload-611_runway,,,,,,,,2.4,,,0.9934750000000001
40,0.0,,111.037,,0.0,24.748,111.039,24.748,-68.9612,2400.79,monload-611_runway,,,,,,,,2.4,,,1.0003291666666667
41,0.0,,108.559,,0.0,25.8685,108.558,25.8685,-71.4422,2290.11,monload-611_runway,,,,,,,,2.4,,,0.9542125
42,0.0,,107.261,,0.0,31.0043,107.26,31.0043,-72.7402,2235.06,monload-611_runway,,,,,,,,2.4,,,0.931275
43,0.0,,107.891,,0.0,38.5084,107.891,38.5084,-72.1088,2263.84,monload-611_runway,,,,,,,,2.4,,,0.9432666666666667
44,0.0,,107.887,,0.0,40.8684,107.887,40.8684,-72.1132,2263.76,monload-611_runway,,,,,,,,2.4,,,0.9432333333333335
45,0.0,,108.659,,0.0,45.1231,108.661,45.1231,-71.3393,2301.3,monload-611_runway,,,,,,,,2.4,,,0.958875
46,0.0,,109.094,,0.0,42.3023,109.093,42.3023,-70.9069,2322.49,monload-611_runway,,,,,,,,2.4,,,0.9677041666666666
47,0.0,,110.145,,0.0,30.8497,110.143,30.8497,-69.857,2372.25,monload-611_runway,,,,,,,,2.4,,,0.9884375
48,0.0,,110.504,,0.0,21.1497,110.498,21.1497,-69.5021,2389.21,monload-611_runway,,,,,,,,2.4,,,0.9955041666666666
49,0.0,,110.658,,0.0,18.8942,110.655,18.8942,-69.345,2396.57,monload-611_runway,,,,,,,,2.4,,,0.9985708333333334
50,0.0,,110.702,,0.0,18.3946,110.695,18.3946,-69.3048,2398.61,monload-611_runway,,,,,,,,2.4,,,0.9994208333333334
51,0.0,,110.757,,0.0,17.8874,110.756,17.8874,-69.2443,2401.14,monload-611_runway,,,,,,,,2.4,,,1.000475
52,0.0,,110.751,,0.0,18.4384,110.752,18.4384,-69.2479,2400.9,monload-611_runway,,,,,,,,2.4,,,1.000375
53,0.0,,109.924,,0.0,19.6598,109.926,19.6598,-70.0742,2361.83,monload-611_runway,,,,,,,,2.4,,,0.9840958333333333
54,0.0,,109.594,,0.0,23.9779,109.6,23.9779,-70.4002,2345.95,monload-611_runway,,,,,,,,2.4,,,0.9774791666666666
55,0.0,,107.76,,0.0,35.3543,107.76,35.3543,-72.2399,2257.99,monload-611_runway,,,,,,,,2.4,,,0.9408291666666666
56,0.0,,107.397,,0.0,35.3402,107.398,35.3402,-72.6024,2241.79,monload-611_runway,,,,,,,,2.4,,,0.9340791666666667
57,0.0,,108.555,,0.0,31.5574,108.559,31.5574,-71.4412,2303.55,monload-611_runway,,,,,,,,2.4,,,0.9598125000000001
58,0.0,,110.419,,0.0,31.2533,110.42,31.2533,-69.5796,2384.81,monload-611_runway,,,,,,,,2.4,,,0.9936708333333333
59,0.0,,112.262,,0.0,24.7817,112.264,24.7817,-67.7358,2461.22,monload-611_runway,,,,,,,,2.4,,,1.0255083333333332
60,0.0,,112.267,,0.0,25.9092,112.267,25.9092,-67.7326,2461.41,monload-611_runway,,,,,,,,2.4,,,1.0255874999999999
61,0.0,,112.356,,0.0,27.1001,112.354,27.1001,-67.6461,2465.38,monload-611_runway,,,,,,,,2.4,,,1.0272416666666666
62,0.0,,113.548,,0.0,27.5835,113.549,27.5835,-66.4511,2508.42,monload-611_runway,,,,,,,,2.4,,,1.045175
63,0.0,,109.884,,0.0,27.9419,109.882,27.9419,-70.1175,2342.76,monload-611_runway,,,,,,,,2.4,,,0.9761500000000001
64,0.0,,110.244,,0.0,28.0794,110.242,28.0794,-69.7579,2360.89,monload-611_runway,,,,,,,,2.4,,,0.9837041666666666
65,0.0,,108.171,,0.0,28.3838,108.17,28.3838,-71.8296,2269.82,monload-611_runway,,,,,,,,2.4,,,0.9457583333333334
66,0.0,,107.321,,0.0,31.9631,107.32,31.9631,-72.6798,2237.8,monload-611_runway,,,,,,,,2.4,,,0.9324166666666668
67,0.0,,108.125,,0.0,38.6424,108.125,38.6424,-71.8748,2275.23,monload-611_runway,,,,,,,,2.4,,,0.9480125
68,0.0,,108.132,,0.0,40.7897,108.132,40.7897,-71.8676,2275.7,monload-611_runway,,,,,,,,2.4,,,0.9482083333333332
69,0.0,,108.949,,0.0,44.806,108.951,44.806,-71.0492,2315.22,monload-611_runway,,,,,,,,2.4,,,0.964675
70,0.0,,109.336,,0.0,41.9513,109.335,41.9513,-70.6648,2334.02,monload-611_runway,,,,,,,,2.4,,,0.9725083333333333
71,0.0,,110.357,,0.0,30.874,110.355,30.874,-69.6451,2382.24,monload-611_runway,,,,,,,,2.4,,,0.9925999999999999
72,0.0,,110.727,,0.0,21.1947,110.721,21.1947,-69.2791,2399.7,monload-611_runway,,,,,,,,2.4,,,0.999875
73,0.0,,110.916,,0.0,18.5785,110.919,18.5785,-69.0809,2393.4,monload-611_runway,,,,,,,,2.4,,,0.9972500000000001
74,0.0,,110.944,,0.0,17.7129,110.942,17.7129,-69.0585,2394.71,monload-611_runway,,,,,,,,2.4,,,0.9977958333333333
75,0.0,,110.975,,0.0,16.7422,110.972,16.7422,-69.0277,2396.15,monload-611_runway,,,,,,,,2.4,,,0.9983958333333334
76,0.0,,110.972,,0.0,16.8093,110.972,16.8093,-69.0276,2396.02,monload-611_runway,,,,,,,,2.4,,,0.9983416666666667
77,0.0,,110.156,,0.0,17.5128,110.156,17.5128,-69.8436,2357.82,monload-611_runway,,,,,,,,2.4,,,0.9824250000000001
78,0.0,,109.951,,0.0,20.9229,109.953,20.9229,-70.0475,2348.0,monload-611_runway,,,,,,,,2.4,,,0.9783333333333334
79,0.0,,108.038,,0.0,32.5946,108.042,32.5946,-71.9576,2271.73,monload-611_runway,,,,,,,,2.4,,,0.9465541666666667
80,0.0,,107.483,,0.0,34.4343,107.484,34.4343,-72.5164,2245.55,monload-611_runway,,,,,,,,2.4,,,0.9356458333333334
81,0.0,,108.213,,0.0,30.82,108.211,30.82,-71.7894,2285.23,monload-611_runway,,,,,,,,2.4,,,0.9521791666666667
82,0.0,,110.6,,0.0,30.1071,110.602,30.1071,-69.3978,2393.8,monload-611_runway,,,,,,,,2.4,,,0.9974166666666667
83,0.0,,112.296,,0.0,23.08,112.298,23.08,-67.702,2462.87,monload-611_runway,,,,,,,,2.4,,,1.0261958333333332
84,0.0,,111.637,,0.0,23.6213,111.64,23.6213,-68.3602,2430.46,monload-611_runway,,,,,,,,2.4,,,1.0126916666666668
85,0.0,,110.834,,0.0,24.733,110.837,24.733,-69.163,2390.02,monload-611_runway,,,,,,,,2.4,,,0.9958416666666666
86,0.0,,109.125,,0.0,26.0612,109.123,26.0612,-70.8766,2319.47,monload-611_runway,,,,,,,,2.4,,,0.9664458333333332
87,0.0,,112.137,,0.0,26.4039,112.139,26.4039,-67.8606,2455.39,monload-611_runway,,,,,,,,2.4,,,1.0230791666666665
88,0.0,,109.095,,0.0,26.3335,109.093,26.3335,-70.9074,2318.24,monload-611_runway,,,,,,,,2.4,,,0.9659333333333332
89,0.0,,107.7,,0.0,27.3145,107.699,27.3145,-72.3006,2260.51,monload-611_runway,,,,,,,,2.4,,,0.9418791666666667
90,0.0,,107.132,,0.0,33.0279,107.132,33.0279,-72.8679,2229.19,monload-611_runway,,,,,,,,2.4,,,0.9288291666666667
91,0.0,,107.68,,0.0,40.9581,107.68,40.9581,-72.3199,2253.71,monload-611_runway,,,,,,,,2.4,,,0.9390458333333334
92,0.0,,107.678,,0.0,44.002,107.678,44.002,-72.3221,2253.67,monload-611_runway,,,,,,,,2.4,,,0.9390291666666667
93,0.0,,107.997,,0.0,48.9865,107.995,48.9865,-72.0046,2267.38,monload-611_runway,,,,,,,,2.4,,,0.9447416666666667
94,0.0,,108.513,,0.0,46.4184,108.515,46.4184,-71.4854,2293.19,monload-611_runway,,,,,,,,2.4,,,0.9554958333333333
95,0.0,,109.901,,0.0,34.3923,109.904,34.3923,-70.0958,2360.82,monload-611_runway,,,,,,,,2.4,,,0.9836750000000001
96,0.0,,110.279,,0.0,24.0131,110.274,24.0131,-69.7262,2378.84,monload-611_runway,,,,,,,,2.4,,,0.9911833333333334
97,0.0,,110.498,,0.0,21.7964,110.496,21.7964,-69.5041,2389.39,monload-611_runway,,,,,,,,2.4,,,0.9955791666666666
98,0.0,,110.55,,0.0,20.8093,110.545,20.8093,-69.4554,2391.83,monload-611_runway,,,,,,,,2.4,,,0.9965958333333333
99,0.0,,110.593,,0.0,19.5335,110.589,19.5335,-69.4109,2393.86,monload-611_runway,,,,,,,,2.4,,,0.9974416666666667
100,0.0,,110.654,,0.0,19.3539,110.653,19.3539,-69.3468,2396.69,monload-611_runway,,,,,,,,2.4,,,0.9986208333333334
101,0.0,,109.931,,0.0,19.795,109.932,19.795,-70.0681,2362.51,monload-611_runway,,,,,,,,2.4,,,0.9843791666666668
102,0.0,,109.63,,0.0,23.6849,109.633,23.6849,-70.3667,2348.04,monload-611_runway,,,,,,,,2.4,,,0.9783499999999999
103,0.0,,107.632,,0.0,37.926,107.635,37.926,-72.3654,2252.08,monload-611_runway,,,,,,,,2.4,,,0.9383666666666667
104,0.0,,107.254,,0.0,41.8199,107.25,41.8199,-72.7497,2235.35,monload-611_runway,,,,,,,,2.4,,,0.9313958333333333
105,0.0,,107.315,,0.0,39.0231,107.314,39.0231,-72.6859,2239.7,monload-611_runway,,,,,,,,2.4,,,0.9332083333333333
106,0.0,,108.59,,0.0,42.459,108.592,42.459,-71.408,2307.3,monload-611_runway,,,,,,,,2.4,,,0.9613750000000001
107,0.0,,109.255,,0.0,36.7749,109.255,36.7749,-70.7449,2341.29,monload-611_runway,,,,,,,,2.4,,,0.9755375
108,0.0,,110.652,,0.0,34.924,110.654,34.924,-69.3459,2396.98,monload-611_runway,,,,,,,,2.4,,,0.9987416666666666
109,0.0,,110.815,,0.0,35.3309,110.81,35.3309,-69.19,2404.65,monload-611_runway,,,,,,,,2.4,,,1.0019375000000001
110,0.0,,109.62,,0.0,36.1511,109.621,36.1511,-70.3786,2344.91,monload-611_runway,,,,,,,,2.4,,,0.9770458333333333
111,0.0,,109.634,,0.0,36.557,109.633,36.557,-70.3668,2345.62,monload-611_runway,,,,,,,,2.4,,,0.9773416666666667
112,0.0,,108.669,,0.0,35.8436,108.67,35.8436,-71.3301,2296.56,monload-611_runway,,,,,,,,2.4,,,0.9569
113,0.0,,107.296,,0.0,36.6149,107.296,36.6149,-72.704,2238.98,monload-611_runway,,,,,,,,2.4,,,0.9329083333333333
114,0.0,,107.15,,0.0,41.3714,107.151,41.3714,-72.8493,2229.9,monload-611_runway,,,,,,,,2.4,,,0.9291250000000001
115,0.0,,107.757,,0.0,47.7816,107.757,47.7816,-72.2429,2257.07,monload-611_runway,,,,,,,,2.4,,,0.9404458333333334
116,0.0,,107.783,,0.0,50.3749,107.783,50.3749,-72.2171,2258.45,monload-611_runway,,,,,,,,2.4,,,0.9410208333333333
117,0.0,,108.55,,0.0,55.1034,108.549,55.1034,-71.4508,2295.82,monload-611_runway,,,,,,,,2.4,,,0.9565916666666667
118,0.0,,108.992,,0.0,52.4571,108.995,52.4571,-71.0054,2317.39,monload-611_runway,,,,,,,,2.4,,,0.9655791666666667
119,0.0,,110.087,,0.0,40.733,110.085,40.733,-69.9151,2369.38,monload-611_runway,,,,,,,,2.4,,,0.9872416666666667
120,0.0,,110.525,,0.0,29.5798,110.518,29.5798,-69.4818,2390.29,monload-611_runway,,,,,,,,2.4,,,0.9959541666666667
121,0.0,,110.801,,0.0,25.8806,110.804,25.8806,-69.1957,2388.23,monload-611_runway,,,,,,,,2.4,,,0.9950958333333333
122,0.0,,110.851,,0.0,24.5759,110.846,24.5759,-69.1538,2390.59,monload-611_runway,,,,,,,,2.4,,,0.9960791666666667
123,0.0,,110.9,,0.0,22.9971,110.895,22.9971,-69.1047,2392.85,monload-611_runway,,,,,,,,2.4,,,0.9970208333333332
124,0.0,,110.923,,0.0,22.3842,110.92,22.3842,-69.0795,2393.95,monload-611_runway,,,,,,,,2.4,,,0.9974791666666666
125,0.0,,110.102,,0.0,22.8134,110.103,22.8134,-69.8975,2355.51,monload-611_runway,,,,,,,,2.4,,,0.9814625000000001
126,0.0,,109.847,,0.0,26.7316,109.85,26.7316,-70.1502,2343.33,monload-611_runway,,,,,,,,2.4,,,0.9763875
127,0.0,,107.853,,0.0,40.9786,107.857,40.9786,-72.1425,2262.79,monload-611_runway,,,,,,,,2.4,,,0.9428291666666666
128,0.0,,107.354,,0.0,44.7032,107.357,44.7032,-72.6435,2239.85,monload-611_runway,,,,,,,,2.4,,,0.9332708333333333
129,0.0,,107.139,,0.0,43.0353,107.139,43.0353,-72.8607,2229.9,monload-611_runway,,,,,,,,2.4,,,0.9291250000000001
130,0.0,,107.043,,0.0,43.2443,107.043,43.2443,-72.9573,2225.8,monload-611_runway,,,,,,,,2.4,,,0.9274166666666668
131,0.0,,108.201,,0.0,38.3172,108.203,38.3172,-71.7973,2286.29,monload-611_runway,,,,,,,,2.4,,,0.9526208333333334
132,0.0,,107.297,,0.0,38.3073,107.296,38.3073,-72.7039,2238.97,monload-611_runway,,,,,,,,2.4,,,0.9329041666666665
133,0.0,,108.93,,0.0,39.7514,108.932,39.7514,-71.0677,2323.24,monload-611_runway,,,,,,,,2.4,,,0.9680166666666665
134,0.0,,108.812,,0.0,40.3209,108.815,40.3209,-71.1851,2317.78,monload-611_runway,,,,,,,,2.4,,,0.9657416666666667
135,0.0,,108.254,,0.0,40.0177,108.257,40.0177,-71.7431,2289.15,monload-611_runway,,,,,,,,2.4,,,0.9538125000000001
136,0.0,,107.275,,0.0,37.9943,107.274,37.9943,-72.726,2237.83,monload-611_runway,,,,,,,,2.4,,,0.9324291666666666
137,0.0,,106.898,,0.0,36.7684,106.899,36.7684,-73.1011,2217.83,monload-611_runway,,,,,,,,2.4,,,0.9240958333333333
138,0.0,,106.425,,0.0,41.4204,106.429,41.4204,-73.5705,2205.27,monload-611_runway,,,,,,,,2.4,,,0.9188625
139,0.0,,107.502,,0.0,49.4763,107.502,49.4763,-72.4985,2258.32,monload-611_runway,,,,,,,,2.4,,,0.9409666666666667
140,0.0,,107.546,,0.0,52.2083,107.546,52.2083,-72.4536,2260.74,monload-611_runway,,,,,,,,2.4,,,0.9419749999999999
141,0.0,,108.292,,0.0,57.1881,108.29,57.1881,-71.7102,2297.34,monload-611_runway,,,,,,,,2.4,,,0.9572250000000001
142,0.0,,109.02,,0.0,51.6617,109.024,51.6617,-70.9756,2333.38,monload-611_runway,,,,,,,,2.4,,,0.9722416666666667
143,0.0,,110.278,,0.0,37.0848,110.282,37.0848,-69.7181,2378.74,monload-611_runway,,,,,,,,2.4,,,0.9911416666666666
144,0.0,,110.709,,0.0,25.3175,110.704,25.3175,-69.2957,2399.09,monload-611_runway,,,,,,,,2.4,,,0.9996208333333334
145,0.0,,110.882,,0.0,23.1146,110.886,23.1146,-69.1143,2392.09,monload-611_runway,,,,,,,,2.4,,,0.9967041666666667
146,0.0,,110.871,,0.0,22.7156,110.872,22.7156,-69.1278,2391.62,monload-611_runway,,,,,,,,2.4,,,0.9965083333333333
147,0.0,,110.933,,0.0,19.4987,110.928,19.4987,-69.0725,2394.41,monload-611_runway,,,,,,,,2.4,,,0.9976708333333333
148,0.0,,110.948,,0.0,19.1538,110.946,19.1538,-69.0536,2395.1,monload-611_runway,,,,,,,,2.4,,,0.9979583333333333
149,0.0,,110.722,,0.0,19.44,110.724,19.44,-69.2761,2384.46,monload-611_runway,,,,,,,,2.4,,,0.993525
150,0.0,,110.574,,0.0,20.7921,110.575,20.7921,-69.4251,2377.29,monload-611_runway,,,,,,,,2.4,,,0.9905375
151,0.0,,109.708,,0.0,30.6613,109.709,30.6613,-70.2909,2336.84,monload-611_runway,,,,,,,,2.4,,,0.9736833333333333
152,0.0,,109.06,,0.0,32.5578,109.059,32.5578,-70.9414,2305.94,monload-611_runway,,,,,,,,2.4,,,0.9608083333333334
153,0.0,,110.94,,0.0,45.5458,110.94,45.5458,-69.0602,2404.16,monload-611_runway,,,,,,,,2.4,,,1.0017333333333334
154,0.0,,112.794,,0.0,40.6198,112.796,40.6198,-67.2041,2484.44,monload-611_runway,,,,,,,,2.4,,,1.0351833333333333
155,0.0,,113.685,,0.0,31.8176,113.688,31.8176,-66.3118,2511.69,monload-611_runway,,,,,,,,2.4,,,1.0465375000000001
156,0.0,,116.409,,0.0,32.45,116.409,32.45,-63.591,2609.02,monload-611_runway,,,,,,,,2.4,,,1.0870916666666666
157,0.0,,117.034,,0.0,33.5182,117.033,33.5182,-62.9665,2637.21,monload-611_runway,,,,,,,,2.4,,,1.0988375
158,0.0,,116.835,,0.0,33.1291,116.835,33.1291,-63.1646,2628.14,monload-611_runway,,,,,,,,2.4,,,1.0950583333333332
159,0.0,,115.903,,0.0,32.8563,115.903,32.8563,-64.0968,2584.55,monload-611_runway,,,,,,,,2.4,,,1.0768958333333334
160,0.0,,114.635,,0.0,33.0618,114.635,33.0618,-65.3645,2523.76,monload-611_runway,,,,,,,,2.4,,,1.0515666666666668
161,0.0,,111.935,,0.0,33.2851,111.933,33.2851,-68.067,2423.33,monload-611_runway,,,,,,,,2.4,,,1.0097208333333334
162,0.0,,109.111,,0.0,36.5459,109.111,36.5459,-70.8886,2309.05,monload-611_runway,,,,,,,,2.4,,,0.9621041666666668
163,0.0,,108.635,,0.0,47.5561,108.636,47.5561,-71.3635,2285.15,monload-611_runway,,,,,,,,2.4,,,0.9521458333333334
164,0.0,,108.679,,0.0,49.2997,108.677,49.2997,-71.3233,2287.39,monload-611_runway,,,,,,,,2.4,,,0.9530791666666666
165,0.0,,109.377,,0.0,51.8892,109.376,51.8892,-70.624,2320.71,monload-611_runway,,,,,,,,2.4,,,0.9669625000000001
166,0.0,,109.561,,0.0,51.0972,109.558,51.0972,-70.4422,2329.82,monload-611_runway,,,,,,,,2.4,,,0.9707583333333334
167,0.0,,110.171,,0.0,40.8171,110.17,40.8171,-69.8298,2358.83,monload-611_runway,,,,,,,,2.4,,,0.9828458333333333
168,0.0,,110.634,,0.0,27.8677,110.626,27.8677,-69.3742,2380.56,monload-611_runway,,,,,,,,2.4,,,0.9919
169,0.0,,110.999,,0.0,23.6005,110.992,23.6005,-69.0078,2397.7,monload-611_runway,,,,,,,,2.4,,,0.9990416666666666
170,0.0,,111.031,,0.0,23.0303,111.027,23.0303,-68.9734,2399.23,monload-611_runway,,,,,,,,2.4,,,0.9996791666666667
171,0.0,,111.117,,0.0,19.8099,111.115,19.8099,-68.8847,2403.1,monload-611_runway,,,,,,,,2.4,,,1.0012916666666667
172,0.0,,111.123,,0.0,19.6465,111.122,19.6465,-68.8777,2403.41,monload-611_runway,,,,,,,,2.4,,,1.0014208333333332
173,0.0,,110.873,,0.0,20.1694,110.878,20.1694,-69.1223,2391.65,monload-611_runway,,,,,,,,2.4,,,0.9965208333333334
174,0.0,,110.709,,0.0,21.5583,110.71,21.5583,-69.2896,2383.54,monload-611_runway,,,,,,,,2.4,,,0.9931416666666667
175,0.0,,109.833,,0.0,31.2002,109.834,31.2002,-70.1661,2342.41,monload-611_runway,,,,,,,,2.4,,,0.9760041666666666
176,0.0,,109.958,,0.0,33.3904,109.957,33.3904,-70.0431,2348.34,monload-611_runway,,,,,,,,2.4,,,0.9784750000000001
177,0.0,,110.139,,0.0,49.5935,110.141,49.5935,-69.8594,2361.55,monload-611_runway,,,,,,,,2.4,,,0.9839791666666667
178,0.0,,113.083,,0.0,48.4258,113.087,48.4258,-66.9132,2496.24,monload-611_runway,,,,,,,,2.4,,,1.0400999999999998
