hour,t(sec),V1,VAngle1,V2,VAngle2,I1,IAngle1,I2,IAngle2,V3,Name,VAngle3,I3,IAngle3,V4,VAngle4,I4,IAngle4,kv,V1(PU),V2(PU),V3(PU)
1,0.0,,119.095,,0.0,20.2518,119.09700000000001,20.2518,-60.9034,2511.92,monload-611_runway,,,,,,,,2.4,,,1.0466333333333333
2,0.0,,113.537,,0.0,21.49,113.53200000000001,21.49,-66.4683,2317.96,monload-611_runway,,,,,,,,2.4,,,0.9658166666666667
3,0.0,,113.564,,0.0,18.735,113.56200000000001,18.735,-66.4378,2319.02,monload-611_runway,,,,,,,,2.4,,,0.9662583333333333
4,0.0,,113.569,,0.0,18.1696,113.569,18.1696,-66.431,2319.24,monload-611_runway,,,,,,,,2.4,,,0.9663499999999999
5,0.0,,113.32600000000001,,0.0,18.3433,113.32799999999999,18.3433,-66.6722,2309.19,monload-611_runway,,,,,,,,2.4,,,0.9621625
6,0.0,,113.18,,0.0,19.8621,113.181,19.8621,-66.8192,2302.94,monload-611_runway,,,,,,,,2.4,,,0.9595583333333334
7,0.0,,112.32700000000001,,0.0,29.8483,112.325,29.8483,-67.675,2281.8,monload-611_runway,,,,,,,,2.4,,,0.9507500000000001
8,0.0,,112.46,,0.0,31.8618,112.461,31.8618,-67.5392,2287.18,monload-611_runway,,,,,,,,2.4,,,0.9529916666666666
9,0.0,,112.198,,0.0,43.9709,112.198,43.9709,-67.8023,2277.26,monload-611_runway,,,,,,,,2.4,,,0.9488583333333335
10,0.0,,108.835,,0.0,35.499,108.835,35.499,-71.1647,2147.67,monload-611_runway,,,,,,,,2.4,,,0.8948625
11,0.0,,109.30799999999999,,0.0,25.3558,109.291,25.3558,-70.7087,2169.75,monload-611_runway,,,,,,,,2.4,,,0.9040625
12,0.0,,111.23200000000001,,0.0,24.8089,111.23100000000001,24.8089,-68.7687,2259.83,monload-611_runway,,,,,,,,2.4,,,0.9415958333333333
13,0.0,,113.398,,0.0,24.9564,113.40299999999999,24.9564,-66.5973,2343.35,monload-611_runway,,,,,,,,2.4,,,0.9763958333333332
14,0.0,,114.587,,0.0,24.9959,114.59100000000001,24.9959,-65.4094,2379.88,monload-611_runway,,,,,,,,2.4,,,0.9916166666666667
15,0.0,,115.637,,0.0,24.9268,115.637,24.9268,-64.3628,2424.14,monload-611_runway,,,,,,,,2.4,,,1.0100583333333333
16,0.0,,115.84299999999999,,0.0,24.7866,115.84100000000001,24.7866,-64.1593,2432.76,monload-611_runway,,,,,,,,2.4,,,1.0136500000000002
17,0.0,,114.01899999999999,,0.0,25.989,114.01899999999999,25.989,-65.9805,2355.42,monload-611_runway,,,,,,,,2.4,,,0.981425
18,0.0,,117.75299999999999,,0.0,31.4301,117.755,31.4301,-62.2447,2495.29,monload-611_runway,,,,,,,,2.4,,,1.0397041666666667
19,0.0,,117.315,,0.0,43.1551,117.318,43.1551,-62.6817,2478.39,monload-611_runway,,,,,,,,2.4,,,1.0326625
20,0.0,,111.959,,0.0,45.0091,111.961,45.0091,-68.0386,2265.85,monload-611_runway,,,,,,,,2.4,,,0.9441041666666666
21,0.0,,112.11200000000001,,0.0,47.6401,112.11200000000001,47.6401,-67.8878,2272.39,monload-611_runway,,,,,,,,2.4,,,0.9468291666666666
22,0.0,,112.295,,0.0,46.4444,112.295,46.4444,-67.7051,2280.38,monload-611_runway,,,,,,,,2.4,,,0.9501583333333333
23,0.0,,112.87700000000001,,0.0,35.6973,112.87100000000001,35.6973,-67.1291,2304.82,monload-611_runway,,,,,,,,2.4,,,0.9603416666666668
24,0.0,,113.292,,0.0,22.9122,113.288,22.9122,-66.7118,2322.13,monload-611_runway,,,,,,,,2.4,,,0.9675541666666667
25,0.0,,113.439,,0.0,18.6667,113.43700000000001,18.6667,-66.5626,2328.27,monload-611_runway,,,,,,,,2.4,,,0.9701125
26,0.0,,113.448,,0.0,17.8494,113.447,17.8494,-66.553,2328.63,monload-611_runway,,,,,,,,2.4,,,0.9702625
27,0.0,,113.46700000000001,,0.0,16.9263,113.465,16.9263,-66.5351,2329.39,monload-611_runway,,,,,,,,2.4,,,0.9705791666666667
28,0.0,,113.46799999999999,,0.0,17.0116,113.46799999999999,17.0116,-66.532,2329.43,monload-611_runway,,,,,,,,2.4,,,0.9705958333333332
29,0.0,,112.62200000000001,,0.0,17.6802,112.62299999999999,17.6802,-67.3771,2294.3,monload-611_runway,,,,,,,,2.4,,,0.9559583333333334
30,0.0,,112.30799999999999,,0.0,21.26,112.311,21.26,-67.6891,2280.99,monload-611_runway,,,,,,,,2.4,,,0.9504124999999999
31,0.0,,110.602,,0.0,32.295,110.60600000000001,32.295,-69.3941,2222.17,monload-611_runway,,,,,,,,2.4,,,0.9259041666666668
32,0.0,,109.921,,0.0,33.4443,109.92200000000001,33.4443,-70.0781,2192.72,monload-611_runway,,,,,,,,2.4,,,0.9136333333333333
33,0.0,,110.367,,0.0,29.8421,110.367,29.8421,-69.6335,2214.49,monload-611_runway,,,,,,,,2.4,,,0.9227041666666665
34,0.0,,107.28299999999999,,0.0,28.3968,107.28299999999999,28.3968,-72.7175,2092.4,monload-611_runway,,,,,,,,2.4,,,0.8718333333333333
35,0.0,,107.854,,0.0,23.2797,107.854,23.2797,-72.1464,2120.56,monload-611_runway,,,,,,,,2.4,,,0.8835666666666666
36,0.0,,114.37100000000001,,0.0,26.0047,114.37200000000001,26.0047,-65.6278,2380.85,monload-611_runway,,,,,,,,2.4,,,0.9920208333333332
37,0.0,,110.007,,0.0,25.4187,110.01299999999999,25.4187,-69.9873,2198.58,monload-611_runway,,,,,,,,2.4,,,0.916075
38,0.0,,107.29299999999999,,0.0,23.1794,107.29299999999999,23.1794,-72.7066,2093.09,monload-611_runway,,,,,,,,2.4,,,0.8721208333333333
39,0.0,,116.772,,0.0,24.5082,116.773,24.5082,-63.2268,2466.36,monload-611_runway,,,,,,,,2.4,,,1.02765
40,0.0,,113.98,,0.0,24.748,113.98200000000001,24.748,-66.0184,2350.09,monload-611_runway,,,,,,,,2.4,,,0.9792041666666668
41,0.0,,111.398,,0.0,25.5156,111.398,25.5156,-68.6021,2250.54,monload-611_runway,,,,,,,,2.4,,,0.937725
42,0.0,,114.15299999999999,,0.0,31.6633,114.155,31.6633,-65.8449,2371.65,monload-611_runway,,,,,,,,2.4,,,0.9881875
43,0.0,,115.465,,0.0,38.7986,115.462,38.7986,-64.5383,2422.52,monload-611_runway,,,,,,,,2.4,,,1.0093833333333333
44,0.0,,115.471,,0.0,41.1781,115.471,41.1781,-64.5295,2422.97,monload-611_runway,,,,,,,,2.4,,,1.0095708333333333
45,0.0,,111.14,,0.0,44.3976,111.14,44.3976,-68.8597,2245.27,monload-611_runway,,,,,,,,2.4,,,0.9355291666666666
46,0.0,,111.523,,0.0,41.9474,111.523,41.9474,-68.4773,2261.88,monload-611_runway,,,,,,,,2.4,,,0.94245
47,0.0,,112.54,,0.0,30.8497,112.541,30.8497,-67.459,2305.19,monload-611_runway,,,,,,,,2.4,,,0.9604958333333333
48,0.0,,112.905,,0.0,21.1497,112.90100000000001,21.1497,-67.0988,2320.61,monload-611_runway,,,,,,,,2.4,,,0.9669208333333333
49,0.0,,113.06200000000001,,0.0,18.8942,113.06,18.8942,-66.94,2327.28,monload-611_runway,,,,,,,,2.4,,,0.9697000000000001
50,0.0,,113.11200000000001,,0.0,18.3946,113.10799999999999,18.3946,-66.8915,2329.19,monload-611_runway,,,,,,,,2.4,,,0.9704958333333333
51,0.0,,113.16799999999999,,0.0,17.8874,113.163,17.8874,-66.8369,2331.47,monload-611_runway,,,,,,,,2.4,,,0.9714458333333332
52,0.0,,113.164,,0.0,18.4384,113.165,18.4384,-66.8354,2331.31,monload-611_runway,,,,,,,,2.4,,,0.9713791666666667
53,0.0,,112.301,,0.0,19.6598,112.302,19.6598,-67.6978,2295.1,monload-611_runway,,,,,,,,2.4,,,0.9562916666666667
54,0.0,,111.96600000000001,,0.0,23.9779,111.96799999999999,23.9779,-68.0322,2280.7,monload-611_runway,,,,,,,,2.4,,,0.9502916666666666
55,0.0,,110.309,,0.0,34.5491,110.30799999999999,34.5491,-69.6919,2209.31,monload-611_runway,,,,,,,,2.4,,,0.9205458333333333
56,0.0,,109.654,,0.0,34.3255,109.654,34.3255,-70.3456,2180.78,monload-611_runway,,,,,,,,2.4,,,0.9086583333333335
57,0.0,,111.26899999999999,,0.0,31.2284,111.26899999999999,31.2284,-68.73100000000001,2257.48,monload-611_runway,,,,,,,,2.4,,,0.9406166666666667
58,0.0,,109.361,,0.0,29.8361,109.366,29.8361,-70.6343,2181.86,monload-611_runway,,,,,,,,2.4,,,0.9091083333333334
59,0.0,,110.806,,0.0,24.4377,110.804,24.4377,-69.196,2249.99,monload-611_runway,,,,,,,,2.4,,,0.9374958333333332
60,0.0,,107.95100000000001,,0.0,24.055999999999997,107.95100000000001,24.055999999999997,-72.0487,2125.5,monload-611_runway,,,,,,,,2.4,,,0.885625
61,0.0,,114.525,,0.0,27.1001,114.52600000000001,27.1001,-65.4737,2386.07,monload-611_runway,,,,,,,,2.4,,,0.9941958333333334
62,0.0,,114.18,,0.0,27.5835,114.181,27.5835,-65.8186,2372.36,monload-611_runway,,,,,,,,2.4,,,0.9884833333333334
63,0.0,,113.09100000000001,,0.0,27.9419,113.086,27.9419,-66.9139,2325.96,monload-611_runway,,,,,,,,2.4,,,0.9691500000000001
64,0.0,,112.416,,0.0,28.0794,112.419,28.0794,-67.5811,2296.33,monload-611_runway,,,,,,,,2.4,,,0.9568041666666667
65,0.0,,110.76299999999999,,0.0,27.9225,110.76299999999999,27.9225,-69.2371,2234.87,monload-611_runway,,,,,,,,2.4,,,0.9311958333333333
66,0.0,,114.241,,0.0,32.6003,114.243,32.6003,-65.757,2375.04,monload-611_runway,,,,,,,,2.4,,,0.9896
67,0.0,,115.715,,0.0,38.728,115.71600000000001,38.728,-64.2842,2417.16,monload-611_runway,,,,,,,,2.4,,,1.00715
68,0.0,,115.726,,0.0,40.8709,115.72399999999999,40.8709,-64.2761,2417.69,monload-611_runway,,,,,,,,2.4,,,1.0073708333333333
69,0.0,,111.39299999999999,,0.0,44.0204,111.397,44.0204,-68.6034,2241.99,monload-611_runway,,,,,,,,2.4,,,0.9341624999999999
70,0.0,,111.73899999999999,,0.0,41.5039,111.73899999999999,41.5039,-68.2607,2256.96,monload-611_runway,,,,,,,,2.4,,,0.9404
71,0.0,,112.721,,0.0,30.874000000000002,112.71600000000001,30.874000000000002,-67.2841,2298.26,monload-611_runway,,,,,,,,2.4,,,0.9576083333333334
72,0.0,,113.09899999999999,,0.0,21.1947,113.094,21.1947,-66.9061,2314.09,monload-611_runway,,,,,,,,2.4,,,0.9642041666666668
73,0.0,,113.32700000000001,,0.0,18.5785,113.324,18.5785,-66.6761,2323.67,monload-611_runway,,,,,,,,2.4,,,0.9681958333333334
74,0.0,,113.35600000000001,,0.0,17.7129,113.353,17.7129,-66.6474,2324.88,monload-611_runway,,,,,,,,2.4,,,0.9687
75,0.0,,113.387,,0.0,16.7422,113.383,16.7422,-66.6165,2326.17,monload-611_runway,,,,,,,,2.4,,,0.9692375000000001
76,0.0,,113.384,,0.0,16.8093,113.385,16.8093,-66.6154,2326.04,monload-611_runway,,,,,,,,2.4,,,0.9691833333333333
77,0.0,,112.536,,0.0,17.5128,112.538,17.5128,-67.4624,2290.8,monload-611_runway,,,,,,,,2.4,,,0.9545000000000001
78,0.0,,112.32799999999999,,0.0,20.9229,112.331,20.9229,-67.6692,2281.89,monload-611_runway,,,,,,,,2.4,,,0.9507874999999999
79,0.0,,110.585,,0.0,31.8363,110.589,31.8363,-69.4108,2221.68,monload-611_runway,,,,,,,,2.4,,,0.9257
80,0.0,,109.87100000000001,,0.0,33.5491,109.87200000000001,33.5491,-70.1279,2190.81,monload-611_runway,,,,,,,,2.4,,,0.9128375
81,0.0,,108.365,,0.0,28.7108,108.365,28.7108,-71.6348,2132.18,monload-611_runway,,,,,,,,2.4,,,0.8884083333333332
82,0.0,,111.44200000000001,,0.0,30.1069,111.44200000000001,30.1069,-68.5576,2279.98,monload-611_runway,,,,,,,,2.4,,,0.9499916666666667
83,0.0,,114.935,,0.0,23.08,114.93799999999999,23.08,-65.0623,2405.02,monload-611_runway,,,,,,,,2.4,,,1.0020916666666666
84,0.0,,123.29700000000001,,0.0,25.1485,123.29799999999999,25.1485,-56.702,2683.0,monload-611_runway,,,,,,,,2.4,,,1.1179166666666667
85,0.0,,124.46799999999999,,0.0,26.5605,124.47,26.5605,-55.5304,2706.29,monload-611_runway,,,,,,,,2.4,,,1.1276208333333333
86,0.0,,123.594,,0.0,27.699,123.594,27.699,-56.4055,2678.35,monload-611_runway,,,,,,,,2.4,,,1.1159791666666665
87,0.0,,121.48,,0.0,27.2723,121.479,27.2723,-58.5211,2602.88,monload-611_runway,,,,,,,,2.4,,,1.0845333333333333
88,0.0,,118.152,,0.0,26.3335,118.15,26.3335,-61.8497,2493.18,monload-611_runway,,,,,,,,2.4,,,1.0388249999999999
89,0.0,,113.115,,0.0,27.5633,113.11200000000001,27.5633,-66.8885,2314.46,monload-611_runway,,,,,,,,2.4,,,0.9643583333333333
90,0.0,,114.50299999999999,,0.0,33.8235,114.50399999999999,33.8235,-65.4962,2373.07,monload-611_runway,,,,,,,,2.4,,,0.9887791666666668
91,0.0,,115.085,,0.0,41.4629,115.084,41.4629,-64.916,2392.48,monload-611_runway,,,,,,,,2.4,,,0.9968666666666667
92,0.0,,115.113,,0.0,44.545,115.10799999999999,44.545,-64.8917,2393.66,monload-611_runway,,,,,,,,2.4,,,0.9973583333333332
93,0.0,,110.931,,0.0,48.2799,110.934,48.2799,-69.0658,2236.29,monload-611_runway,,,,,,,,2.4,,,0.9317875
94,0.0,,111.296,,0.0,45.8226,111.296,45.8226,-68.7041,2252.27,monload-611_runway,,,,,,,,2.4,,,0.9384458333333333
95,0.0,,112.275,,0.0,34.3923,112.27600000000001,34.3923,-67.7235,2294.07,monload-611_runway,,,,,,,,2.4,,,0.9558625000000001
96,0.0,,112.664,,0.0,24.0131,112.66,24.0131,-67.3402,2310.61,monload-611_runway,,,,,,,,2.4,,,0.9627541666666667
97,0.0,,112.89,,0.0,21.7964,112.887,21.7964,-67.1131,2320.22,monload-611_runway,,,,,,,,2.4,,,0.9667583333333333
98,0.0,,112.943,,0.0,20.8093,112.93700000000001,20.8093,-67.0632,2322.45,monload-611_runway,,,,,,,,2.4,,,0.9676874999999999
99,0.0,,112.98700000000001,,0.0,19.5335,112.98200000000001,19.5335,-67.0176,2324.31,monload-611_runway,,,,,,,,2.4,,,0.9684625
100,0.0,,113.046,,0.0,19.3539,113.04700000000001,19.3539,-66.9529,2326.8,monload-611_runway,,,,,,,,2.4,,,0.9695
101,0.0,,112.3,,0.0,19.795,112.301,19.795,-67.6992,2295.39,monload-611_runway,,,,,,,,2.4,,,0.9564125
102,0.0,,111.992,,0.0,23.6849,111.99600000000001,23.6849,-68.0044,2282.19,monload-611_runway,,,,,,,,2.4,,,0.9509125
103,0.0,,110.171,,0.0,37.0692,110.171,37.0692,-69.8291,2203.89,monload-611_runway,,,,,,,,2.4,,,0.9182874999999999
104,0.0,,109.412,,0.0,40.8111,109.412,40.8111,-70.5876,2184.31,monload-611_runway,,,,,,,,2.4,,,0.9101291666666667
105,0.0,,108.05799999999999,,0.0,37.0499,108.061,37.0499,-71.9388,2132.39,monload-611_runway,,,,,,,,2.4,,,0.8884958333333333
106,0.0,,110.911,,0.0,42.0279,110.911,42.0279,-69.0885,2258.07,monload-611_runway,,,,,,,,2.4,,,0.9408625
107,0.0,,114.03399999999999,,0.0,36.7749,114.038,36.7749,-65.9617,2369.87,monload-611_runway,,,,,,,,2.4,,,0.9874458333333332
108,0.0,,122.77600000000001,,0.0,36.9672,122.777,36.9672,-57.2229,2667.5,monload-611_runway,,,,,,,,2.4,,,1.1114583333333334
109,0.0,,124.054,,0.0,37.7732,124.056,37.7732,-55.9443,2694.29,monload-611_runway,,,,,,,,2.4,,,1.1226208333333334
110,0.0,,123.022,,0.0,38.162,123.023,38.162,-56.9769,2660.15,monload-611_runway,,,,,,,,2.4,,,1.1083958333333335
111,0.0,,120.87799999999999,,0.0,37.4558,120.87700000000001,37.4558,-59.1234,2581.97,monload-611_runway,,,,,,,,2.4,,,1.0758208333333332
112,0.0,,117.525,,0.0,35.8436,117.523,35.8436,-62.4767,2469.41,monload-611_runway,,,,,,,,2.4,,,1.0289208333333333
113,0.0,,112.641,,0.0,37.3236,112.64,37.3236,-67.3602,2293.94,monload-611_runway,,,,,,,,2.4,,,0.9558083333333334
114,0.0,,114.275,,0.0,42.3539,114.27600000000001,42.3539,-65.7237,2362.88,monload-611_runway,,,,,,,,2.4,,,0.9845333333333334
115,0.0,,115.15799999999999,,0.0,48.2942,115.156,48.2942,-64.8435,2394.61,monload-611_runway,,,,,,,,2.4,,,0.9977541666666667
116,0.0,,115.24,,0.0,50.8826,115.238,50.8826,-64.7615,2398.04,monload-611_runway,,,,,,,,2.4,,,0.9991833333333333
117,0.0,,111.04,,0.0,54.1025,111.04299999999999,54.1025,-68.9567,2240.62,monload-611_runway,,,,,,,,2.4,,,0.9335916666666666
118,0.0,,111.42299999999999,,0.0,51.9079,111.42299999999999,51.9079,-68.5766,2257.39,monload-611_runway,,,,,,,,2.4,,,0.9405791666666666
119,0.0,,112.476,,0.0,40.733000000000004,112.477,40.733000000000004,-67.5227,2302.25,monload-611_runway,,,,,,,,2.4,,,0.9592708333333333
120,0.0,,112.926,,0.0,29.5798,112.921,29.5798,-67.0786,2321.35,monload-611_runway,,,,,,,,2.4,,,0.9672291666666666
121,0.0,,113.241,,0.0,25.8806,113.238,25.8806,-66.7619,2334.77,monload-611_runway,,,,,,,,2.4,,,0.9728208333333334
122,0.0,,113.29299999999999,,0.0,24.5759,113.288,24.5759,-66.7124,2336.94,monload-611_runway,,,,,,,,2.4,,,0.9737250000000001
123,0.0,,113.34299999999999,,0.0,22.9971,113.338,22.9971,-66.6624,2339.0,monload-611_runway,,,,,,,,2.4,,,0.9745833333333334
124,0.0,,113.366,,0.0,22.3842,113.363,22.3842,-66.6369,2339.99,monload-611_runway,,,,,,,,2.4,,,0.9749958333333333
125,0.0,,112.516,,0.0,22.8134,112.51700000000001,22.8134,-67.4826,2304.45,monload-611_runway,,,,,,,,2.4,,,0.9601875
126,0.0,,112.262,,0.0,26.7316,112.265,26.7316,-67.7345,2293.57,monload-611_runway,,,,,,,,2.4,,,0.9556541666666667
127,0.0,,110.39299999999999,,0.0,40.0305,110.39299999999999,40.0305,-69.6065,2213.41,monload-611_runway,,,,,,,,2.4,,,0.9222541666666666
128,0.0,,109.595,,0.0,43.4142,109.595,43.4142,-70.4046,2178.67,monload-611_runway,,,,,,,,2.4,,,0.9077791666666667
129,0.0,,107.486,,0.0,40.457,107.486,40.457,-72.5143,2103.49,monload-611_runway,,,,,,,,2.4,,,0.8764541666666665
130,0.0,,110.01,,0.0,43.2838,109.99600000000001,43.2838,-70.0035,2227.95,monload-611_runway,,,,,,,,2.4,,,0.9283124999999999
131,0.0,,113.475,,0.0,38.3172,113.478,38.3172,-66.5216,2358.77,monload-611_runway,,,,,,,,2.4,,,0.9828208333333334
132,0.0,,118.001,,0.0,39.0492,118.00200000000001,39.0492,-61.9981,2501.76,monload-611_runway,,,,,,,,2.4,,,1.0424
133,0.0,,119.65100000000001,,0.0,40.4571,119.652,40.4571,-60.3484,2564.71,monload-611_runway,,,,,,,,2.4,,,1.0686291666666667
134,0.0,,119.68700000000001,,0.0,41.0905,119.686,41.0905,-60.3141,2568.09,monload-611_runway,,,,,,,,2.4,,,1.0700375
135,0.0,,119.773,,0.0,40.835,119.77799999999999,40.835,-60.222,2571.48,monload-611_runway,,,,,,,,2.4,,,1.07145
136,0.0,,116.617,,0.0,38.751,116.618,38.751,-63.3824,2447.67,monload-611_runway,,,,,,,,2.4,,,1.0198625000000001
137,0.0,,112.266,,0.0,37.858000000000004,112.265,37.858000000000004,-67.7348,2291.54,monload-611_runway,,,,,,,,2.4,,,0.9548083333333334
138,0.0,,114.162,,0.0,42.9001,114.163,42.9001,-65.8369,2372.71,monload-611_runway,,,,,,,,2.4,,,0.9886291666666667
139,0.0,,114.90700000000001,,0.0,49.9773,114.905,49.9773,-65.0948,2399.31,monload-611_runway,,,,,,,,2.4,,,0.9997125
140,0.0,,114.97399999999999,,0.0,52.678000000000004,114.97200000000001,52.678000000000004,-65.0276,2402.19,monload-611_runway,,,,,,,,2.4,,,1.0009125
141,0.0,,110.77600000000001,,0.0,55.8353,110.779,55.8353,-69.2206,2228.76,monload-611_runway,,,,,,,,2.4,,,0.9286500000000001
142,0.0,,111.40899999999999,,0.0,51.1052,111.40899999999999,51.1052,-68.5906,2256.73,monload-611_runway,,,,,,,,2.4,,,0.9403041666666667
143,0.0,,112.67399999999999,,0.0,37.0848,112.676,37.0848,-67.3239,2310.81,monload-611_runway,,,,,,,,2.4,,,0.9628375
144,0.0,,113.113,,0.0,25.3175,113.109,25.3175,-66.8914,2329.33,monload-611_runway,,,,,,,,2.4,,,0.9705541666666666
145,0.0,,113.324,,0.0,23.1146,113.321,23.1146,-66.6786,2338.26,monload-611_runway,,,,,,,,2.4,,,0.9742750000000001
146,0.0,,113.31299999999999,,0.0,22.7156,113.314,22.7156,-66.6863,2337.84,monload-611_runway,,,,,,,,2.4,,,0.9741000000000001
147,0.0,,113.375,,0.0,19.4987,113.369,19.4987,-66.6311,2340.4,monload-611_runway,,,,,,,,2.4,,,0.9751666666666667
148,0.0,,113.39,,0.0,19.1538,113.389,19.1538,-66.6115,2341.02,monload-611_runway,,,,,,,,2.4,,,0.975425
149,0.0,,113.15899999999999,,0.0,19.44,113.161,19.44,-66.8391,2331.29,monload-611_runway,,,,,,,,2.4,,,0.9713708333333333
150,0.0,,113.005,,0.0,20.7921,113.008,20.7921,-66.9924,2324.66,monload-611_runway,,,,,,,,2.4,,,0.9686083333333333
151,0.0,,112.124,,0.0,30.6613,112.126,30.6613,-67.8745,2287.64,monload-611_runway,,,,,,,,2.4,,,0.9531833333333333
152,0.0,,111.521,,0.0,32.2876,111.521,32.2876,-68.479,2262.09,monload-611_runway,,,,,,,,2.4,,,0.9425375
153,0.0,,109.61200000000001,,0.0,43.5844,109.61200000000001,43.5844,-70.3877,2186.98,monload-611_runway,,,,,,,,2.4,,,0.9112416666666667
154,0.0,,109.15799999999999,,0.0,38.4926,109.15799999999999,38.4926,-70.8417,2166.88,monload-611_runway,,,,,,,,2.4,,,0.9028666666666667
155,0.0,,116.061,,0.0,31.8176,116.061,31.8176,-63.9387,2431.64,monload-611_runway,,,,,,,,2.4,,,1.0131833333333333
156,0.0,,123.887,,0.0,33.5302,123.89,33.5302,-56.1102,2695.94,monload-611_runway,,,,,,,,2.4,,,1.1233083333333334
157,0.0,,122.56299999999999,,0.0,33.6615,122.564,33.6615,-57.4361,2648.41,monload-611_runway,,,,,,,,2.4,,,1.1035041666666665
158,0.0,,122.09100000000001,,0.0,33.1709,122.09200000000001,33.1709,-57.9075,2631.53,monload-611_runway,,,,,,,,2.4,,,1.0964708333333335
159,0.0,,120.20100000000001,,0.0,32.5685,120.20200000000001,32.5685,-59.7979,2561.74,monload-611_runway,,,,,,,,2.4,,,1.0673916666666665
160,0.0,,115.73700000000001,,0.0,33.0122,115.73299999999999,33.0122,-64.2675,2400.94,monload-611_runway,,,,,,,,2.4,,,1.0003916666666668
161,0.0,,113.416,,0.0,33.2851,113.416,33.2851,-66.5843,2317.8,monload-611_runway,,,,,,,,2.4,,,0.9657500000000001
162,0.0,,116.818,,0.0,36.5459,116.82,36.5459,-63.1801,2460.07,monload-611_runway,,,,,,,,2.4,,,1.0250291666666667
163,0.0,,116.337,,0.0,47.5561,116.34100000000001,47.5561,-63.6589,2440.99,monload-611_runway,,,,,,,,2.4,,,1.0170791666666665
164,0.0,,111.195,,0.0,48.5582,111.199,48.5582,-68.8013,2247.37,monload-611_runway,,,,,,,,2.4,,,0.9364041666666666
165,0.0,,111.811,,0.0,51.7406,111.803,51.7406,-68.1974,2273.78,monload-611_runway,,,,,,,,2.4,,,0.9474083333333334
