hour,t(sec),V1,VAngle1,V2,VAngle2,I1,IAngle1,I2,IAngle2,V3,Name,VAngle3,I3,IAngle3,V4,VAngle4,I4,IAngle4,kv,V1(PU),V2(PU),V3(PU)
1,0.0,,114.095,,0.0,20.2518,114.1,20.2518,-65.9001,2370.37,monload-611_runway,,,,,,,,2.4,,,0.9876541666666666
2,0.0,,114.042,,0.0,21.49,114.046,21.49,-65.9545,2368.27,monload-611_runway,,,,,,,,2.4,,,0.9867791666666667
3,0.0,,114.059,,0.0,18.735,114.05799999999999,18.735,-65.9421,2368.95,monload-611_runway,,,,,,,,2.4,,,0.9870625
4,0.0,,114.061,,0.0,18.1696,114.061,18.1696,-65.9388,2369.04,monload-611_runway,,,,,,,,2.4,,,0.9871
5,0.0,,113.87700000000001,,0.0,18.3433,113.87799999999999,18.3433,-66.1219,2361.43,monload-611_runway,,,,,,,,2.4,,,0.9839291666666666
6,0.0,,113.84100000000001,,0.0,19.8621,113.84299999999999,19.8621,-66.1566,2359.82,monload-611_runway,,,,,,,,2.4,,,0.9832583333333335
7,0.0,,113.084,,0.0,29.8483,113.084,29.8483,-66.9158,2328.56,monload-611_runway,,,,,,,,2.4,,,0.9702333333333333
8,0.0,,113.15,,0.0,31.8618,113.149,31.8618,-66.8506,2331.3,monload-611_runway,,,,,,,,2.4,,,0.9713750000000001
9,0.0,,111.306,,0.0,44.0268,111.306,44.0268,-68.6942,2327.93,monload-611_runway,,,,,,,,2.4,,,0.9699708333333332
10,0.0,,108.939,,0.0,37.8158,108.94,37.8158,-71.0599,2352.63,monload-611_runway,,,,,,,,2.4,,,0.9802625
11,0.0,,107.62,,0.0,26.7204,107.624,26.7204,-72.3755,2378.06,monload-611_runway,,,,,,,,2.4,,,0.9908583333333333
12,0.0,,97.479,,0.0,25.3305,97.4791,25.3305,-82.5209,2548.97,monload-611_runway,,,,,,,,2.4,,,1.0620708333333333
13,0.0,,109.079,,0.0,24.9564,109.07799999999999,24.9564,-70.9222,2330.61,monload-611_runway,,,,,,,,2.4,,,0.9710875000000001
14,0.0,,104.42299999999999,,0.0,24.9959,104.427,24.9959,-75.5727,2429.01,monload-611_runway,,,,,,,,2.4,,,1.0120875
15,0.0,,100.412,,0.0,24.9268,100.416,24.9268,-79.5842,2493.52,monload-611_runway,,,,,,,,2.4,,,1.0389666666666666
16,0.0,,99.4767,,0.0,24.7866,99.4805,24.7866,-80.5195,2505.32,monload-611_runway,,,,,,,,2.4,,,1.0438833333333335
17,0.0,,105.919,,0.0,25.989,105.915,25.989,-74.0855,2374.26,monload-611_runway,,,,,,,,2.4,,,0.9892750000000001
18,0.0,,112.531,,0.0,31.4301,112.527,31.4301,-67.473,2304.4,monload-611_runway,,,,,,,,2.4,,,0.9601666666666667
19,0.0,,112.911,,0.0,43.1551,112.90700000000001,43.1551,-67.0928,2306.9,monload-611_runway,,,,,,,,2.4,,,0.9612083333333333
20,0.0,,112.902,,0.0,45.3034,112.902,45.3034,-67.0976,2306.56,monload-611_runway,,,,,,,,2.4,,,0.9610666666666666
21,0.0,,113.068,,0.0,47.8087,113.066,47.8087,-66.9342,2313.44,monload-611_runway,,,,,,,,2.4,,,0.9639333333333333
22,0.0,,113.147,,0.0,46.4444,113.146,46.4444,-66.8542,2316.84,monload-611_runway,,,,,,,,2.4,,,0.96535
23,0.0,,113.584,,0.0,35.6973,113.58,35.6973,-66.4203,2334.85,monload-611_runway,,,,,,,,2.4,,,0.9728541666666666
24,0.0,,113.87899999999999,,0.0,22.9122,113.876,22.9122,-66.1241,2346.86,monload-611_runway,,,,,,,,2.4,,,0.9778583333333334
25,0.0,,113.955,,0.0,18.6667,113.947,18.6667,-66.053,2350.02,monload-611_runway,,,,,,,,2.4,,,0.979175
26,0.0,,113.964,,0.0,17.8494,113.963,17.8494,-66.0371,2350.37,monload-611_runway,,,,,,,,2.4,,,0.9793208333333333
27,0.0,,113.988,,0.0,16.9263,113.986,16.9263,-66.014,2351.37,monload-611_runway,,,,,,,,2.4,,,0.9797374999999999
28,0.0,,113.99700000000001,,0.0,17.0116,113.99600000000001,17.0116,-66.0042,2351.69,monload-611_runway,,,,,,,,2.4,,,0.9798708333333334
29,0.0,,113.20700000000001,,0.0,17.6802,113.208,17.6802,-66.7917,2319.34,monload-611_runway,,,,,,,,2.4,,,0.9663916666666668
30,0.0,,113.006,,0.0,21.26,113.008,21.26,-66.9917,2310.96,monload-611_runway,,,,,,,,2.4,,,0.9629
31,0.0,,111.281,,0.0,32.5451,111.27600000000001,32.5451,-68.7238,2238.79,monload-611_runway,,,,,,,,2.4,,,0.9328291666666666
32,0.0,,110.523,,0.0,33.8926,110.52799999999999,33.8926,-69.4723,2220.28,monload-611_runway,,,,,,,,2.4,,,0.9251166666666667
33,0.0,,107.00399999999999,,0.0,30.5493,107.00299999999999,30.5493,-72.9968,2264.15,monload-611_runway,,,,,,,,2.4,,,0.9433958333333333
34,0.0,,101.863,,0.0,31.0977,101.865,31.0977,-78.135,2309.39,monload-611_runway,,,,,,,,2.4,,,0.9622458333333332
35,0.0,,98.9174,,0.0,25.135,98.9204,25.135,-81.0796,2361.82,monload-611_runway,,,,,,,,2.4,,,0.9840916666666667
36,0.0,,109.464,,0.0,25.0652,109.464,25.0652,-70.5361,2201.97,monload-611_runway,,,,,,,,2.4,,,0.9174874999999999
37,0.0,,88.10700000000001,,0.0,27.5423,88.1069,27.5423,-91.8931,2627.88,monload-611_runway,,,,,,,,2.4,,,1.09495
38,0.0,,100.87200000000001,,0.0,25.3752,100.87200000000001,25.3752,-79.1276,2280.88,monload-611_runway,,,,,,,,2.4,,,0.9503666666666667
39,0.0,,82.524,,0.0,27.1061,82.5283,27.1061,-97.4717,2787.04,monload-611_runway,,,,,,,,2.4,,,1.1612666666666667
40,0.0,,89.8655,,0.0,24.9728,89.8654,24.9728,-90.1346,2542.88,monload-611_runway,,,,,,,,2.4,,,1.0595333333333334
41,0.0,,98.3994,,0.0,25.8685,98.3994,25.8685,-81.6006,2336.39,monload-611_runway,,,,,,,,2.4,,,0.9734958333333332
42,0.0,,108.913,,0.0,30.6395,108.913,30.6395,-71.0871,2210.17,monload-611_runway,,,,,,,,2.4,,,0.9209041666666667
43,0.0,,111.26100000000001,,0.0,38.2912,111.26,38.2912,-68.7403,2251.7,monload-611_runway,,,,,,,,2.4,,,0.9382083333333333
44,0.0,,111.245,,0.0,40.6266,111.245,40.6266,-68.7553,2251.07,monload-611_runway,,,,,,,,2.4,,,0.9379458333333334
45,0.0,,111.999,,0.0,45.1231,111.995,45.1231,-68.0052,2283.27,monload-611_runway,,,,,,,,2.4,,,0.9513625
46,0.0,,112.334,,0.0,42.3023,112.32600000000001,42.3023,-67.67399999999999,2297.51,monload-611_runway,,,,,,,,2.4,,,0.9572958333333335
47,0.0,,113.28,,0.0,30.8497,113.277,30.8497,-66.7227,2336.81,monload-611_runway,,,,,,,,2.4,,,0.9736708333333333
48,0.0,,113.53,,0.0,21.1497,113.524,21.1497,-66.4762,2347.15,monload-611_runway,,,,,,,,2.4,,,0.9779791666666667
49,0.0,,113.618,,0.0,18.8942,113.616,18.8942,-66.3837,2350.86,monload-611_runway,,,,,,,,2.4,,,0.9795250000000001
50,0.0,,113.667,,0.0,18.3946,113.65799999999999,18.3946,-66.3415,2352.89,monload-611_runway,,,,,,,,2.4,,,0.9803708333333333
51,0.0,,113.734,,0.0,17.8874,113.73200000000001,17.8874,-66.2675,2355.59,monload-611_runway,,,,,,,,2.4,,,0.9814958333333333
52,0.0,,113.73700000000001,,0.0,18.4384,113.736,18.4384,-66.2635,2355.72,monload-611_runway,,,,,,,,2.4,,,0.9815499999999999
53,0.0,,112.935,,0.0,19.6598,112.93799999999999,19.6598,-67.0625,2322.5,monload-611_runway,,,,,,,,2.4,,,0.9677083333333333
54,0.0,,112.71600000000001,,0.0,23.9779,112.721,23.9779,-67.2788,2313.25,monload-611_runway,,,,,,,,2.4,,,0.9638541666666667
55,0.0,,111.027,,0.0,35.0867,111.03,35.0867,-68.9701,2241.87,monload-611_runway,,,,,,,,2.4,,,0.9341124999999999
56,0.0,,110.286,,0.0,34.8108,110.286,34.8108,-69.7142,2209.91,monload-611_runway,,,,,,,,2.4,,,0.9207958333333333
57,0.0,,100.743,,0.0,31.5574,100.743,31.5574,-79.2571,2327.8,monload-611_runway,,,,,,,,2.4,,,0.9699166666666668
58,0.0,,90.0561,,0.0,31.9072,90.0563,31.9072,-89.9437,2572.73,monload-611_runway,,,,,,,,2.4,,,1.0719708333333333
59,0.0,,84.5635,,0.0,26.8805,84.5685,26.8805,-95.4315,2733.3,monload-611_runway,,,,,,,,2.4,,,1.138875
60,0.0,,0.0,,0.0,0.0,0.0,0.0,0.0,0.0,monload-611_runway,,,,,,,,2.4,,,0.0
61,0.0,,0.0,,0.0,0.0,0.0,0.0,0.0,0.0,monload-611_runway,,,,,,,,2.4,,,0.0
62,0.0,,0.0,,0.0,0.0,0.0,0.0,0.0,0.0,monload-611_runway,,,,,,,,2.4,,,0.0
63,0.0,,0.0,,0.0,0.0,0.0,0.0,0.0,0.0,monload-611_runway,,,,,,,,2.4,,,0.0
64,0.0,,0.0,,0.0,0.0,0.0,0.0,0.0,0.0,monload-611_runway,,,,,,,,2.4,,,0.0
65,0.0,,0.0,,0.0,0.0,0.0,0.0,0.0,0.0,monload-611_runway,,,,,,,,2.4,,,0.0
66,0.0,,0.0,,0.0,0.0,0.0,0.0,0.0,0.0,monload-611_runway,,,,,,,,2.4,,,0.0
67,0.0,,0.0,,0.0,0.0,0.0,0.0,0.0,0.0,monload-611_runway,,,,,,,,2.4,,,0.0
68,0.0,,0.0,,0.0,0.0,0.0,0.0,0.0,0.0,monload-611_runway,,,,,,,,2.4,,,0.0
69,0.0,,0.0,,0.0,0.0,0.0,0.0,0.0,0.0,monload-611_runway,,,,,,,,2.4,,,0.0
70,0.0,,0.0,,0.0,0.0,0.0,0.0,0.0,0.0,monload-611_runway,,,,,,,,2.4,,,0.0
71,0.0,,0.0,,0.0,0.0,0.0,0.0,0.0,0.0,monload-611_runway,,,,,,,,2.4,,,0.0
72,0.0,,0.0,,0.0,0.0,0.0,0.0,0.0,0.0,monload-611_runway,,,,,,,,2.4,,,0.0
73,0.0,,0.0,,0.0,0.0,0.0,0.0,0.0,0.0,monload-611_runway,,,,,,,,2.4,,,0.0
74,0.0,,0.0,,0.0,0.0,0.0,0.0,0.0,0.0,monload-611_runway,,,,,,,,2.4,,,0.0
75,0.0,,0.0,,0.0,0.0,0.0,0.0,0.0,0.0,monload-611_runway,,,,,,,,2.4,,,0.0
76,0.0,,0.0,,0.0,0.0,0.0,0.0,0.0,0.0,monload-611_runway,,,,,,,,2.4,,,0.0
77,0.0,,0.0,,0.0,0.0,0.0,0.0,0.0,0.0,monload-611_runway,,,,,,,,2.4,,,0.0
78,0.0,,0.0,,0.0,0.0,0.0,0.0,0.0,0.0,monload-611_runway,,,,,,,,2.4,,,0.0
79,0.0,,0.0,,0.0,0.0,0.0,0.0,0.0,0.0,monload-611_runway,,,,,,,,2.4,,,0.0
80,0.0,,0.0,,0.0,0.0,0.0,0.0,0.0,0.0,monload-611_runway,,,,,,,,2.4,,,0.0
81,0.0,,0.0,,0.0,0.0,0.0,0.0,0.0,0.0,monload-611_runway,,,,,,,,2.4,,,0.0
82,0.0,,0.0,,0.0,0.0,0.0,0.0,0.0,0.0,monload-611_runway,,,,,,,,2.4,,,0.0
83,0.0,,0.0,,0.0,0.0,0.0,0.0,0.0,0.0,monload-611_runway,,,,,,,,2.4,,,0.0
84,0.0,,0.0,,0.0,0.0,0.0,0.0,0.0,0.0,monload-611_runway,,,,,,,,2.4,,,0.0
85,0.0,,0.0,,0.0,0.0,0.0,0.0,0.0,0.0,monload-611_runway,,,,,,,,2.4,,,0.0
86,0.0,,0.0,,0.0,0.0,0.0,0.0,0.0,0.0,monload-611_runway,,,,,,,,2.4,,,0.0
87,0.0,,0.0,,0.0,0.0,0.0,0.0,0.0,0.0,monload-611_runway,,,,,,,,2.4,,,0.0
88,0.0,,0.0,,0.0,0.0,0.0,0.0,0.0,0.0,monload-611_runway,,,,,,,,2.4,,,0.0
89,0.0,,0.0,,0.0,0.0,0.0,0.0,0.0,0.0,monload-611_runway,,,,,,,,2.4,,,0.0
90,0.0,,0.0,,0.0,0.0,0.0,0.0,0.0,0.0,monload-611_runway,,,,,,,,2.4,,,0.0
91,0.0,,0.0,,0.0,0.0,0.0,0.0,0.0,0.0,monload-611_runway,,,,,,,,2.4,,,0.0
92,0.0,,0.0,,0.0,0.0,0.0,0.0,0.0,0.0,monload-611_runway,,,,,,,,2.4,,,0.0
93,0.0,,0.0,,0.0,0.0,0.0,0.0,0.0,0.0,monload-611_runway,,,,,,,,2.4,,,0.0
94,0.0,,0.0,,0.0,0.0,0.0,0.0,0.0,0.0,monload-611_runway,,,,,,,,2.4,,,0.0
95,0.0,,0.0,,0.0,0.0,0.0,0.0,0.0,0.0,monload-611_runway,,,,,,,,2.4,,,0.0
96,0.0,,0.0,,0.0,0.0,0.0,0.0,0.0,0.0,monload-611_runway,,,,,,,,2.4,,,0.0
97,0.0,,0.0,,0.0,0.0,0.0,0.0,0.0,0.0,monload-611_runway,,,,,,,,2.4,,,0.0
98,0.0,,0.0,,0.0,0.0,0.0,0.0,0.0,0.0,monload-611_runway,,,,,,,,2.4,,,0.0
99,0.0,,0.0,,0.0,0.0,0.0,0.0,0.0,0.0,monload-611_runway,,,,,,,,2.4,,,0.0
100,0.0,,0.0,,0.0,0.0,0.0,0.0,0.0,0.0,monload-611_runway,,,,,,,,2.4,,,0.0
101,0.0,,0.0,,0.0,0.0,0.0,0.0,0.0,0.0,monload-611_runway,,,,,,,,2.4,,,0.0
102,0.0,,0.0,,0.0,0.0,0.0,0.0,0.0,0.0,monload-611_runway,,,,,,,,2.4,,,0.0
103,0.0,,0.0,,0.0,0.0,0.0,0.0,0.0,0.0,monload-611_runway,,,,,,,,2.4,,,0.0
104,0.0,,0.0,,0.0,0.0,0.0,0.0,0.0,0.0,monload-611_runway,,,,,,,,2.4,,,0.0
105,0.0,,0.0,,0.0,0.0,0.0,0.0,0.0,0.0,monload-611_runway,,,,,,,,2.4,,,0.0
106,0.0,,0.0,,0.0,0.0,0.0,0.0,0.0,0.0,monload-611_runway,,,,,,,,2.4,,,0.0
107,0.0,,0.0,,0.0,0.0,0.0,0.0,0.0,0.0,monload-611_runway,,,,,,,,2.4,,,0.0
108,0.0,,0.0,,0.0,0.0,0.0,0.0,0.0,0.0,monload-611_runway,,,,,,,,2.4,,,0.0
109,0.0,,0.0,,0.0,0.0,0.0,0.0,0.0,0.0,monload-611_runway,,,,,,,,2.4,,,0.0
110,0.0,,0.0,,0.0,0.0,0.0,0.0,0.0,0.0,monload-611_runway,,,,,,,,2.4,,,0.0
111,0.0,,0.0,,0.0,0.0,0.0,0.0,0.0,0.0,monload-611_runway,,,,,,,,2.4,,,0.0
112,0.0,,0.0,,0.0,0.0,0.0,0.0,0.0,0.0,monload-611_runway,,,,,,,,2.4,,,0.0
113,0.0,,0.0,,0.0,0.0,0.0,0.0,0.0,0.0,monload-611_runway,,,,,,,,2.4,,,0.0
114,0.0,,0.0,,0.0,0.0,0.0,0.0,0.0,0.0,monload-611_runway,,,,,,,,2.4,,,0.0
115,0.0,,0.0,,0.0,0.0,0.0,0.0,0.0,0.0,monload-611_runway,,,,,,,,2.4,,,0.0
116,0.0,,0.0,,0.0,0.0,0.0,0.0,0.0,0.0,monload-611_runway,,,,,,,,2.4,,,0.0
117,0.0,,0.0,,0.0,0.0,0.0,0.0,0.0,0.0,monload-611_runway,,,,,,,,2.4,,,0.0
118,0.0,,0.0,,0.0,0.0,0.0,0.0,0.0,0.0,monload-611_runway,,,,,,,,2.4,,,0.0
119,0.0,,0.0,,0.0,0.0,0.0,0.0,0.0,0.0,monload-611_runway,,,,,,,,2.4,,,0.0
120,0.0,,0.0,,0.0,0.0,0.0,0.0,0.0,0.0,monload-611_runway,,,,,,,,2.4,,,0.0
121,0.0,,0.0,,0.0,0.0,0.0,0.0,0.0,0.0,monload-611_runway,,,,,,,,2.4,,,0.0
122,0.0,,0.0,,0.0,0.0,0.0,0.0,0.0,0.0,monload-611_runway,,,,,,,,2.4,,,0.0
123,0.0,,0.0,,0.0,0.0,0.0,0.0,0.0,0.0,monload-611_runway,,,,,,,,2.4,,,0.0
124,0.0,,0.0,,0.0,0.0,0.0,0.0,0.0,0.0,monload-611_runway,,,,,,,,2.4,,,0.0
125,0.0,,0.0,,0.0,0.0,0.0,0.0,0.0,0.0,monload-611_runway,,,,,,,,2.4,,,0.0
126,0.0,,0.0,,0.0,0.0,0.0,0.0,0.0,0.0,monload-611_runway,,,,,,,,2.4,,,0.0
127,0.0,,0.0,,0.0,0.0,0.0,0.0,0.0,0.0,monload-611_runway,,,,,,,,2.4,,,0.0
128,0.0,,0.0,,0.0,0.0,0.0,0.0,0.0,0.0,monload-611_runway,,,,,,,,2.4,,,0.0
129,0.0,,0.0,,0.0,0.0,0.0,0.0,0.0,0.0,monload-611_runway,,,,,,,,2.4,,,0.0
130,0.0,,0.0,,0.0,0.0,0.0,0.0,0.0,0.0,monload-611_runway,,,,,,,,2.4,,,0.0
131,0.0,,0.0,,0.0,0.0,0.0,0.0,0.0,0.0,monload-611_runway,,,,,,,,2.4,,,0.0
132,0.0,,0.0,,0.0,0.0,0.0,0.0,0.0,0.0,monload-611_runway,,,,,,,,2.4,,,0.0
133,0.0,,0.0,,0.0,0.0,0.0,0.0,0.0,0.0,monload-611_runway,,,,,,,,2.4,,,0.0
134,0.0,,0.0,,0.0,0.0,0.0,0.0,0.0,0.0,monload-611_runway,,,,,,,,2.4,,,0.0
135,0.0,,0.0,,0.0,0.0,0.0,0.0,0.0,0.0,monload-611_runway,,,,,,,,2.4,,,0.0
136,0.0,,0.0,,0.0,0.0,0.0,0.0,0.0,0.0,monload-611_runway,,,,,,,,2.4,,,0.0
137,0.0,,0.0,,0.0,0.0,0.0,0.0,0.0,0.0,monload-611_runway,,,,,,,,2.4,,,0.0
138,0.0,,0.0,,0.0,0.0,0.0,0.0,0.0,0.0,monload-611_runway,,,,,,,,2.4,,,0.0
139,0.0,,0.0,,0.0,0.0,0.0,0.0,0.0,0.0,monload-611_runway,,,,,,,,2.4,,,0.0
140,0.0,,0.0,,0.0,0.0,0.0,0.0,0.0,0.0,monload-611_runway,,,,,,,,2.4,,,0.0
141,0.0,,0.0,,0.0,0.0,0.0,0.0,0.0,0.0,monload-611_runway,,,,,,,,2.4,,,0.0
142,0.0,,0.0,,0.0,0.0,0.0,0.0,0.0,0.0,monload-611_runway,,,,,,,,2.4,,,0.0
143,0.0,,0.0,,0.0,0.0,0.0,0.0,0.0,0.0,monload-611_runway,,,,,,,,2.4,,,0.0
144,0.0,,0.0,,0.0,0.0,0.0,0.0,0.0,0.0,monload-611_runway,,,,,,,,2.4,,,0.0
145,0.0,,0.0,,0.0,0.0,0.0,0.0,0.0,0.0,monload-611_runway,,,,,,,,2.4,,,0.0
146,0.0,,0.0,,0.0,0.0,0.0,0.0,0.0,0.0,monload-611_runway,,,,,,,,2.4,,,0.0
147,0.0,,0.0,,0.0,0.0,0.0,0.0,0.0,0.0,monload-611_runway,,,,,,,,2.4,,,0.0
148,0.0,,0.0,,0.0,0.0,0.0,0.0,0.0,0.0,monload-611_runway,,,,,,,,2.4,,,0.0
149,0.0,,0.0,,0.0,0.0,0.0,0.0,0.0,0.0,monload-611_runway,,,,,,,,2.4,,,0.0
150,0.0,,0.0,,0.0,0.0,0.0,0.0,0.0,0.0,monload-611_runway,,,,,,,,2.4,,,0.0
151,0.0,,0.0,,0.0,0.0,0.0,0.0,0.0,0.0,monload-611_runway,,,,,,,,2.4,,,0.0
152,0.0,,0.0,,0.0,0.0,0.0,0.0,0.0,0.0,monload-611_runway,,,,,,,,2.4,,,0.0
153,0.0,,0.0,,0.0,0.0,0.0,0.0,0.0,0.0,monload-611_runway,,,,,,,,2.4,,,0.0
154,0.0,,0.0,,0.0,0.0,0.0,0.0,0.0,0.0,monload-611_runway,,,,,,,,2.4,,,0.0
155,0.0,,0.0,,0.0,0.0,0.0,0.0,0.0,0.0,monload-611_runway,,,,,,,,2.4,,,0.0
156,0.0,,0.0,,0.0,0.0,0.0,0.0,0.0,0.0,monload-611_runway,,,,,,,,2.4,,,0.0
157,0.0,,0.0,,0.0,0.0,0.0,0.0,0.0,0.0,monload-611_runway,,,,,,,,2.4,,,0.0
158,0.0,,0.0,,0.0,0.0,0.0,0.0,0.0,0.0,monload-611_runway,,,,,,,,2.4,,,0.0
159,0.0,,0.0,,0.0,0.0,0.0,0.0,0.0,0.0,monload-611_runway,,,,,,,,2.4,,,0.0
160,0.0,,0.0,,0.0,0.0,0.0,0.0,0.0,0.0,monload-611_runway,,,,,,,,2.4,,,0.0
161,0.0,,0.0,,0.0,0.0,0.0,0.0,0.0,0.0,monload-611_runway,,,,,,,,2.4,,,0.0
162,0.0,,0.0,,0.0,0.0,0.0,0.0,0.0,0.0,monload-611_runway,,,,,,,,2.4,,,0.0
163,0.0,,0.0,,0.0,0.0,0.0,0.0,0.0,0.0,monload-611_runway,,,,,,,,2.4,,,0.0
164,0.0,,0.0,,0.0,0.0,0.0,0.0,0.0,0.0,monload-611_runway,,,,,,,,2.4,,,0.0
165,0.0,,0.0,,0.0,0.0,0.0,0.0,0.0,0.0,monload-611_runway,,,,,,,,2.4,,,0.0
166,0.0,,0.0,,0.0,0.0,0.0,0.0,0.0,0.0,monload-611_runway,,,,,,,,2.4,,,0.0
167,0.0,,0.0,,0.0,0.0,0.0,0.0,0.0,0.0,monload-611_runway,,,,,,,,2.4,,,0.0
168,0.0,,0.0,,0.0,0.0,0.0,0.0,0.0,0.0,monload-611_runway,,,,,,,,2.4,,,0.0
169,0.0,,0.0,,0.0,0.0,0.0,0.0,0.0,0.0,monload-611_runway,,,,,,,,2.4,,,0.0
170,0.0,,0.0,,0.0,0.0,0.0,0.0,0.0,0.0,monload-611_runway,,,,,,,,2.4,,,0.0
171,0.0,,0.0,,0.0,0.0,0.0,0.0,0.0,0.0,monload-611_runway,,,,,,,,2.4,,,0.0
172,0.0,,0.0,,0.0,0.0,0.0,0.0,0.0,0.0,monload-611_runway,,,,,,,,2.4,,,0.0
173,0.0,,0.0,,0.0,0.0,0.0,0.0,0.0,0.0,monload-611_runway,,,,,,,,2.4,,,0.0
174,0.0,,0.0,,0.0,0.0,0.0,0.0,0.0,0.0,monload-611_runway,,,,,,,,2.4,,,0.0
175,0.0,,0.0,,0.0,0.0,0.0,0.0,0.0,0.0,monload-611_runway,,,,,,,,2.4,,,0.0
176,0.0,,0.0,,0.0,0.0,0.0,0.0,0.0,0.0,monload-611_runway,,,,,,,,2.4,,,0.0
177,0.0,,0.0,,0.0,0.0,0.0,0.0,0.0,0.0,monload-611_runway,,,,,,,,2.4,,,0.0
178,0.0,,0.0,,0.0,0.0,0.0,0.0,0.0,0.0,monload-611_runway,,,,,,,,2.4,,,0.0
179,0.0,,0.0,,0.0,0.0,0.0,0.0,0.0,0.0,monload-611_runway,,,,,,,,2.4,,,0.0
180,0.0,,101.665,,0.0,38.1499,101.67,38.1499,-78.3304,2451.71,monload-611_runway,,,,,,,,2.4,,,1.0215458333333334
181,0.0,,91.1435,,0.0,40.8307,91.1434,40.8307,-88.8566,2678.09,monload-611_runway,,,,,,,,2.4,,,1.1158708333333334
182,0.0,,88.1893,,0.0,43.5129,88.1924,43.5129,-91.8076,2753.57,monload-611_runway,,,,,,,,2.4,,,1.1473208333333333
183,0.0,,91.8546,,0.0,42.8773,91.8546,42.8773,-88.1454,2626.5,monload-611_runway,,,,,,,,2.4,,,1.094375
184,0.0,,98.5508,,0.0,40.2542,98.5462,40.2542,-81.4538,2473.89,monload-611_runway,,,,,,,,2.4,,,1.0307875
185,0.0,,104.859,,0.0,39.4232,104.854,39.4232,-75.1456,2366.42,monload-611_runway,,,,,,,,2.4,,,0.9860083333333334
186,0.0,,111.729,,0.0,41.61,111.72399999999999,41.61,-68.2757,2295.57,monload-611_runway,,,,,,,,2.4,,,0.9564875
187,0.0,,112.632,,0.0,50.661,112.62700000000001,50.661,-67.3726,2295.04,monload-611_runway,,,,,,,,2.4,,,0.9562666666666666
188,0.0,,112.705,,0.0,50.93600000000001,112.704,50.93600000000001,-67.2959,2298.27,monload-611_runway,,,,,,,,2.4,,,0.9576125
189,0.0,,112.86399999999999,,0.0,52.3523,112.86200000000001,52.3523,-67.1376,2305.0,monload-611_runway,,,,,,,,2.4,,,0.9604166666666667
190,0.0,,112.93700000000001,,0.0,50.5692,112.93700000000001,50.5692,-67.0634,2308.22,monload-611_runway,,,,,,,,2.4,,,0.9617583333333333
191,0.0,,113.38799999999999,,0.0,39.6945,113.383,39.6945,-66.6168,2326.89,monload-611_runway,,,,,,,,2.4,,,0.9695374999999999
192,0.0,,113.70200000000001,,0.0,26.4536,113.699,26.4536,-66.301,2339.77,monload-611_runway,,,,,,,,2.4,,,0.9749041666666667
193,0.0,,113.81299999999999,,0.0,21.0984,113.811,21.0984,-66.1885,2344.34,monload-611_runway,,,,,,,,2.4,,,0.9768083333333334
194,0.0,,113.85,,0.0,19.0118,113.846,19.0118,-66.154,2345.85,monload-611_runway,,,,,,,,2.4,,,0.9774375
195,0.0,,113.87,,0.0,17.1605,113.868,17.1605,-66.1315,2346.66,monload-611_runway,,,,,,,,2.4,,,0.977775
196,0.0,,113.851,,0.0,16.8089,113.854,16.8089,-66.1464,2345.87,monload-611_runway,,,,,,,,2.4,,,0.9774458333333332
197,0.0,,113.075,,0.0,17.2796,113.07600000000001,17.2796,-66.9238,2313.97,monload-611_runway,,,,,,,,2.4,,,0.9641541666666665
198,0.0,,112.976,,0.0,20.6862,112.977,20.6862,-67.0232,2309.77,monload-611_runway,,,,,,,,2.4,,,0.9624041666666666
199,0.0,,111.20700000000001,,0.0,32.5714,111.20200000000001,32.5714,-68.7976,2235.63,monload-611_runway,,,,,,,,2.4,,,0.9315125000000001
200,0.0,,110.396,,0.0,35.2627,110.40100000000001,35.2627,-69.5986,2214.84,monload-611_runway,,,,,,,,2.4,,,0.9228500000000001
201,0.0,,97.6064,,0.0,33.1764,97.6091,33.1764,-82.3909,2398.5,monload-611_runway,,,,,,,,2.4,,,0.999375
202,0.0,,83.7968,,0.0,38.3105,83.8018,38.3105,-96.1982,2743.37,monload-611_runway,,,,,,,,2.4,,,1.1430708333333333
203,0.0,,94.6433,,0.0,30.9635,94.6434,30.9635,-85.3566,2427.27,monload-611_runway,,,,,,,,2.4,,,1.0113625
204,0.0,,81.0877,,0.0,38.6987,81.0877,38.6987,-98.9123,2866.78,monload-611_runway,,,,,,,,2.4,,,1.1944916666666667
205,0.0,,86.1333,,0.0,38.5498,86.1275,38.5498,-93.8725,2660.01,monload-611_runway,,,,,,,,2.4,,,1.1083375000000002
206,0.0,,97.4291,,0.0,37.968,97.4261,37.968,-82.5739,2344.31,monload-611_runway,,,,,,,,2.4,,,0.9767958333333333
207,0.0,,94.6823,,0.0,38.9807,94.6822,38.9807,-85.3178,2444.57,monload-611_runway,,,,,,,,2.4,,,1.0185708333333334
208,0.0,,96.6393,,0.0,36.5803,96.6408,36.5803,-83.3592,2366.54,monload-611_runway,,,,,,,,2.4,,,0.9860583333333334
209,0.0,,102.54700000000001,,0.0,35.9554,102.546,35.9554,-77.4536,2264.07,monload-611_runway,,,,,,,,2.4,,,0.9433625000000001
210,0.0,,106.45700000000001,,0.0,39.6391,106.45700000000001,39.6391,-73.5429,2218.62,monload-611_runway,,,,,,,,2.4,,,0.9244249999999999
211,0.0,,111.243,,0.0,45.6064,111.243,45.6064,-68.7571,2236.85,monload-611_runway,,,,,,,,2.4,,,0.9320208333333333
212,0.0,,111.18,,0.0,47.3739,111.18,47.3739,-68.8202,2234.31,monload-611_runway,,,,,,,,2.4,,,0.9309625
213,0.0,,111.84299999999999,,0.0,51.9123,111.84299999999999,51.9123,-68.1567,2262.52,monload-611_runway,,,,,,,,2.4,,,0.9427166666666666
214,0.0,,112.04899999999999,,0.0,49.653,112.04899999999999,49.653,-67.9511,2271.31,monload-611_runway,,,,,,,,2.4,,,0.9463791666666667
