hour,t(sec),P1(kW),Q1(kvar),P2(kW),Q2(kvar),P3(kW),Q3(kvar),P4(kW),Q4(kvar),Name
1,0.0,0.0,0.0,0.0,0.0,0.0,0.0,0,0,mongenerator-battery_bus_fault
2,0.0,0.0,0.0,0.0,0.0,0.0,0.0,0,0,mongenerator-battery_bus_fault
3,0.0,0.0,0.0,0.0,0.0,0.0,0.0,0,0,mongenerator-battery_bus_fault
4,0.0,0.0,0.0,0.0,0.0,0.0,0.0,0,0,mongenerator-battery_bus_fault
5,0.0,0.0,0.0,0.0,0.0,0.0,0.0,0,0,mongenerator-battery_bus_fault
6,0.0,0.0,0.0,0.0,0.0,0.0,0.0,0,0,mongenerator-battery_bus_fault
7,0.0,0.0,0.0,0.0,0.0,0.0,0.0,0,0,mongenerator-battery_bus_fault
8,0.0,0.0,0.0,0.0,0.0,0.0,0.0,0,0,mongenerator-battery_bus_fault
9,0.0,0.0,0.0,0.0,0.0,0.0,0.0,0,0,mongenerator-battery_bus_fault
10,0.0,0.0,0.0,0.0,0.0,0.0,0.0,0,0,mongenerator-battery_bus_fault
11,0.0,0.0,0.0,0.0,0.0,0.0,0.0,0,0,mongenerator-battery_bus_fault
12,0.0,0.0,0.0,0.0,0.0,0.0,0.0,0,0,mongenerator-battery_bus_fault
13,0.0,0.0,0.0,0.0,0.0,0.0,0.0,0,0,mongenerator-battery_bus_fault
14,0.0,0.0,0.0,0.0,0.0,0.0,0.0,0,0,mongenerator-battery_bus_fault
15,0.0,0.0,0.0,0.0,0.0,0.0,0.0,0,0,mongenerator-battery_bus_fault
16,0.0,0.0,0.0,0.0,0.0,0.0,0.0,0,0,mongenerator-battery_bus_fault
17,0.0,0.0,0.0,0.0,0.0,0.0,0.0,0,0,mongenerator-battery_bus_fault
18,0.0,0.0,0.0,0.0,0.0,0.0,0.0,0,0,mongenerator-battery_bus_fault
19,0.0,0.0,0.0,0.0,0.0,0.0,0.0,0,0,mongenerator-battery_bus_fault
20,0.0,0.0,0.0,0.0,0.0,0.0,0.0,0,0,mongenerator-battery_bus_fault
21,0.0,0.0,0.0,0.0,0.0,0.0,0.0,0,0,mongenerator-battery_bus_fault
22,0.0,-36.2693,-4.41675e-05,-36.2959,-2.97355e-05,-36.3009,-3.7723000000000005e-05,0,0,mongenerator-battery_bus_fault
23,0.0,-52.8536,-0.000446481,-52.8972,-0.000569669,-52.9038,-0.000617051,0,0,mongenerator-battery_bus_fault
24,0.0,89.0533,-5.52867e-05,89.0781,-7.98139e-07,89.0796,-2.29415e-05,0,0,mongenerator-battery_bus_fault
25,0.0,10.0689,0.000320648,10.072000000000001,0.000304198,10.0717,0.00029770700000000003,0,0,mongenerator-battery_bus_fault
26,0.0,0.0,0.0,0.0,0.0,0.0,0.0,0,0,mongenerator-battery_bus_fault
27,0.0,0.0,0.0,0.0,0.0,0.0,0.0,0,0,mongenerator-battery_bus_fault
28,0.0,0.0,0.0,0.0,0.0,0.0,0.0,0,0,mongenerator-battery_bus_fault
29,0.0,0.0,0.0,0.0,0.0,0.0,0.0,0,0,mongenerator-battery_bus_fault
30,0.0,0.0,0.0,0.0,0.0,0.0,0.0,0,0,mongenerator-battery_bus_fault
31,0.0,0.0,0.0,0.0,0.0,0.0,0.0,0,0,mongenerator-battery_bus_fault
32,0.0,0.0,0.0,0.0,0.0,0.0,0.0,0,0,mongenerator-battery_bus_fault
33,0.0,0.0,0.0,0.0,0.0,0.0,0.0,0,0,mongenerator-battery_bus_fault
34,0.0,-40.2775,-0.00013262200000000002,-40.294000000000004,-5.27696e-05,-40.3107,-7.92632e-05,0,0,mongenerator-battery_bus_fault
35,0.0,44.8496,9.49242e-05,44.8942,1.90278e-05,44.8974,0.00010758299999999999,0,0,mongenerator-battery_bus_fault
36,0.0,0.0,0.0,0.0,0.0,0.0,0.0,0,0,mongenerator-battery_bus_fault
37,0.0,-89.2959,-0.00012172700000000001,-89.3762,-2.89894e-05,-89.4629,7.55228e-05,0,0,mongenerator-battery_bus_fault
38,0.0,89.6858,-0.000348659,89.7298,-0.00012545700000000002,89.7771,-0.000140299,0,0,mongenerator-battery_bus_fault
39,0.0,10.1441,1.2724300000000001e-05,10.1479,3.5144199999999995e-06,10.1527,5.6993799999999995e-06,0,0,mongenerator-battery_bus_fault
40,0.0,0.0,0.0,0.0,0.0,0.0,0.0,0,0,mongenerator-battery_bus_fault
41,0.0,0.0,0.0,0.0,0.0,0.0,0.0,0,0,mongenerator-battery_bus_fault
42,0.0,0.0,0.0,0.0,0.0,0.0,0.0,0,0,mongenerator-battery_bus_fault
43,0.0,0.0,0.0,0.0,0.0,0.0,0.0,0,0,mongenerator-battery_bus_fault
44,0.0,0.0,0.0,0.0,0.0,0.0,0.0,0,0,mongenerator-battery_bus_fault
45,0.0,0.0,0.0,0.0,0.0,0.0,0.0,0,0,mongenerator-battery_bus_fault
46,0.0,-89.1524,-0.00010544100000000001,-89.2053,-9.154620000000001e-05,-89.2343,-9.01869e-05,0,0,mongenerator-battery_bus_fault
47,0.0,1.04314,-1.39561e-07,1.04319,3.24203e-07,1.04399,-3.7900799999999995e-07,0,0,mongenerator-battery_bus_fault
48,0.0,89.0405,0.00198067,89.0824,0.00270625,89.1218,0.000994237,0,0,mongenerator-battery_bus_fault
49,0.0,9.0243,2.203e-06,9.02887,-1.52312e-07,9.031930000000001,1.16197e-06,0,0,mongenerator-battery_bus_fault
50,0.0,0.0,0.0,0.0,0.0,0.0,0.0,0,0,mongenerator-battery_bus_fault
51,0.0,0.0,0.0,0.0,0.0,0.0,0.0,0,0,mongenerator-battery_bus_fault
52,0.0,0.0,0.0,0.0,0.0,0.0,0.0,0,0,mongenerator-battery_bus_fault
53,0.0,0.0,0.0,0.0,0.0,0.0,0.0,0,0,mongenerator-battery_bus_fault
54,0.0,0.0,0.0,0.0,0.0,0.0,0.0,0,0,mongenerator-battery_bus_fault
55,0.0,0.0,0.0,0.0,0.0,0.0,0.0,0,0,mongenerator-battery_bus_fault
56,0.0,0.0,0.0,0.0,0.0,0.0,0.0,0,0,mongenerator-battery_bus_fault
57,0.0,0.0,0.0,0.0,0.0,0.0,0.0,0,0,mongenerator-battery_bus_fault
58,0.0,0.0,0.0,0.0,0.0,0.0,0.0,0,0,mongenerator-battery_bus_fault
59,0.0,-80.4322,-0.000218809,-80.5131,-4.7286899999999996e-05,-80.5233,-0.000167687,0,0,mongenerator-battery_bus_fault
60,0.0,89.5826,-0.000147465,89.6347,0.00138789,89.6707,-0.000407843,0,0,mongenerator-battery_bus_fault
61,0.0,0.0,0.0,0.0,0.0,0.0,0.0,0,0,mongenerator-battery_bus_fault
62,0.0,0.0,0.0,0.0,0.0,0.0,0.0,0,0,mongenerator-battery_bus_fault
63,0.0,0.0,0.0,0.0,0.0,0.0,0.0,0,0,mongenerator-battery_bus_fault
64,0.0,0.0,0.0,0.0,0.0,0.0,0.0,0,0,mongenerator-battery_bus_fault
65,0.0,0.0,0.0,0.0,0.0,0.0,0.0,0,0,mongenerator-battery_bus_fault
66,0.0,0.0,0.0,0.0,0.0,0.0,0.0,0,0,mongenerator-battery_bus_fault
67,0.0,0.0,0.0,0.0,0.0,0.0,0.0,0,0,mongenerator-battery_bus_fault
68,0.0,0.0,0.0,0.0,0.0,0.0,0.0,0,0,mongenerator-battery_bus_fault
69,0.0,0.0,0.0,0.0,0.0,0.0,0.0,0,0,mongenerator-battery_bus_fault
70,0.0,0.0,0.0,0.0,0.0,0.0,0.0,0,0,mongenerator-battery_bus_fault
71,0.0,0.0,0.0,0.0,0.0,0.0,0.0,0,0,mongenerator-battery_bus_fault
72,0.0,0.0,0.0,0.0,0.0,0.0,0.0,0,0,mongenerator-battery_bus_fault
73,0.0,0.0,0.0,0.0,0.0,0.0,0.0,0,0,mongenerator-battery_bus_fault
74,0.0,0.0,0.0,0.0,0.0,0.0,0.0,0,0,mongenerator-battery_bus_fault
75,0.0,0.0,0.0,0.0,0.0,0.0,0.0,0,0,mongenerator-battery_bus_fault
76,0.0,0.0,0.0,0.0,0.0,0.0,0.0,0,0,mongenerator-battery_bus_fault
77,0.0,0.0,0.0,0.0,0.0,0.0,0.0,0,0,mongenerator-battery_bus_fault
78,0.0,0.0,0.0,0.0,0.0,0.0,0.0,0,0,mongenerator-battery_bus_fault
79,0.0,0.0,0.0,0.0,0.0,0.0,0.0,0,0,mongenerator-battery_bus_fault
80,0.0,0.0,0.0,0.0,0.0,0.0,0.0,0,0,mongenerator-battery_bus_fault
81,0.0,0.0,0.0,0.0,0.0,0.0,0.0,0,0,mongenerator-battery_bus_fault
82,0.0,0.0,0.0,0.0,0.0,0.0,0.0,0,0,mongenerator-battery_bus_fault
83,0.0,0.0,0.0,0.0,0.0,0.0,0.0,0,0,mongenerator-battery_bus_fault
84,0.0,0.0,0.0,0.0,0.0,0.0,0.0,0,0,mongenerator-battery_bus_fault
85,0.0,0.0,0.0,0.0,0.0,0.0,0.0,0,0,mongenerator-battery_bus_fault
86,0.0,0.0,0.0,0.0,0.0,0.0,0.0,0,0,mongenerator-battery_bus_fault
87,0.0,0.0,0.0,0.0,0.0,0.0,0.0,0,0,mongenerator-battery_bus_fault
88,0.0,0.0,0.0,0.0,0.0,0.0,0.0,0,0,mongenerator-battery_bus_fault
89,0.0,0.0,0.0,0.0,0.0,0.0,0.0,0,0,mongenerator-battery_bus_fault
90,0.0,0.0,0.0,0.0,0.0,0.0,0.0,0,0,mongenerator-battery_bus_fault
91,0.0,0.0,0.0,0.0,0.0,0.0,0.0,0,0,mongenerator-battery_bus_fault
92,0.0,0.0,0.0,0.0,0.0,0.0,0.0,0,0,mongenerator-battery_bus_fault
93,0.0,0.0,0.0,0.0,0.0,0.0,0.0,0,0,mongenerator-battery_bus_fault
94,0.0,0.0,0.0,0.0,0.0,0.0,0.0,0,0,mongenerator-battery_bus_fault
95,0.0,-61.6411,-8.79332e-05,-61.7066,-7.787770000000001e-05,-61.7086,-8.313649999999999e-05,0,0,mongenerator-battery_bus_fault
96,0.0,-27.5121,5.230159999999999e-06,-27.5331,8.450510000000001e-08,-27.5431,-1.07604e-05,0,0,mongenerator-battery_bus_fault
97,0.0,25.8207,-1.6446099999999998e-05,25.8305,5.3343799999999996e-06,25.837,-1.0321099999999998e-05,0,0,mongenerator-battery_bus_fault
98,0.0,38.7562,-2.55292e-05,38.7788,5.56591e-06,38.7945,2.77306e-06,0,0,mongenerator-battery_bus_fault
99,0.0,34.523,1.0341600000000001e-05,34.5381,-1.6192400000000001e-06,34.5508,2.07985e-06,0,0,mongenerator-battery_bus_fault
100,0.0,0.0,0.0,0.0,0.0,0.0,0.0,0,0,mongenerator-battery_bus_fault
101,0.0,0.0,0.0,0.0,0.0,0.0,0.0,0,0,mongenerator-battery_bus_fault
102,0.0,0.0,0.0,0.0,0.0,0.0,0.0,0,0,mongenerator-battery_bus_fault
103,0.0,0.0,0.0,0.0,0.0,0.0,0.0,0,0,mongenerator-battery_bus_fault
104,0.0,0.0,0.0,0.0,0.0,0.0,0.0,0,0,mongenerator-battery_bus_fault
105,0.0,-89.6549,0.000195537,-89.7057,0.00010745700000000001,-89.7412,0.000106114,0,0,mongenerator-battery_bus_fault
106,0.0,76.6312,2.43525e-05,76.6767,2.0342899999999998e-05,76.7004,4.68557e-05,0,0,mongenerator-battery_bus_fault
107,0.0,23.273000000000003,-0.000174678,23.2963,-0.00010800600000000001,23.3075,-0.00012067299999999999,0,0,mongenerator-battery_bus_fault
108,0.0,0.0,0.0,0.0,0.0,0.0,0.0,0,0,mongenerator-battery_bus_fault
109,0.0,0.0,0.0,0.0,0.0,0.0,0.0,0,0,mongenerator-battery_bus_fault
110,0.0,0.0,0.0,0.0,0.0,0.0,0.0,0,0,mongenerator-battery_bus_fault
111,0.0,0.0,0.0,0.0,0.0,0.0,0.0,0,0,mongenerator-battery_bus_fault
112,0.0,0.0,0.0,0.0,0.0,0.0,0.0,0,0,mongenerator-battery_bus_fault
113,0.0,0.0,0.0,0.0,0.0,0.0,0.0,0,0,mongenerator-battery_bus_fault
114,0.0,-52.541000000000004,-0.000624742,-52.6022,-0.000404964,-52.6295,-0.000491815,0,0,mongenerator-battery_bus_fault
115,0.0,-37.2484,0.000124664,-37.2964,3.10033e-05,-37.3299,-1.72718e-05,0,0,mongenerator-battery_bus_fault
116,0.0,0.0,0.0,0.0,0.0,0.0,0.0,0,0,mongenerator-battery_bus_fault
117,0.0,0.0,0.0,0.0,0.0,0.0,0.0,0,0,mongenerator-battery_bus_fault
118,0.0,0.0,0.0,0.0,0.0,0.0,0.0,0,0,mongenerator-battery_bus_fault
119,0.0,0.0,0.0,0.0,0.0,0.0,0.0,0,0,mongenerator-battery_bus_fault
120,0.0,0.0,0.0,0.0,0.0,0.0,0.0,0,0,mongenerator-battery_bus_fault
121,0.0,0.0,0.0,0.0,0.0,0.0,0.0,0,0,mongenerator-battery_bus_fault
122,0.0,0.0,0.0,0.0,0.0,0.0,0.0,0,0,mongenerator-battery_bus_fault
123,0.0,0.0,0.0,0.0,0.0,0.0,0.0,0,0,mongenerator-battery_bus_fault
124,0.0,0.0,0.0,0.0,0.0,0.0,0.0,0,0,mongenerator-battery_bus_fault
125,0.0,0.0,0.0,0.0,0.0,0.0,0.0,0,0,mongenerator-battery_bus_fault
126,0.0,0.0,0.0,0.0,0.0,0.0,0.0,0,0,mongenerator-battery_bus_fault
127,0.0,0.0,0.0,0.0,0.0,0.0,0.0,0,0,mongenerator-battery_bus_fault
128,0.0,0.0,0.0,0.0,0.0,0.0,0.0,0,0,mongenerator-battery_bus_fault
129,0.0,0.0,0.0,0.0,0.0,0.0,0.0,0,0,mongenerator-battery_bus_fault
130,0.0,89.6452,-0.00019486099999999998,89.7038,0.000167352,89.7436,4.76888e-05,0,0,mongenerator-battery_bus_fault
131,0.0,10.1905,2.3311900000000004e-06,10.1937,-1.23121e-05,10.1975,-7.04317e-06,0,0,mongenerator-battery_bus_fault
132,0.0,0.0,0.0,0.0,0.0,0.0,0.0,0,0,mongenerator-battery_bus_fault
133,0.0,0.0,0.0,0.0,0.0,0.0,0.0,0,0,mongenerator-battery_bus_fault
134,0.0,0.0,0.0,0.0,0.0,0.0,0.0,0,0,mongenerator-battery_bus_fault
135,0.0,0.0,0.0,0.0,0.0,0.0,0.0,0,0,mongenerator-battery_bus_fault
136,0.0,0.0,0.0,0.0,0.0,0.0,0.0,0,0,mongenerator-battery_bus_fault
137,0.0,0.0,0.0,0.0,0.0,0.0,0.0,0,0,mongenerator-battery_bus_fault
138,0.0,0.0,0.0,0.0,0.0,0.0,0.0,0,0,mongenerator-battery_bus_fault
139,0.0,0.0,0.0,0.0,0.0,0.0,0.0,0,0,mongenerator-battery_bus_fault
140,0.0,0.0,0.0,0.0,0.0,0.0,0.0,0,0,mongenerator-battery_bus_fault
141,0.0,0.0,0.0,0.0,0.0,0.0,0.0,0,0,mongenerator-battery_bus_fault
142,0.0,0.0,0.0,0.0,0.0,0.0,0.0,0,0,mongenerator-battery_bus_fault
143,0.0,-53.044,-0.0003519,-53.0734,-0.000305539,-53.0731,-0.00035428099999999996,0,0,mongenerator-battery_bus_fault
144,0.0,-36.1384,3.15255e-05,-36.1641,6.818660000000001e-06,-36.1659,8.45828e-06,0,0,mongenerator-battery_bus_fault
145,0.0,57.3533,5.3777e-05,57.3906,-3.823019999999999e-06,57.4066,-9.312960000000001e-06,0,0,mongenerator-battery_bus_fault
146,0.0,41.7384,2.1507399999999997e-05,41.7568,1.25536e-07,41.7667,3.60671e-06,0,0,mongenerator-battery_bus_fault
147,0.0,0.0,0.0,0.0,0.0,0.0,0.0,0,0,mongenerator-battery_bus_fault
148,0.0,0.0,0.0,0.0,0.0,0.0,0.0,0,0,mongenerator-battery_bus_fault
149,0.0,0.0,0.0,0.0,0.0,0.0,0.0,0,0,mongenerator-battery_bus_fault
150,0.0,0.0,0.0,0.0,0.0,0.0,0.0,0,0,mongenerator-battery_bus_fault
151,0.0,0.0,0.0,0.0,0.0,0.0,0.0,0,0,mongenerator-battery_bus_fault
152,0.0,0.0,0.0,0.0,0.0,0.0,0.0,0,0,mongenerator-battery_bus_fault
153,0.0,-89.3021,-0.000368551,-89.3579,-0.00010117200000000001,-89.4503,-9.011790000000001e-05,0,0,mongenerator-battery_bus_fault
154,0.0,89.4049,-2.09005e-06,89.4901,-4.09451e-05,89.5618,8.003580000000001e-06,0,0,mongenerator-battery_bus_fault
155,0.0,10.149,2.23955e-06,10.1546,-7.815069999999999e-06,10.1636,-6.16534e-06,0,0,mongenerator-battery_bus_fault
156,0.0,0.0,0.0,0.0,0.0,0.0,0.0,0,0,mongenerator-battery_bus_fault
157,0.0,0.0,0.0,0.0,0.0,0.0,0.0,0,0,mongenerator-battery_bus_fault
158,0.0,0.0,0.0,0.0,0.0,0.0,0.0,0,0,mongenerator-battery_bus_fault
159,0.0,0.0,0.0,0.0,0.0,0.0,0.0,0,0,mongenerator-battery_bus_fault
160,0.0,0.0,0.0,0.0,0.0,0.0,0.0,0,0,mongenerator-battery_bus_fault
161,0.0,0.0,0.0,0.0,0.0,0.0,0.0,0,0,mongenerator-battery_bus_fault
162,0.0,0.0,0.0,0.0,0.0,0.0,0.0,0,0,mongenerator-battery_bus_fault
163,0.0,0.0,0.0,0.0,0.0,0.0,0.0,0,0,mongenerator-battery_bus_fault
164,0.0,0.0,0.0,0.0,0.0,0.0,0.0,0,0,mongenerator-battery_bus_fault
165,0.0,0.0,0.0,0.0,0.0,0.0,0.0,0,0,mongenerator-battery_bus_fault
166,0.0,0.0,0.0,0.0,0.0,0.0,0.0,0,0,mongenerator-battery_bus_fault
167,0.0,0.0,0.0,0.0,0.0,0.0,0.0,0,0,mongenerator-battery_bus_fault
168,0.0,0.0,0.0,0.0,0.0,0.0,0.0,0,0,mongenerator-battery_bus_fault
169,0.0,0.0,0.0,0.0,0.0,0.0,0.0,0,0,mongenerator-battery_bus_fault
170,0.0,0.0,0.0,0.0,0.0,0.0,0.0,0,0,mongenerator-battery_bus_fault
171,0.0,0.0,0.0,0.0,0.0,0.0,0.0,0,0,mongenerator-battery_bus_fault
172,0.0,0.0,0.0,0.0,0.0,0.0,0.0,0,0,mongenerator-battery_bus_fault
173,0.0,0.0,0.0,0.0,0.0,0.0,0.0,0,0,mongenerator-battery_bus_fault
174,0.0,0.0,0.0,0.0,0.0,0.0,0.0,0,0,mongenerator-battery_bus_fault
175,0.0,0.0,0.0,0.0,0.0,0.0,0.0,0,0,mongenerator-battery_bus_fault
176,0.0,0.0,0.0,0.0,0.0,0.0,0.0,0,0,mongenerator-battery_bus_fault
177,0.0,0.0,0.0,0.0,0.0,0.0,0.0,0,0,mongenerator-battery_bus_fault
178,0.0,0.0,0.0,0.0,0.0,0.0,0.0,0,0,mongenerator-battery_bus_fault
179,0.0,0.0,0.0,0.0,0.0,0.0,0.0,0,0,mongenerator-battery_bus_fault
180,0.0,0.0,0.0,0.0,0.0,0.0,0.0,0,0,mongenerator-battery_bus_fault
181,0.0,0.0,0.0,0.0,0.0,0.0,0.0,0,0,mongenerator-battery_bus_fault
182,0.0,0.0,0.0,0.0,0.0,0.0,0.0,0,0,mongenerator-battery_bus_fault
183,0.0,0.0,0.0,0.0,0.0,0.0,0.0,0,0,mongenerator-battery_bus_fault
184,0.0,0.0,0.0,0.0,0.0,0.0,0.0,0,0,mongenerator-battery_bus_fault
185,0.0,0.0,0.0,0.0,0.0,0.0,0.0,0,0,mongenerator-battery_bus_fault
186,0.0,0.0,0.0,0.0,0.0,0.0,0.0,0,0,mongenerator-battery_bus_fault
187,0.0,0.0,0.0,0.0,0.0,0.0,0.0,0,0,mongenerator-battery_bus_fault
188,0.0,0.0,0.0,0.0,0.0,0.0,0.0,0,0,mongenerator-battery_bus_fault
189,0.0,0.0,0.0,0.0,0.0,0.0,0.0,0,0,mongenerator-battery_bus_fault
190,0.0,0.0,0.0,0.0,0.0,0.0,0.0,0,0,mongenerator-battery_bus_fault
191,0.0,-89.1404,-0.000340386,-89.1989,-0.000202837,-89.2096,-0.000258054,0,0,mongenerator-battery_bus_fault
192,0.0,47.1562,-3.7150699999999994e-06,47.1832,-4.78793e-06,47.1981,-1.46197e-05,0,0,mongenerator-battery_bus_fault
193,0.0,51.9471,0.00106191,51.9664,0.000322811,51.9809,0.000593374,0,0,mongenerator-battery_bus_fault
194,0.0,0.0,0.0,0.0,0.0,0.0,0.0,0,0,mongenerator-battery_bus_fault
195,0.0,0.0,0.0,0.0,0.0,0.0,0.0,0,0,mongenerator-battery_bus_fault
196,0.0,0.0,0.0,0.0,0.0,0.0,0.0,0,0,mongenerator-battery_bus_fault
197,0.0,0.0,0.0,0.0,0.0,0.0,0.0,0,0,mongenerator-battery_bus_fault
198,0.0,0.0,0.0,0.0,0.0,0.0,0.0,0,0,mongenerator-battery_bus_fault
199,0.0,0.0,0.0,0.0,0.0,0.0,0.0,0,0,mongenerator-battery_bus_fault
200,0.0,0.0,0.0,0.0,0.0,0.0,0.0,0,0,mongenerator-battery_bus_fault
201,0.0,0.0,0.0,0.0,0.0,0.0,0.0,0,0,mongenerator-battery_bus_fault
202,0.0,0.0,0.0,0.0,0.0,0.0,0.0,0,0,mongenerator-battery_bus_fault
203,0.0,0.0,0.0,0.0,0.0,0.0,0.0,0,0,mongenerator-battery_bus_fault
204,0.0,-89.6089,2.68395e-05,-89.6073,2.23663e-06,-89.6888,1.0531700000000001e-05,0,0,mongenerator-battery_bus_fault
205,0.0,90.3407,-0.0007198419999999999,90.3242,-0.000598949,90.3866,-0.0005892709999999999,0,0,mongenerator-battery_bus_fault
206,0.0,10.1916,-1.15183e-05,10.1868,-1.56912e-05,10.1954,-9.167780000000001e-06,0,0,mongenerator-battery_bus_fault
207,0.0,-80.4738,0.000406351,-80.4429,0.000359989,-80.5199,0.00034155,0,0,mongenerator-battery_bus_fault
208,0.0,89.4957,7.6709e-05,89.5147,-2.7127899999999998e-05,89.574,3.6637399999999996e-05,0,0,mongenerator-battery_bus_fault
209,0.0,0.0,0.0,0.0,0.0,0.0,0.0,0,0,mongenerator-battery_bus_fault
210,0.0,0.0,0.0,0.0,0.0,0.0,0.0,0,0,mongenerator-battery_bus_fault
211,0.0,0.0,0.0,0.0,0.0,0.0,0.0,0,0,mongenerator-battery_bus_fault
212,0.0,0.0,0.0,0.0,0.0,0.0,0.0,0,0,mongenerator-battery_bus_fault
213,0.0,0.0,0.0,0.0,0.0,0.0,0.0,0,0,mongenerator-battery_bus_fault
214,0.0,0.0,0.0,0.0,0.0,0.0,0.0,0,0,mongenerator-battery_bus_fault
215,0.0,-89.1223,-3.61502e-05,-89.2055,-3.02219e-05,-89.2051,-5.15832e-05,0,0,mongenerator-battery_bus_fault
216,0.0,67.1595,-1.2459200000000001e-05,67.1961,4.833169999999999e-06,67.2127,-2.0920300000000004e-05,0,0,mongenerator-battery_bus_fault
217,0.0,31.9412,0.0008148739999999999,31.9502,0.000378077,31.9606,0.0006650639999999999,0,0,mongenerator-battery_bus_fault
218,0.0,0.0,0.0,0.0,0.0,0.0,0.0,0,0,mongenerator-battery_bus_fault
219,0.0,0.0,0.0,0.0,0.0,0.0,0.0,0,0,mongenerator-battery_bus_fault
220,0.0,0.0,0.0,0.0,0.0,0.0,0.0,0,0,mongenerator-battery_bus_fault
221,0.0,0.0,0.0,0.0,0.0,0.0,0.0,0,0,mongenerator-battery_bus_fault
222,0.0,0.0,0.0,0.0,0.0,0.0,0.0,0,0,mongenerator-battery_bus_fault
223,0.0,0.0,0.0,0.0,0.0,0.0,0.0,0,0,mongenerator-battery_bus_fault
224,0.0,0.0,0.0,0.0,0.0,0.0,0.0,0,0,mongenerator-battery_bus_fault
225,0.0,0.0,0.0,0.0,0.0,0.0,0.0,0,0,mongenerator-battery_bus_fault
226,0.0,-80.4189,-0.000155376,-80.4508,-2.6526900000000002e-05,-80.5109,-6.341800000000001e-05,0,0,mongenerator-battery_bus_fault
227,0.0,90.0763,-0.0004996180000000001,90.0871,-0.000386116,90.1593,-0.00040949199999999996,0,0,mongenerator-battery_bus_fault
228,0.0,0.0,0.0,0.0,0.0,0.0,0.0,0,0,mongenerator-battery_bus_fault
229,0.0,0.0,0.0,0.0,0.0,0.0,0.0,0,0,mongenerator-battery_bus_fault
230,0.0,-35.529,1.43623e-05,-35.5522,2.02222e-05,-35.5767,3.91436e-06,0,0,mongenerator-battery_bus_fault
231,0.0,39.5336,4.37446e-05,39.5557,3.96613e-05,39.5786,4.1754799999999995e-05,0,0,mongenerator-battery_bus_fault
232,0.0,0.0,0.0,0.0,0.0,0.0,0.0,0,0,mongenerator-battery_bus_fault
233,0.0,0.0,0.0,0.0,0.0,0.0,0.0,0,0,mongenerator-battery_bus_fault
234,0.0,0.0,0.0,0.0,0.0,0.0,0.0,0,0,mongenerator-battery_bus_fault
235,0.0,0.0,0.0,0.0,0.0,0.0,0.0,0,0,mongenerator-battery_bus_fault
236,0.0,0.0,0.0,0.0,0.0,0.0,0.0,0,0,mongenerator-battery_bus_fault
237,0.0,0.0,0.0,0.0,0.0,0.0,0.0,0,0,mongenerator-battery_bus_fault
238,0.0,-5.92784,-5.61077e-06,-5.93299,-2.49695e-06,-5.93275,-1.10123e-05,0,0,mongenerator-battery_bus_fault
239,0.0,-83.2122,-4.26752e-06,-83.2568,2.36321e-05,-83.2733,-4.1876000000000004e-05,0,0,mongenerator-battery_bus_fault
240,0.0,52.3229,9.76175e-06,52.3529,-4.2831000000000005e-07,52.3594,-1.5936300000000002e-05,0,0,mongenerator-battery_bus_fault
241,0.0,46.7719,0.000619259,46.8022,0.00042322800000000005,46.8021,0.000105006,0,0,mongenerator-battery_bus_fault
242,0.0,0.0,0.0,0.0,0.0,0.0,0.0,0,0,mongenerator-battery_bus_fault
243,0.0,0.0,0.0,0.0,0.0,0.0,0.0,0,0,mongenerator-battery_bus_fault
244,0.0,0.0,0.0,0.0,0.0,0.0,0.0,0,0,mongenerator-battery_bus_fault
245,0.0,0.0,0.0,0.0,0.0,0.0,0.0,0,0,mongenerator-battery_bus_fault
246,0.0,0.0,0.0,0.0,0.0,0.0,0.0,0,0,mongenerator-battery_bus_fault
247,0.0,0.0,0.0,0.0,0.0,0.0,0.0,0,0,mongenerator-battery_bus_fault
248,0.0,0.0,0.0,0.0,0.0,0.0,0.0,0,0,mongenerator-battery_bus_fault
249,0.0,0.0,0.0,0.0,0.0,0.0,0.0,0,0,mongenerator-battery_bus_fault
250,0.0,-89.5605,-5.51711e-05,-89.603,4.90326e-06,-89.6496,-1.18628e-05,0,0,mongenerator-battery_bus_fault
251,0.0,90.0379,-0.00043520300000000005,90.0903,-0.00036859699999999997,90.1177,-0.00036788099999999997,0,0,mongenerator-battery_bus_fault
252,0.0,10.2052,1.25673e-05,10.2115,1.07721e-05,10.2163,1.0337599999999999e-05,0,0,mongenerator-battery_bus_fault
253,0.0,0.0,0.0,0.0,0.0,0.0,0.0,0,0,mongenerator-battery_bus_fault
254,0.0,0.0,0.0,0.0,0.0,0.0,0.0,0,0,mongenerator-battery_bus_fault
255,0.0,0.0,0.0,0.0,0.0,0.0,0.0,0,0,mongenerator-battery_bus_fault
