hour,t(sec),V1,VAngle1,V2,VAngle2,V3,VAngle3,I1,IAngle1,I2,IAngle2,I3,IAngle3,Name,P1(kW),P2(kW),P3(kW)
1,0.0,2401.78,1.93663e-08,2401.78,-120.0,2401.78,120.0,2.38651e-09,180.0,2.38833e-09,59.2159,2.40085e-09,-59.3936,monvsource-lead_gen_670,5.7318719878e-09,5.736243227400001e-09,5.766313513e-09
2,0.0,2401.78,1.93663e-08,2401.78,-120.0,2401.78,120.0,2.38651e-09,180.0,2.38833e-09,59.2159,2.40085e-09,-59.3936,monvsource-lead_gen_670,5.7318719878e-09,5.736243227400001e-09,5.766313513e-09
3,0.0,2401.78,1.93663e-08,2401.78,-120.0,2401.78,120.0,2.38651e-09,180.0,2.38833e-09,59.2159,2.40085e-09,-59.3936,monvsource-lead_gen_670,5.7318719878e-09,5.736243227400001e-09,5.766313513e-09
4,0.0,2401.78,1.93663e-08,2401.78,-120.0,2401.78,120.0,2.38651e-09,180.0,2.38833e-09,59.2159,2.40085e-09,-59.3936,monvsource-lead_gen_670,5.7318719878e-09,5.736243227400001e-09,5.766313513e-09
5,0.0,2401.78,1.93663e-08,2401.78,-120.0,2401.78,120.0,2.38651e-09,180.0,2.38833e-09,59.2159,2.40085e-09,-59.3936,monvsource-lead_gen_670,5.7318719878e-09,5.736243227400001e-09,5.766313513e-09
6,0.0,2401.78,1.93663e-08,2401.78,-120.0,2401.78,120.0,2.38651e-09,180.0,2.38833e-09,59.2159,2.40085e-09,-59.3936,monvsource-lead_gen_670,5.7318719878e-09,5.736243227400001e-09,5.766313513e-09
7,0.0,2401.78,1.93663e-08,2401.78,-120.0,2401.78,120.0,2.38651e-09,180.0,2.38833e-09,59.2159,2.40085e-09,-59.3936,monvsource-lead_gen_670,5.7318719878e-09,5.736243227400001e-09,5.766313513e-09
8,0.0,2401.78,1.93663e-08,2401.78,-120.0,2401.78,120.0,2.38651e-09,180.0,2.38833e-09,59.2159,2.40085e-09,-59.3936,monvsource-lead_gen_670,5.7318719878e-09,5.736243227400001e-09,5.766313513e-09
9,0.0,2401.78,1.93663e-08,2401.78,-120.0,2401.78,120.0,2.38651e-09,180.0,2.38833e-09,59.2159,2.40085e-09,-59.3936,monvsource-lead_gen_670,5.7318719878e-09,5.736243227400001e-09,5.766313513e-09
10,0.0,2401.78,1.93663e-08,2401.78,-120.0,2401.78,120.0,2.38651e-09,180.0,2.38833e-09,59.2159,2.40085e-09,-59.3936,monvsource-lead_gen_670,5.7318719878e-09,5.736243227400001e-09,5.766313513e-09
11,0.0,2401.78,1.93663e-08,2401.78,-120.0,2401.78,120.0,2.38651e-09,180.0,2.38833e-09,59.2159,2.40085e-09,-59.3936,monvsource-lead_gen_670,5.7318719878e-09,5.736243227400001e-09,5.766313513e-09
12,0.0,2401.78,1.93663e-08,2401.78,-120.0,2401.78,120.0,2.38651e-09,180.0,2.38833e-09,59.2159,2.40085e-09,-59.3936,monvsource-lead_gen_670,5.7318719878e-09,5.736243227400001e-09,5.766313513e-09
13,0.0,2401.78,1.93663e-08,2401.78,-120.0,2401.78,120.0,2.38651e-09,180.0,2.38833e-09,59.2159,2.40085e-09,-59.3936,monvsource-lead_gen_670,5.7318719878e-09,5.736243227400001e-09,5.766313513e-09
14,0.0,2401.78,1.93663e-08,2401.78,-120.0,2401.78,120.0,2.38651e-09,180.0,2.38833e-09,59.2159,2.40085e-09,-59.3936,monvsource-lead_gen_670,5.7318719878e-09,5.736243227400001e-09,5.766313513e-09
15,0.0,2401.78,1.93663e-08,2401.78,-120.0,2401.78,120.0,2.38651e-09,180.0,2.38833e-09,59.2159,2.40085e-09,-59.3936,monvsource-lead_gen_670,5.7318719878e-09,5.736243227400001e-09,5.766313513e-09
16,0.0,2401.78,1.93663e-08,2401.78,-120.0,2401.78,120.0,2.38651e-09,180.0,2.38833e-09,59.2159,2.40085e-09,-59.3936,monvsource-lead_gen_670,5.7318719878e-09,5.736243227400001e-09,5.766313513e-09
17,0.0,2401.78,1.93663e-08,2401.78,-120.0,2401.78,120.0,2.38651e-09,180.0,2.38833e-09,59.2159,2.40085e-09,-59.3936,monvsource-lead_gen_670,5.7318719878e-09,5.736243227400001e-09,5.766313513e-09
18,0.0,2401.78,1.93663e-08,2401.78,-120.0,2401.78,120.0,2.38651e-09,180.0,2.38833e-09,59.2159,2.40085e-09,-59.3936,monvsource-lead_gen_670,5.7318719878e-09,5.736243227400001e-09,5.766313513e-09
19,0.0,2401.78,1.93663e-08,2401.78,-120.0,2401.78,120.0,2.38651e-09,180.0,2.38833e-09,59.2159,2.40085e-09,-59.3936,monvsource-lead_gen_670,5.7318719878e-09,5.736243227400001e-09,5.766313513e-09
20,0.0,2401.78,1.93663e-08,2401.78,-120.0,2401.78,120.0,2.38651e-09,180.0,2.38833e-09,59.2159,2.40085e-09,-59.3936,monvsource-lead_gen_670,5.7318719878e-09,5.736243227400001e-09,5.766313513e-09
21,0.0,2401.78,1.93663e-08,2401.78,-120.0,2401.78,120.0,2.38651e-09,180.0,2.38833e-09,59.2159,2.40085e-09,-59.3936,monvsource-lead_gen_670,5.7318719878e-09,5.736243227400001e-09,5.766313513e-09
22,0.0,2401.78,1.93663e-08,2401.78,-120.0,2401.78,120.0,2.38651e-09,180.0,2.38833e-09,59.2159,2.40085e-09,-59.3936,monvsource-lead_gen_670,5.7318719878e-09,5.736243227400001e-09,5.766313513e-09
23,0.0,2401.78,1.93663e-08,2401.78,-120.0,2401.78,120.0,2.38651e-09,180.0,2.38833e-09,59.2159,2.40085e-09,-59.3936,monvsource-lead_gen_670,5.7318719878e-09,5.736243227400001e-09,5.766313513e-09
24,0.0,2401.78,1.93663e-08,2401.78,-120.0,2401.78,120.0,2.38651e-09,180.0,2.38833e-09,59.2159,2.40085e-09,-59.3936,monvsource-lead_gen_670,5.7318719878e-09,5.736243227400001e-09,5.766313513e-09
25,0.0,2402.24,-0.0247371,2402.34,-120.023,2402.28,119.95,127.751,-139.105,124.877,101.766,256.893,-32.1371,monvsource-lead_gen_670,306.88856224,299.99701218,617.12891604
26,0.0,2402.24,-0.0246775,2402.34,-120.024,2402.28,119.949,127.446,-138.939,127.147,100.856,258.735,-32.3442,monvsource-lead_gen_670,306.15587903999995,305.45032398000006,621.5539158
27,0.0,2402.24,-0.0247505,2402.33,-120.024,2402.28,119.949,127.711,-139.031,128.351,100.392,259.057,-32.3652,monvsource-lead_gen_670,306.79247263999997,308.34145782999997,622.3274499600001
28,0.0,2402.3,-0.019078,2402.39,-120.018,2402.34,119.955,107.934,-129.093,108.925,109.799,234.619,-29.1719,monvsource-lead_gen_670,259.2898482,261.68033075,563.63460846
29,0.0,2402.28,-0.0207747,2402.39,-120.02,2402.24,119.948,112.872,-132.075,113.121,107.298,265.104,-33.5391,monvsource-lead_gen_670,271.15014816,271.76075918999993,636.8434329599999
30,0.0,2402.27,-0.0213746,2402.37,-120.021,2402.21,119.946,114.607,-133.021,119.15,104.206,276.098,-34.8299,monvsource-lead_gen_670,275.31695789,286.24238549999995,663.2453765800001
31,0.0,2402.21,-0.0274227,2402.24,-120.035,2401.98,119.931,135.039,-141.855,175.801,87.9081,345.555,-41.1442,monvsource-lead_gen_670,324.39203618999994,422.3161942399999,830.0161989000001
32,0.0,2402.19,-0.028267,2402.26,-120.035,2401.89,119.925,137.773,-142.687,172.847,88.4655,376.586,-43.2386,monvsource-lead_gen_670,330.95692287,415.22343422000006,904.5181475400001
33,0.0,2402.57,0.00838739,2402.63,-119.999,2402.28,119.962,110.861,-48.5877,86.4451,167.994,204.322,-27.8066,monvsource-lead_gen_670,266.35131277,207.695590613,490.83865416000003
34,0.0,2402.65,0.0155925,2402.7,-119.993,2402.32,119.966,138.659,-37.2313,99.8092,-175.477,190.62,-24.7048,monvsource-lead_gen_670,333.14904635,239.81156484,457.9302384
35,0.0,2403.06,0.0535845,2403.06,-119.959,2402.69,120.0,313.352,-15.6467,238.583,-140.082,113.556,36.7556,monvsource-lead_gen_670,753.0036571199998,573.32926398,272.83986563999997
36,0.0,2403.26,0.0724878,2403.25,-119.941,2402.86,120.016,405.602,-12.0042,324.32,-134.559,148.598,70.398,monvsource-lead_gen_670,974.7670625200001,779.42204,357.06019028000003
37,0.0,2403.35,0.0811644,2403.32,-119.935,2402.94,120.023,448.755,-10.829,355.07,-133.234,172.85,78.5062,monvsource-lead_gen_670,1078.51532925,853.3468324,415.348179
38,0.0,2403.45,0.0901901,2403.38,-119.929,2402.99,120.028,494.043,-9.79292,383.62,-132.164,194.053,83.6023,monvsource-lead_gen_670,1187.4076483499998,921.9846356,466.30741846999996
39,0.0,2403.07,0.0546799,2403.08,-119.957,2402.69,120.0,318.632,-15.3713,248.4,-139.25,113.122,37.4716,monvsource-lead_gen_670,765.6950002400001,596.925072,271.79709818000003
40,0.0,2403.15,0.0626343,2403.16,-119.95,2402.75,120.006,357.512,-13.6694,281.093,-136.913,122.008,52.799,monvsource-lead_gen_670,859.1549628,675.5114538800001,293.154722
41,0.0,2402.62,0.0127806,2402.69,-119.995,2402.27,119.962,127.721,-40.9977,95.1772,-179.834,206.702,-28.1488,monvsource-lead_gen_670,306.86502902,228.681306668,496.55401354
42,0.0,2402.07,-0.0357647,2402.28,-120.033,2401.83,119.92,169.856,-151.356,165.028,89.9915,399.876,-44.6714,monvsource-lead_gen_670,408.00600192,396.44346384000005,960.4341730799998
43,0.0,2402.09,-0.0348392,2402.28,-120.031,2401.98,119.929,167.195,-150.852,155.369,92.1496,354.059,-41.7146,monvsource-lead_gen_670,401.61743755000003,373.23984132,850.44263682
44,0.0,2402.1,-0.0339467,2402.28,-120.031,2401.98,119.929,163.153,-149.937,155.927,92.0153,354.505,-41.7526,monvsource-lead_gen_670,391.9098213,374.58031356000004,851.5139199
45,0.0,2402.15,-0.0306174,2402.3,-120.029,2402.07,119.936,149.512,-146.592,148.034,93.9871,323.521,-39.4082,monvsource-lead_gen_670,359.15025080000004,355.6220782,777.12008847
46,0.0,2402.24,-0.0238094,2402.32,-120.026,2402.12,119.941,122.491,-137.111,138.036,96.8458,300.176,-37.4871,monvsource-lead_gen_670,294.25277983999996,331.60664352000003,721.05877312
47,0.0,2402.32,-0.016641,2402.43,-120.016,2402.26,119.951,100.067,-123.055,102.485,114.213,254.398,-32.4213,monvsource-lead_gen_670,240.39295543999998,246.21303854999996,611.13013948
48,0.0,2402.28,-0.0201155,2402.4,-120.018,2402.29,119.952,110.985,-131.15,106.756,111.163,249.776,-31.61,monvsource-lead_gen_670,266.6170458,256.47061440000004,600.0343870400001
49,0.0,2402.28,-0.0212136,2402.38,-120.02,2402.27,119.95,114.61,-133.024,115.769,105.912,256.878,-32.3756,monvsource-lead_gen_670,275.3253108,278.12113022000005,617.09031306
50,0.0,2402.27,-0.0215052,2402.37,-120.021,2402.27,119.95,115.594,-133.513,118.312,104.655,258.433,-32.5244,monvsource-lead_gen_670,277.68799838,284.22919944,620.82584291
51,0.0,2402.27,-0.021852,2402.36,-120.022,2402.27,119.95,116.836,-134.157,120.084,103.824,257.913,-32.4199,monvsource-lead_gen_670,280.67161772,288.48499824000004,619.57666251
52,0.0,2402.28,-0.0214273,2402.36,-120.022,2402.27,119.95,115.331,-133.377,120.242,103.744,256.372,-32.2427,monvsource-lead_gen_670,277.05735468000006,288.86457112000005,615.87476444
53,0.0,2402.26,-0.0219202,2402.38,-120.021,2402.2,119.946,116.533,-134.074,118.525,104.501,277.364,-34.9913,monvsource-lead_gen_670,279.94256458,284.7420895,666.2838007999999
54,0.0,2402.25,-0.0225122,2402.37,-120.022,2402.17,119.943,118.328,-134.956,121.766,103.002,289.738,-36.3097,monvsource-lead_gen_670,284.253438,292.52698541999996,695.99993146
55,0.0,2402.19,-0.028573,2402.24,-120.036,2401.94,119.928,139.382,-143.297,178.513,87.441,358.909,-42.0682,monvsource-lead_gen_670,334.82204658,428.83106912,862.0778834600001
56,0.0,2402.18,-0.0289035,2402.26,-120.035,2401.85,119.922,140.082,-143.408,173.06,88.4365,389.489,-44.0006,monvsource-lead_gen_670,336.50217876,415.73511560000003,935.4941546499999
57,0.0,2402.65,0.0163865,2402.72,-119.991,2402.32,119.967,141.189,-36.2085,106.143,-170.827,184.208,-24.1544,monvsource-lead_gen_670,339.22775085,255.03190895999998,442.52656256000006
58,0.0,2403.03,0.0504476,2403.03,-119.962,2402.62,119.995,298.623,-16.4471,223.479,-141.507,112.277,23.7144,monvsource-lead_gen_670,717.60002769,537.0267413700001,269.75896574
59,0.0,2403.36,0.0818675,2403.31,-119.935,2402.93,120.023,452.474,-10.7411,351.536,-133.379,172.644,78.5163,monvsource-lead_gen_670,1087.45791264,844.84998416,414.85144691999994
60,0.0,2403.37,0.0823503,2403.3,-119.936,2402.94,120.022,455.099,-10.6615,348.254,-133.455,172.339,77.9183,monvsource-lead_gen_670,1093.77128363,836.9588382000001,414.12027666000006
61,0.0,2403.74,0.118149,2403.66,-119.902,2403.31,120.058,631.828,-7.57884,515.932,-128.965,325.588,99.0717,monvsource-lead_gen_670,1518.7502367199997,1240.12511112,782.48889628
62,0.0,2403.68,0.112049,2403.6,-119.908,2403.23,120.05,601.861,-7.98242,486.336,-129.533,291.654,96.6994,monvsource-lead_gen_670,1446.6812484799998,1168.9572096,700.91164242
63,0.0,2402.89,0.0379441,2402.92,-119.973,2402.52,119.985,238.568,-20.7177,176.194,-147.783,126.916,1.36868,monvsource-lead_gen_670,573.25266152,423.38008648,304.91822831999997
64,0.0,2402.99,0.0472104,2403.0,-119.965,2402.6,119.992,282.873,-17.3829,211.624,-142.803,114.131,18.3302,monvsource-lead_gen_670,679.74099027,508.532472,274.21114059999996
65,0.0,2402.52,0.00342576,2402.59,-120.004,2402.19,119.954,97.0593,-59.4475,82.3203,151.337,241.662,-33.2192,monvsource-lead_gen_670,233.18690943599998,197.78192957700003,580.51803978
66,0.0,2402.08,-0.0349539,2402.28,-120.033,2401.85,119.921,166.379,-150.601,162.738,90.4743,394.721,-44.3678,monvsource-lead_gen_670,399.65566831999996,390.94224264,948.0606338499999
67,0.0,2402.11,-0.033709,2402.29,-120.03,2402.01,119.931,162.498,-149.831,150.765,93.2822,343.616,-40.9676,monvsource-lead_gen_670,390.33807078,362.18125184999997,825.36906816
68,0.0,2402.13,-0.0324868,2402.29,-120.03,2402.01,119.931,157.05,-148.504,151.851,93.0046,343.526,-40.9669,monvsource-lead_gen_670,377.2545165,364.79013879,825.15288726
69,0.0,2402.17,-0.0294004,2402.3,-120.028,2402.1,119.938,144.678,-145.222,143.778,95.1647,312.857,-38.4937,monvsource-lead_gen_670,347.54115126,345.3978894,751.5137997
70,0.0,2402.43,-0.00593273,2402.51,-120.009,2402.31,119.958,83.5493,-90.2495,85.6442,135.408,221.163,-28.543,monvsource-lead_gen_670,200.72134479899998,205.761046942,531.30208653
71,0.0,2402.29,-0.0196547,2402.39,-120.02,2402.25,119.949,109.105,-129.739,113.794,106.935,263.233,-33.2814,monvsource-lead_gen_670,262.10185045,273.37756766,632.35147425
72,0.0,2402.27,-0.0219434,2402.38,-120.02,2402.28,119.951,117.327,-134.546,114.072,106.808,252.988,-31.8601,monvsource-lead_gen_670,281.85113228999995,274.04429136000005,607.7480126400001
73,0.0,2401.78,1.93663e-08,2401.78,-120.0,2401.78,120.0,2.38651e-09,180.0,2.38833e-09,59.2159,2.40085e-09,-59.3936,monvsource-lead_gen_670,5.7318719878e-09,5.736243227400001e-09,5.766313513e-09
74,0.0,2401.78,1.93663e-08,2401.78,-120.0,2401.78,120.0,2.38651e-09,180.0,2.38833e-09,59.2159,2.40085e-09,-59.3936,monvsource-lead_gen_670,5.7318719878e-09,5.736243227400001e-09,5.766313513e-09
75,0.0,2401.78,1.93663e-08,2401.78,-120.0,2401.78,120.0,2.38651e-09,180.0,2.38833e-09,59.2159,2.40085e-09,-59.3936,monvsource-lead_gen_670,5.7318719878e-09,5.736243227400001e-09,5.766313513e-09
76,0.0,2401.78,1.93663e-08,2401.78,-120.0,2401.78,120.0,2.38651e-09,180.0,2.38833e-09,59.2159,2.40085e-09,-59.3936,monvsource-lead_gen_670,5.7318719878e-09,5.736243227400001e-09,5.766313513e-09
77,0.0,2401.78,1.93663e-08,2401.78,-120.0,2401.78,120.0,2.38651e-09,180.0,2.38833e-09,59.2159,2.40085e-09,-59.3936,monvsource-lead_gen_670,5.7318719878e-09,5.736243227400001e-09,5.766313513e-09
78,0.0,2401.78,1.93663e-08,2401.78,-120.0,2401.78,120.0,2.38651e-09,180.0,2.38833e-09,59.2159,2.40085e-09,-59.3936,monvsource-lead_gen_670,5.7318719878e-09,5.736243227400001e-09,5.766313513e-09
79,0.0,2401.78,1.93663e-08,2401.78,-120.0,2401.78,120.0,2.38651e-09,180.0,2.38833e-09,59.2159,2.40085e-09,-59.3936,monvsource-lead_gen_670,5.7318719878e-09,5.736243227400001e-09,5.766313513e-09
80,0.0,2401.78,1.93663e-08,2401.78,-120.0,2401.78,120.0,2.38651e-09,180.0,2.38833e-09,59.2159,2.40085e-09,-59.3936,monvsource-lead_gen_670,5.7318719878e-09,5.736243227400001e-09,5.766313513e-09
81,0.0,2401.78,1.93663e-08,2401.78,-120.0,2401.78,120.0,2.38651e-09,180.0,2.38833e-09,59.2159,2.40085e-09,-59.3936,monvsource-lead_gen_670,5.7318719878e-09,5.736243227400001e-09,5.766313513e-09
82,0.0,2401.78,1.93663e-08,2401.78,-120.0,2401.78,120.0,2.38651e-09,180.0,2.38833e-09,59.2159,2.40085e-09,-59.3936,monvsource-lead_gen_670,5.7318719878e-09,5.736243227400001e-09,5.766313513e-09
83,0.0,2401.78,1.93663e-08,2401.78,-120.0,2401.78,120.0,2.38651e-09,180.0,2.38833e-09,59.2159,2.40085e-09,-59.3936,monvsource-lead_gen_670,5.7318719878e-09,5.736243227400001e-09,5.766313513e-09
84,0.0,2401.78,1.93663e-08,2401.78,-120.0,2401.78,120.0,2.38651e-09,180.0,2.38833e-09,59.2159,2.40085e-09,-59.3936,monvsource-lead_gen_670,5.7318719878e-09,5.736243227400001e-09,5.766313513e-09
85,0.0,2401.78,1.93663e-08,2401.78,-120.0,2401.78,120.0,2.38651e-09,180.0,2.38833e-09,59.2159,2.40085e-09,-59.3936,monvsource-lead_gen_670,5.7318719878e-09,5.736243227400001e-09,5.766313513e-09
86,0.0,2401.78,1.93663e-08,2401.78,-120.0,2401.78,120.0,2.38651e-09,180.0,2.38833e-09,59.2159,2.40085e-09,-59.3936,monvsource-lead_gen_670,5.7318719878e-09,5.736243227400001e-09,5.766313513e-09
87,0.0,2401.78,1.93663e-08,2401.78,-120.0,2401.78,120.0,2.38651e-09,180.0,2.38833e-09,59.2159,2.40085e-09,-59.3936,monvsource-lead_gen_670,5.7318719878e-09,5.736243227400001e-09,5.766313513e-09
88,0.0,2401.78,1.93663e-08,2401.78,-120.0,2401.78,120.0,2.38651e-09,180.0,2.38833e-09,59.2159,2.40085e-09,-59.3936,monvsource-lead_gen_670,5.7318719878e-09,5.736243227400001e-09,5.766313513e-09
89,0.0,2401.78,1.93663e-08,2401.78,-120.0,2401.78,120.0,2.38651e-09,180.0,2.38833e-09,59.2159,2.40085e-09,-59.3936,monvsource-lead_gen_670,5.7318719878e-09,5.736243227400001e-09,5.766313513e-09
90,0.0,2401.78,1.93663e-08,2401.78,-120.0,2401.78,120.0,2.38651e-09,180.0,2.38833e-09,59.2159,2.40085e-09,-59.3936,monvsource-lead_gen_670,5.7318719878e-09,5.736243227400001e-09,5.766313513e-09
91,0.0,2401.78,1.93663e-08,2401.78,-120.0,2401.78,120.0,2.38651e-09,180.0,2.38833e-09,59.2159,2.40085e-09,-59.3936,monvsource-lead_gen_670,5.7318719878e-09,5.736243227400001e-09,5.766313513e-09
92,0.0,2401.78,1.93663e-08,2401.78,-120.0,2401.78,120.0,2.38651e-09,180.0,2.38833e-09,59.2159,2.40085e-09,-59.3936,monvsource-lead_gen_670,5.7318719878e-09,5.736243227400001e-09,5.766313513e-09
93,0.0,2401.78,1.93663e-08,2401.78,-120.0,2401.78,120.0,2.38651e-09,180.0,2.38833e-09,59.2159,2.40085e-09,-59.3936,monvsource-lead_gen_670,5.7318719878e-09,5.736243227400001e-09,5.766313513e-09
94,0.0,2401.78,1.93663e-08,2401.78,-120.0,2401.78,120.0,2.38651e-09,180.0,2.38833e-09,59.2159,2.40085e-09,-59.3936,monvsource-lead_gen_670,5.7318719878e-09,5.736243227400001e-09,5.766313513e-09
95,0.0,2401.78,1.93663e-08,2401.78,-120.0,2401.78,120.0,2.38651e-09,180.0,2.38833e-09,59.2159,2.40085e-09,-59.3936,monvsource-lead_gen_670,5.7318719878e-09,5.736243227400001e-09,5.766313513e-09
96,0.0,2401.78,1.93663e-08,2401.78,-120.0,2401.78,120.0,2.38651e-09,180.0,2.38833e-09,59.2159,2.40085e-09,-59.3936,monvsource-lead_gen_670,5.7318719878e-09,5.736243227400001e-09,5.766313513e-09
1,0.0,2401.78,1.93668e-08,2401.78,-120.0,2401.78,120.0,1.90005e-07,-90.7243,1.91345e-07,148.941,1.88523e-07,29.6045,monvsource-secondsource,4.563502089000001e-07,4.5956859410000004e-07,4.5279077094000006e-07
2,0.0,2401.78,1.93668e-08,2401.78,-120.0,2401.78,120.0,1.90005e-07,-90.7243,1.91345e-07,148.941,1.88523e-07,29.6045,monvsource-secondsource,4.563502089000001e-07,4.5956859410000004e-07,4.5279077094000006e-07
3,0.0,2401.78,1.93668e-08,2401.78,-120.0,2401.78,120.0,1.90005e-07,-90.7243,1.91345e-07,148.941,1.88523e-07,29.6045,monvsource-secondsource,4.563502089000001e-07,4.5956859410000004e-07,4.5279077094000006e-07
4,0.0,2401.78,1.93668e-08,2401.78,-120.0,2401.78,120.0,1.90005e-07,-90.7243,1.91345e-07,148.941,1.88523e-07,29.6045,monvsource-secondsource,4.563502089000001e-07,4.5956859410000004e-07,4.5279077094000006e-07
5,0.0,2401.78,1.93668e-08,2401.78,-120.0,2401.78,120.0,1.90005e-07,-90.7243,1.91345e-07,148.941,1.88523e-07,29.6045,monvsource-secondsource,4.563502089000001e-07,4.5956859410000004e-07,4.5279077094000006e-07
6,0.0,2401.78,1.93668e-08,2401.78,-120.0,2401.78,120.0,1.90005e-07,-90.7243,1.91345e-07,148.941,1.88523e-07,29.6045,monvsource-secondsource,4.563502089000001e-07,4.5956859410000004e-07,4.5279077094000006e-07
7,0.0,2401.78,1.93668e-08,2401.78,-120.0,2401.78,120.0,1.90005e-07,-90.7243,1.91345e-07,148.941,1.88523e-07,29.6045,monvsource-secondsource,4.563502089000001e-07,4.5956859410000004e-07,4.5279077094000006e-07
8,0.0,2401.78,1.93668e-08,2401.78,-120.0,2401.78,120.0,1.90005e-07,-90.7243,1.91345e-07,148.941,1.88523e-07,29.6045,monvsource-secondsource,4.563502089000001e-07,4.5956859410000004e-07,4.5279077094000006e-07
9,0.0,2401.78,1.93668e-08,2401.78,-120.0,2401.78,120.0,1.90005e-07,-90.7243,1.91345e-07,148.941,1.88523e-07,29.6045,monvsource-secondsource,4.563502089000001e-07,4.5956859410000004e-07,4.5279077094000006e-07
