hour,t(sec),V1,VAngle1,V2,VAngle2,I1,IAngle1,I2,IAngle2,V3,Name,VAngle3,I3,IAngle3,V4,VAngle4,I4,IAngle4,kv,V1(PU),V2(PU),V3(PU)
1,0.0,,114.451,,0.0,20.2518,114.452,20.2518,-65.548,2356.8,monload-611_runway,,,,,,,,2.4,,,0.9820000000000001
2,0.0,,114.425,,0.0,21.49,114.427,21.49,-65.5728,2355.86,monload-611_runway,,,,,,,,2.4,,,0.9816083333333334
3,0.0,,114.456,,0.0,18.735,114.453,18.735,-65.5465,2357.08,monload-611_runway,,,,,,,,2.4,,,0.9821166666666666
4,0.0,,114.462,,0.0,18.1696,114.462,18.1696,-65.5384,2357.34,monload-611_runway,,,,,,,,2.4,,,0.982225
5,0.0,,114.268,,0.0,18.3433,114.269,18.3433,-65.7306,2349.53,monload-611_runway,,,,,,,,2.4,,,0.9789708333333335
6,0.0,,114.157,,0.0,19.8621,114.158,19.8621,-65.8417,2344.94,monload-611_runway,,,,,,,,2.4,,,0.9770583333333334
7,0.0,,113.875,,0.0,29.8483,113.876,29.8483,-66.1236,2336.44,monload-611_runway,,,,,,,,2.4,,,0.9735166666666667
8,0.0,,113.665,,0.0,31.8618,113.668,31.8618,-66.332,2326.64,monload-611_runway,,,,,,,,2.4,,,0.9694333333333333
9,0.0,,115.433,,0.0,44.0268,115.433,44.0268,-64.5673,2408.33,monload-611_runway,,,,,,,,2.4,,,1.0034708333333333
10,0.0,,117.254,,0.0,37.8158,117.254,37.8158,-62.7458,2486.0,monload-611_runway,,,,,,,,2.4,,,1.0358333333333334
11,0.0,,121.815,,0.0,28.067,121.816,28.067,-58.1839,2647.0,monload-611_runway,,,,,,,,2.4,,,1.1029166666666668
12,0.0,,123.197,,0.0,26.6859,123.198,26.6859,-56.8022,2685.37,monload-611_runway,,,,,,,,2.4,,,1.1189041666666666
13,0.0,,123.774,,0.0,26.8174,123.774,26.8174,-56.2259,2707.9,monload-611_runway,,,,,,,,2.4,,,1.1282916666666667
14,0.0,,123.405,,0.0,26.7144,123.406,26.7144,-56.5944,2693.28,monload-611_runway,,,,,,,,2.4,,,1.1222
15,0.0,,122.187,,0.0,26.1624,122.187,26.1624,-57.8127,2644.9,monload-611_runway,,,,,,,,2.4,,,1.1020416666666668
16,0.0,,120.158,,0.0,25.2001,120.157,25.2001,-59.8426,2562.05,monload-611_runway,,,,,,,,2.4,,,1.0675208333333335
17,0.0,,116.896,,0.0,25.989,116.891,25.989,-63.1093,2439.95,monload-611_runway,,,,,,,,2.4,,,1.0166458333333332
18,0.0,,113.98,,0.0,31.4301,113.979,31.4301,-66.0214,2341.28,monload-611_runway,,,,,,,,2.4,,,0.9755333333333334
19,0.0,,114.071,,0.0,43.1551,114.069,43.1551,-65.9313,2346.3,monload-611_runway,,,,,,,,2.4,,,0.9776250000000001
20,0.0,,114.003,,0.0,45.3034,114.004,45.3034,-65.9957,2343.31,monload-611_runway,,,,,,,,2.4,,,0.9763791666666667
21,0.0,,113.938,,0.0,47.8087,113.939,47.8087,-66.0605,2340.14,monload-611_runway,,,,,,,,2.4,,,0.9750583333333332
22,0.0,,113.868,,0.0,46.4444,113.869,46.4444,-66.1312,2336.27,monload-611_runway,,,,,,,,2.4,,,0.9734458333333333
23,0.0,,113.833,,0.0,35.6973,113.834,35.6973,-66.1658,2331.85,monload-611_runway,,,,,,,,2.4,,,0.9716041666666666
24,0.0,,114.069,,0.0,22.9122,114.069,22.9122,-65.9314,2340.53,monload-611_runway,,,,,,,,2.4,,,0.9752208333333334
25,0.0,,114.048,,0.0,18.6667,114.048,18.6667,-65.9516,2338.8,monload-611_runway,,,,,,,,2.4,,,0.9745
26,0.0,,114.029,,0.0,17.8494,114.033,17.8494,-65.9673,2337.82,monload-611_runway,,,,,,,,2.4,,,0.9740916666666667
27,0.0,,114.034,,0.0,16.9263,114.034,16.9263,-65.9656,2337.92,monload-611_runway,,,,,,,,2.4,,,0.9741333333333334
28,0.0,,114.385,,0.0,17.0116,114.381,17.0116,-65.6191,2354.11,monload-611_runway,,,,,,,,2.4,,,0.9808791666666667
29,0.0,,113.84,,0.0,17.6802,113.841,17.6802,-66.1591,2333.33,monload-611_runway,,,,,,,,2.4,,,0.9722208333333333
30,0.0,,113.852,,0.0,21.26,113.851,21.26,-66.149,2335.07,monload-611_runway,,,,,,,,2.4,,,0.9729458333333334
31,0.0,,114.201,,0.0,33.1809,114.198,33.1809,-65.8015,2358.68,monload-611_runway,,,,,,,,2.4,,,0.9827833333333332
32,0.0,,113.875,,0.0,34.8528,113.877,34.8528,-66.123,2346.78,monload-611_runway,,,,,,,,2.4,,,0.977825
33,0.0,,114.285,,0.0,30.7756,114.287,30.7756,-65.7134,2366.16,monload-611_runway,,,,,,,,2.4,,,0.9858999999999999
34,0.0,,113.881,,0.0,31.0977,113.883,31.0977,-66.1168,2348.73,monload-611_runway,,,,,,,,2.4,,,0.9786375
35,0.0,,116.543,,0.0,25.135,116.543,25.135,-63.4567,2465.43,monload-611_runway,,,,,,,,2.4,,,1.0272625
36,0.0,,117.773,,0.0,26.0047,117.775,26.0047,-62.2253,2503.23,monload-611_runway,,,,,,,,2.4,,,1.0430125
37,0.0,,118.334,,0.0,26.4798,118.334,26.4798,-61.6659,2526.51,monload-611_runway,,,,,,,,2.4,,,1.0527125000000002
38,0.0,,118.714,,0.0,25.6085,118.714,25.6085,-61.2864,2543.17,monload-611_runway,,,,,,,,2.4,,,1.0596541666666668
39,0.0,,116.433,,0.0,24.5082,116.435,24.5082,-63.5655,2446.16,monload-611_runway,,,,,,,,2.4,,,1.0192333333333332
40,0.0,,116.957,,0.0,24.748,116.953,24.748,-63.0467,2468.72,monload-611_runway,,,,,,,,2.4,,,1.0286333333333333
41,0.0,,114.056,,0.0,25.8685,114.059,25.8685,-65.9406,2343.09,monload-611_runway,,,,,,,,2.4,,,0.9762875000000001
42,0.0,,114.13,,0.0,31.6633,114.127,31.6633,-65.8728,2360.14,monload-611_runway,,,,,,,,2.4,,,0.9833916666666667
43,0.0,,114.302,,0.0,38.7986,114.302,38.7986,-65.6979,2363.48,monload-611_runway,,,,,,,,2.4,,,0.9847833333333333
44,0.0,,114.245,,0.0,41.1781,114.246,41.1781,-65.7543,2361.01,monload-611_runway,,,,,,,,2.4,,,0.9837541666666667
45,0.0,,114.26,,0.0,45.1231,114.262,45.1231,-65.7383,2358.79,monload-611_runway,,,,,,,,2.4,,,0.9828291666666666
46,0.0,,114.082,,0.0,42.3023,114.084,42.3023,-65.9162,2349.4,monload-611_runway,,,,,,,,2.4,,,0.9789166666666667
47,0.0,,113.779,,0.0,30.8497,113.779,30.8497,-66.2211,2331.17,monload-611_runway,,,,,,,,2.4,,,0.9713208333333334
48,0.0,,113.973,,0.0,21.1497,113.972,21.1497,-66.028,2338.27,monload-611_runway,,,,,,,,2.4,,,0.9742791666666667
49,0.0,,113.918,,0.0,18.8942,113.915,18.8942,-66.0848,2335.06,monload-611_runway,,,,,,,,2.4,,,0.9729416666666666
50,0.0,,113.915,,0.0,18.3946,113.917,18.3946,-66.0826,2334.6,monload-611_runway,,,,,,,,2.4,,,0.97275
51,0.0,,113.948,,0.0,17.8874,113.948,17.8874,-66.0523,2335.64,monload-611_runway,,,,,,,,2.4,,,0.9731833333333333
52,0.0,,113.966,,0.0,18.4384,113.963,18.4384,-66.0371,2336.56,monload-611_runway,,,,,,,,2.4,,,0.9735666666666667
53,0.0,,113.851,,0.0,19.6598,113.852,19.6598,-66.1482,2335.35,monload-611_runway,,,,,,,,2.4,,,0.9730624999999999
54,0.0,,113.805,,0.0,23.9779,113.805,23.9779,-66.1953,2334.5,monload-611_runway,,,,,,,,2.4,,,0.9727083333333333
55,0.0,,114.171,,0.0,35.7182,114.168,35.7182,-65.8318,2358.41,monload-611_runway,,,,,,,,2.4,,,0.9826708333333333
56,0.0,,113.787,,0.0,35.9782,113.789,35.9782,-66.2107,2343.74,monload-611_runway,,,,,,,,2.4,,,0.9765583333333332
57,0.0,,114.099,,0.0,31.5574,114.101,31.5574,-65.8991,2358.79,monload-611_runway,,,,,,,,2.4,,,0.9828291666666666
58,0.0,,116.065,,0.0,31.2533,116.065,31.2533,-63.9351,2445.42,monload-611_runway,,,,,,,,2.4,,,1.018925
59,0.0,,118.326,,0.0,24.8437,118.326,24.8437,-61.6738,2526.3,monload-611_runway,,,,,,,,2.4,,,1.0526250000000001
60,0.0,,118.362,,0.0,25.9852,118.362,25.9852,-61.6378,2527.39,monload-611_runway,,,,,,,,2.4,,,1.0530791666666666
61,0.0,,120.781,,0.0,28.0957,120.781,28.0957,-59.219,2612.58,monload-611_runway,,,,,,,,2.4,,,1.088575
62,0.0,,120.222,,0.0,28.3516,120.223,28.3516,-59.7766,2590.24,monload-611_runway,,,,,,,,2.4,,,1.0792666666666666
63,0.0,,115.238,,0.0,27.9419,115.235,27.9419,-64.7645,2394.22,monload-611_runway,,,,,,,,2.4,,,0.9975916666666665
64,0.0,,115.825,,0.0,28.0794,115.821,28.0794,-64.1792,2419.8,monload-611_runway,,,,,,,,2.4,,,1.00825
65,0.0,,114.158,,0.0,28.5183,114.16,28.5183,-65.8404,2347.21,monload-611_runway,,,,,,,,2.4,,,0.9780041666666667
66,0.0,,114.091,,0.0,32.6003,114.089,32.6003,-65.9112,2358.03,monload-611_runway,,,,,,,,2.4,,,0.9825125000000001
67,0.0,,114.281,,0.0,38.728,114.281,38.728,-65.7187,2361.59,monload-611_runway,,,,,,,,2.4,,,0.9839958333333334
68,0.0,,114.218,,0.0,40.8709,114.22,40.8709,-65.7802,2358.83,monload-611_runway,,,,,,,,2.4,,,0.9828458333333333
69,0.0,,114.247,,0.0,44.806,114.248,44.806,-65.7521,2357.05,monload-611_runway,,,,,,,,2.4,,,0.9821041666666668
70,0.0,,114.015,,0.0,41.9513,114.02,41.9513,-65.9799,2345.98,monload-611_runway,,,,,,,,2.4,,,0.9774916666666666
71,0.0,,113.728,,0.0,30.874,113.728,30.874,-66.2716,2327.65,monload-611_runway,,,,,,,,2.4,,,0.9698541666666667
72,0.0,,114.0,,0.0,21.1947,113.997,21.1947,-66.0034,2338.32,monload-611_runway,,,,,,,,2.4,,,0.9743
73,0.0,,113.961,,0.0,18.5785,113.961,18.5785,-66.039,2335.38,monload-611_runway,,,,,,,,2.4,,,0.973075
74,0.0,,113.949,,0.0,17.7129,113.952,17.7129,-66.0481,2334.65,monload-611_runway,,,,,,,,2.4,,,0.9727708333333334
75,0.0,,113.962,,0.0,16.7422,113.961,16.7422,-66.0391,2335.09,monload-611_runway,,,,,,,,2.4,,,0.9729541666666667
76,0.0,,114.307,,0.0,16.8093,114.303,16.8093,-65.697,2351.1,monload-611_runway,,,,,,,,2.4,,,0.979625
77,0.0,,113.776,,0.0,17.5128,113.777,17.5128,-66.223,2330.91,monload-611_runway,,,,,,,,2.4,,,0.9712124999999999
78,0.0,,113.769,,0.0,20.9229,113.767,20.9229,-66.2329,2331.34,monload-611_runway,,,,,,,,2.4,,,0.9713916666666668
79,0.0,,113.938,,0.0,32.7171,113.937,32.7171,-66.063,2347.07,monload-611_runway,,,,,,,,2.4,,,0.9779458333333334
80,0.0,,113.668,,0.0,34.9942,113.669,34.9942,-66.3308,2337.96,monload-611_runway,,,,,,,,2.4,,,0.97415
81,0.0,,114.1,,0.0,30.82,114.097,30.82,-65.9029,2358.28,monload-611_runway,,,,,,,,2.4,,,0.9826166666666668
82,0.0,,115.377,,0.0,30.1071,115.377,30.1071,-64.6234,2414.62,monload-611_runway,,,,,,,,2.4,,,1.0060916666666666
83,0.0,,118.373,,0.0,23.1536,118.374,23.1536,-61.6264,2528.04,monload-611_runway,,,,,,,,2.4,,,1.05335
84,0.0,,117.757,,0.0,23.6213,117.759,23.6213,-62.241,2502.25,monload-611_runway,,,,,,,,2.4,,,1.0426041666666668
85,0.0,,116.425,,0.0,24.733,116.426,24.733,-63.574,2444.99,monload-611_runway,,,,,,,,2.4,,,1.0187458333333332
86,0.0,,114.128,,0.0,26.0612,114.126,26.0612,-65.8742,2360.43,monload-611_runway,,,,,,,,2.4,,,0.9835124999999999
87,0.0,,118.323,,0.0,26.477,118.326,26.477,-61.6745,2526.88,monload-611_runway,,,,,,,,2.4,,,1.0528666666666666
88,0.0,,114.128,,0.0,26.3335,114.129,26.3335,-65.8707,2346.64,monload-611_runway,,,,,,,,2.4,,,0.9777666666666666
89,0.0,,114.195,,0.0,27.5633,114.193,27.5633,-65.8074,2349.59,monload-611_runway,,,,,,,,2.4,,,0.9789958333333334
90,0.0,,114.023,,0.0,33.8235,114.024,33.8235,-65.9758,2341.53,monload-611_runway,,,,,,,,2.4,,,0.9756375
91,0.0,,114.257,,0.0,41.4629,114.256,41.4629,-65.7444,2362.44,monload-611_runway,,,,,,,,2.4,,,0.9843500000000001
92,0.0,,114.198,,0.0,44.545,114.199,44.545,-65.8007,2359.81,monload-611_runway,,,,,,,,2.4,,,0.9832541666666667
93,0.0,,114.202,,0.0,49.2734,114.204,49.2734,-65.7963,2357.17,monload-611_runway,,,,,,,,2.4,,,0.9821541666666667
94,0.0,,114.005,,0.0,46.4184,114.009,46.4184,-65.9905,2347.05,monload-611_runway,,,,,,,,2.4,,,0.9779375000000001
95,0.0,,113.728,,0.0,34.3923,113.735,34.3923,-66.2646,2330.22,monload-611_runway,,,,,,,,2.4,,,0.9709249999999999
96,0.0,,113.9,,0.0,24.0131,113.901,24.0131,-66.0987,2336.43,monload-611_runway,,,,,,,,2.4,,,0.9735124999999999
97,0.0,,113.863,,0.0,21.7964,113.864,21.7964,-66.1363,2333.91,monload-611_runway,,,,,,,,2.4,,,0.9724624999999999
98,0.0,,113.847,,0.0,20.8093,113.844,20.8093,-66.1561,2332.95,monload-611_runway,,,,,,,,2.4,,,0.9720624999999999
99,0.0,,113.865,,0.0,19.5335,113.864,19.5335,-66.1364,2333.49,monload-611_runway,,,,,,,,2.4,,,0.9722874999999999
100,0.0,,113.883,,0.0,19.3539,113.881,19.3539,-66.1186,2333.98,monload-611_runway,,,,,,,,2.4,,,0.9724916666666666
101,0.0,,113.732,,0.0,19.795,113.733,19.795,-66.2668,2330.56,monload-611_runway,,,,,,,,2.4,,,0.9710666666666666
102,0.0,,113.699,,0.0,23.6849,113.699,23.6849,-66.3009,2330.21,monload-611_runway,,,,,,,,2.4,,,0.9709208333333333
103,0.0,,113.676,,0.0,38.4226,113.672,38.4226,-66.3282,2337.17,monload-611_runway,,,,,,,,2.4,,,0.9738208333333334
104,0.0,,113.533,,0.0,42.7031,113.536,42.7031,-66.4642,2333.57,monload-611_runway,,,,,,,,2.4,,,0.9723208333333334
105,0.0,,114.115,,0.0,39.7651,114.118,39.7651,-65.8825,2360.78,monload-611_runway,,,,,,,,2.4,,,0.9836583333333334
106,0.0,,113.747,,0.0,42.459,113.75,42.459,-66.2504,2345.78,monload-611_runway,,,,,,,,2.4,,,0.9774083333333334
107,0.0,,114.109,,0.0,36.7749,114.106,36.7749,-65.8941,2361.79,monload-611_runway,,,,,,,,2.4,,,0.9840791666666666
108,0.0,,115.061,,0.0,34.924,115.059,34.924,-64.9408,2403.14,monload-611_runway,,,,,,,,2.4,,,1.0013083333333332
109,0.0,,116.962,,0.0,35.3309,116.962,35.3309,-63.0376,2484.96,monload-611_runway,,,,,,,,2.4,,,1.0354
110,0.0,,115.41,,0.0,36.1511,115.412,36.1511,-64.5882,2418.38,monload-611_runway,,,,,,,,2.4,,,1.0076583333333333
111,0.0,,115.467,,0.0,36.557,115.465,36.557,-64.5347,2420.97,monload-611_runway,,,,,,,,2.4,,,1.0087374999999998
112,0.0,,114.278,,0.0,35.8436,114.279,35.8436,-65.7208,2368.65,monload-611_runway,,,,,,,,2.4,,,0.9869375
113,0.0,,114.659,,0.0,37.3236,114.658,37.3236,-65.3423,2384.83,monload-611_runway,,,,,,,,2.4,,,0.9936791666666667
114,0.0,,114.406,,0.0,42.3539,114.407,42.3539,-65.593,2372.79,monload-611_runway,,,,,,,,2.4,,,0.9886625
115,0.0,,114.465,,0.0,48.2942,114.465,48.2942,-65.535,2370.97,monload-611_runway,,,,,,,,2.4,,,0.9879041666666666
116,0.0,,114.395,,0.0,50.8826,114.397,50.8826,-65.603,2367.83,monload-611_runway,,,,,,,,2.4,,,0.9865958333333333
117,0.0,,114.38,,0.0,55.1034,114.381,55.1034,-65.6186,2364.25,monload-611_runway,,,,,,,,2.4,,,0.9851041666666667
118,0.0,,114.111,,0.0,52.4571,114.113,52.4571,-65.8867,2350.99,monload-611_runway,,,,,,,,2.4,,,0.9795791666666666
119,0.0,,113.816,,0.0,40.733,113.816,40.733,-66.1841,2333.21,monload-611_runway,,,,,,,,2.4,,,0.9721708333333333
120,0.0,,113.996,,0.0,29.5798,113.995,29.5798,-66.005,2339.38,monload-611_runway,,,,,,,,2.4,,,0.9747416666666667
121,0.0,,113.984,,0.0,25.8806,113.984,25.8806,-66.0159,2337.5,monload-611_runway,,,,,,,,2.4,,,0.9739583333333334
122,0.0,,113.97,,0.0,24.5759,113.974,24.5759,-66.026,2336.58,monload-611_runway,,,,,,,,2.4,,,0.973575
123,0.0,,113.984,,0.0,22.9971,113.983,22.9971,-66.0165,2336.96,monload-611_runway,,,,,,,,2.4,,,0.9737333333333333
124,0.0,,113.984,,0.0,22.3842,113.984,22.3842,-66.0158,2336.8,monload-611_runway,,,,,,,,2.4,,,0.9736666666666668
125,0.0,,113.862,,0.0,22.8134,113.863,22.8134,-66.1372,2335.37,monload-611_runway,,,,,,,,2.4,,,0.9730708333333333
126,0.0,,113.848,,0.0,26.7316,113.848,26.7316,-66.1525,2335.62,monload-611_runway,,,,,,,,2.4,,,0.9731749999999999
127,0.0,,113.823,,0.0,41.3038,113.819,41.3038,-66.1812,2342.68,monload-611_runway,,,,,,,,2.4,,,0.9761166666666666
128,0.0,,113.667,,0.0,45.5509,113.67,45.5509,-66.3299,2338.61,monload-611_runway,,,,,,,,2.4,,,0.9744208333333334
129,0.0,,114.413,,0.0,44.0571,114.411,44.0571,-65.5885,2372.82,monload-611_runway,,,,,,,,2.4,,,0.9886750000000001
130,0.0,,114.663,,0.0,44.3574,114.661,44.3574,-65.3387,2384.58,monload-611_runway,,,,,,,,2.4,,,0.993575
131,0.0,,114.516,,0.0,38.3172,114.516,38.3172,-65.484,2378.47,monload-611_runway,,,,,,,,2.4,,,0.9910291666666666
132,0.0,,114.815,,0.0,39.0492,114.813,39.0492,-65.1871,2391.51,monload-611_runway,,,,,,,,2.4,,,0.9964625000000001
133,0.0,,114.524,,0.0,39.7514,114.526,39.7514,-65.4741,2378.65,monload-611_runway,,,,,,,,2.4,,,0.9911041666666667
134,0.0,,114.572,,0.0,40.3209,114.569,40.3209,-65.4305,2381.6,monload-611_runway,,,,,,,,2.4,,,0.9923333333333333
135,0.0,,114.609,,0.0,40.0177,114.608,40.0177,-65.3922,2382.99,monload-611_runway,,,,,,,,2.4,,,0.9929124999999999
136,0.0,,114.796,,0.0,38.751,114.795,38.751,-65.2053,2390.69,monload-611_runway,,,,,,,,2.4,,,0.9961208333333333
137,0.0,,114.841,,0.0,37.858,114.839,37.858,-65.1606,2392.55,monload-611_runway,,,,,,,,2.4,,,0.9968958333333334
138,0.0,,114.404,,0.0,42.9001,114.407,42.9001,-65.5933,2372.66,monload-611_runway,,,,,,,,2.4,,,0.9886083333333333
139,0.0,,114.507,,0.0,49.9773,114.507,49.9773,-65.4929,2373.26,monload-611_runway,,,,,,,,2.4,,,0.9888583333333334
140,0.0,,114.397,,0.0,52.678,114.399,52.678,-65.6008,2368.33,monload-611_runway,,,,,,,,2.4,,,0.9868041666666666
141,0.0,,114.386,,0.0,57.1881,114.388,57.1881,-65.6125,2365.11,monload-611_runway,,,,,,,,2.4,,,0.9854625
142,0.0,,114.011,,0.0,51.6617,114.009,51.6617,-65.9906,2346.79,monload-611_runway,,,,,,,,2.4,,,0.9778291666666666
143,0.0,,113.613,,0.0,37.0848,113.614,37.0848,-66.3856,2323.03,monload-611_runway,,,,,,,,2.4,,,0.9679291666666667
144,0.0,,114.003,,0.0,25.3175,113.999,25.3175,-66.0007,2338.83,monload-611_runway,,,,,,,,2.4,,,0.9745125
145,0.0,,113.943,,0.0,23.1146,113.943,23.1146,-66.0573,2335.15,monload-611_runway,,,,,,,,2.4,,,0.9729791666666667
146,0.0,,113.907,,0.0,22.7156,113.913,22.7156,-66.0873,2333.61,monload-611_runway,,,,,,,,2.4,,,0.9723375000000001
147,0.0,,113.939,,0.0,19.4987,113.937,19.4987,-66.063,2334.69,monload-611_runway,,,,,,,,2.4,,,0.9727875
148,0.0,,113.944,,0.0,19.1538,113.944,19.1538,-66.0558,2334.84,monload-611_runway,,,,,,,,2.4,,,0.9728500000000001
149,0.0,,114.054,,0.0,19.44,114.052,19.44,-65.9479,2341.05,monload-611_runway,,,,,,,,2.4,,,0.9754375000000001
150,0.0,,113.941,,0.0,20.7921,113.943,20.7921,-66.0575,2336.35,monload-611_runway,,,,,,,,2.4,,,0.9734791666666667
151,0.0,,114.054,,0.0,30.6613,114.056,30.6613,-65.9441,2345.92,monload-611_runway,,,,,,,,2.4,,,0.9774666666666667
152,0.0,,113.687,,0.0,32.5578,113.687,32.5578,-66.3126,2332.58,monload-611_runway,,,,,,,,2.4,,,0.9719083333333333
153,0.0,,115.155,,0.0,45.5458,115.15,45.5458,-64.8501,2398.41,monload-611_runway,,,,,,,,2.4,,,0.9993375
154,0.0,,117.828,,0.0,40.6198,117.829,40.6198,-62.1709,2500.77,monload-611_runway,,,,,,,,2.4,,,1.0419875
155,0.0,,121.6,,0.0,33.3636,121.6,33.3636,-58.4002,2642.45,monload-611_runway,,,,,,,,2.4,,,1.1010208333333333
156,0.0,,123.233,,0.0,33.4686,123.234,33.4686,-56.7658,2690.93,monload-611_runway,,,,,,,,2.4,,,1.1212208333333333
157,0.0,,123.978,,0.0,34.563,123.977,34.563,-56.0227,2719.41,monload-611_runway,,,,,,,,2.4,,,1.1330875
158,0.0,,123.648,,0.0,34.116,123.648,34.116,-56.352,2706.44,monload-611_runway,,,,,,,,2.4,,,1.1276833333333334
159,0.0,,122.317,,0.0,33.7398,122.317,33.7398,-57.6827,2653.99,monload-611_runway,,,,,,,,2.4,,,1.1058291666666666
160,0.0,,120.379,,0.0,33.7229,120.379,33.7229,-59.6215,2574.25,monload-611_runway,,,,,,,,2.4,,,1.0726041666666666
161,0.0,,116.708,,0.0,33.2851,116.706,33.2851,-63.2936,2435.67,monload-611_runway,,,,,,,,2.4,,,1.0148625
162,0.0,,114.199,,0.0,36.5459,114.197,36.5459,-65.8034,2355.17,monload-611_runway,,,,,,,,2.4,,,0.9813208333333333
163,0.0,,114.078,,0.0,47.5561,114.08,47.5561,-65.9203,2350.13,monload-611_runway,,,,,,,,2.4,,,0.9792208333333334
164,0.0,,113.9,,0.0,49.2997,113.903,49.2997,-66.0969,2342.1,monload-611_runway,,,,,,,,2.4,,,0.9758749999999999
165,0.0,,113.952,,0.0,51.8892,113.953,51.8892,-66.047,2342.22,monload-611_runway,,,,,,,,2.4,,,0.9759249999999999
166,0.0,,112.995,,0.0,51.0972,112.995,51.0972,-67.0052,2297.81,monload-611_runway,,,,,,,,2.4,,,0.9574208333333333
167,0.0,,113.542,,0.0,40.8171,113.541,40.8171,-66.4587,2320.25,monload-611_runway,,,,,,,,2.4,,,0.9667708333333334
168,0.0,,113.963,,0.0,27.8677,113.96,27.8677,-66.0403,2337.34,monload-611_runway,,,,,,,,2.4,,,0.9738916666666667
169,0.0,,113.987,,0.0,23.6005,113.987,23.6005,-66.0128,2336.48,monload-611_runway,,,,,,,,2.4,,,0.9735333333333334
170,0.0,,113.963,,0.0,23.0303,113.967,23.0303,-66.0325,2335.19,monload-611_runway,,,,,,,,2.4,,,0.9729958333333334
171,0.0,,114.001,,0.0,19.8099,113.999,19.8099,-66.0014,2336.43,monload-611_runway,,,,,,,,2.4,,,0.9735124999999999
172,0.0,,114.406,,0.0,19.6465,114.401,19.6465,-65.5988,2355.11,monload-611_runway,,,,,,,,2.4,,,0.9812958333333334
173,0.0,,114.191,,0.0,20.1694,114.193,20.1694,-65.807,2346.5,monload-611_runway,,,,,,,,2.4,,,0.9777083333333333
174,0.0,,114.061,,0.0,21.5583,114.062,21.5583,-65.9376,2341.13,monload-611_runway,,,,,,,,2.4,,,0.9754708333333334
175,0.0,,113.825,,0.0,31.2002,113.826,31.2002,-66.1737,2334.79,monload-611_runway,,,,,,,,2.4,,,0.9728291666666666
176,0.0,,113.61,,0.0,33.3904,113.613,33.3904,-66.3867,2324.76,monload-611_runway,,,,,,,,2.4,,,0.9686500000000001
177,0.0,,113.291,,0.0,49.5935,113.296,49.5935,-66.7043,2313.68,monload-611_runway,,,,,,,,2.4,,,0.9640333333333333
178,0.0,,117.193,,0.0,48.4258,117.193,48.4258,-62.8072,2486.75,monload-611_runway,,,,,,,,2.4,,,1.0361458333333333
