hour, t(sec), V1, VAngle1, V2, VAngle2, I1, IAngle1, I2, IAngle2
1, 0.00000, 2402.47, -121.626, 0, 0, 4.13792, -121.626, 4.13792, 58.374
2, 0.00000, 2402.71, -121.62, 0, 0, 3.78417, -121.62, 3.78417, 58.3796
3, 0.00000, 2402.6, -121.623, 0, 0, 3.70912, -121.623, 3.70912, 58.3772
4, 0.00000, 2402.58, -121.623, 0, 0, 3.683, -121.623, 3.683, 58.3767
5, 0.00000, 2401.74, -121.642, 0, 0, 4.13446, -121.642, 4.13446, 58.3582
6, 0.00000, 2401.3, -121.652, 0, 0, 5.09263, -121.652, 5.09263, 58.3484
7, 0.00000, 2398.93, -121.704, 0, 0, 6.20291, -121.704, 6.20291, 58.2959
8, 0.00000, 2405.81, -121.549, 0, 0, 5.62435, -121.552, 5.62435, 58.4478
9, 0.00000, 2406.17, -121.541, 0, 0, 4.97559, -121.541, 4.97559, 58.4593
10, 0.00000, 2406.63, -121.531, 0, 0, 4.40234, -121.531, 4.40234, 58.4694
11, 0.00000, 2406.81, -121.527, 0, 0, 3.7745, -121.527, 3.7745, 58.4734
12, 0.00000, 2406.73, -121.528, 0, 0, 3.79512, -121.528, 3.79512, 58.4717
13, 0.00000, 2406.84, -121.526, 0, 0, 3.76375, -121.526, 3.76375, 58.4741
14, 0.00000, 2407.05, -121.521, 0, 0, 3.67014, -121.521, 3.67014, 58.4786
15, 0.00000, 2407.02, -121.522, 0, 0, 3.63814, -121.522, 3.63814, 58.4781
16, 0.00000, 2406.86, -121.526, 0, 0, 3.92079, -121.525, 3.92079, 58.4745
17, 0.00000, 2406.49, -121.534, 0, 0, 5.4881, -121.534, 5.4881, 58.4661
18, 0.00000, 2402.17, -121.631, 0, 0, 7.69412, -121.631, 7.69412, 58.3687
19, 0.00000, 2398.29, -121.719, 0, 0, 8.8925, -121.718, 8.8925, 58.2815
20, 0.00000, 2398.51, -121.714, 0, 0, 8.68461, -121.714, 8.68461, 58.2864
21, 0.00000, 2399.3, -121.696, 0, 0, 8.59361, -121.696, 8.59361, 58.3041
22, 0.00000, 2399.95, -121.681, 0, 0, 7.49585, -121.681, 7.49585, 58.3188
23, 0.00000, 2400.91, -121.66, 0, 0, 6.19406, -121.66, 6.19406, 58.3397
24, 0.00000, 2401.27, -121.653, 0, 0, 5.12495, -121.653, 5.12495, 58.3475
25, 0.00000, 2400.72, -121.665, 0, 0, 4.49238, -121.665, 4.49238, 58.335
26, 0.00000, 2400.54, -121.669, 0, 0, 4.49002, -121.669, 4.49002, 58.3309
27, 0.00000, 2400.45, -121.671, 0, 0, 4.54651, -121.671, 4.54651, 58.3288
28, 0.00000, 2400.32, -121.674, 0, 0, 4.59674, -121.674, 4.59674, 58.326
29, 0.00000, 2397.4, -121.739, 0, 0, 5.11871, -121.739, 5.11871, 58.2613
30, 0.00000, 2394.46, -121.805, 0, 0, 6.16911, -121.805, 6.16911, 58.195
31, 0.00000, 2381.06, -122.438, 0, 0, 7.36794, -122.439, 7.36794, 57.5614
32, 0.00000, 2381.1, -122.436, 0, 0, 6.76756, -122.436, 6.76756, 57.5637
33, 0.00000, 2370.95, -122.659, 0, 0, 6.36105, -122.659, 6.36105, 57.3411
34, 0.00000, 2370.53, -122.667, 0, 0, 5.46075, -122.667, 5.46075, 57.3332
35, 0.00000, 2371.29, -122.65, 0, 0, 4.69583, -122.65, 4.69583, 57.3496
36, 0.00000, 2370.27, -122.672, 0, 0, 4.84772, -122.672, 4.84772, 57.3277
37, 0.00000, 2372.76, -122.618, 0, 0, 4.73924, -122.618, 4.73924, 57.3817
38, 0.00000, 2370.69, -122.663, 0, 0, 4.45546, -122.661, 4.45546, 57.3385
39, 0.00000, 2371.3, -122.649, 0, 0, 4.32093, -122.65, 4.32093, 57.3501
40, 0.00000, 2371.33, -122.649, 0, 0, 4.60969, -122.649, 4.60969, 57.3512
41, 0.00000, 2370.08, -122.676, 0, 0, 6.20214, -122.676, 6.20214, 57.3243
42, 0.00000, 2381.74, -122.423, 0, 0, 7.81886, -122.423, 7.81886, 57.5767
43, 0.00000, 2391.88, -122.199, 0, 0, 8.97498, -122.199, 8.97498, 57.8012
44, 0.00000, 2391.55, -122.206, 0, 0, 8.85224, -122.206, 8.85224, 57.7942
45, 0.00000, 2396.16, -122.104, 0, 0, 8.8533, -122.104, 8.8533, 57.8964
46, 0.00000, 2397.07, -122.084, 0, 0, 7.79904, -122.084, 7.79904, 57.9164
47, 0.00000, 2412.92, -121.729, 0, 0, 6.45174, -121.729, 6.45174, 58.2708
48, 0.00000, 2413.93, -121.707, 0, 0, 5.41719, -121.707, 5.41719, 58.2932
49, 0.00000, 2414.15, -121.702, 0, 0, 4.8119, -121.702, 4.8119, 58.2979
50, 0.00000, 2414.26, -121.7, 0, 0, 4.83986, -121.7, 4.83986, 58.3002
51, 0.00000, 2414.16, -121.702, 0, 0, 4.91503, -121.702, 4.91503, 58.2982
52, 0.00000, 2413.31, -121.721, 0, 0, 4.98818, -121.72, 4.98818, 58.2799
53, 0.00000, 2409.67, -121.802, 0, 0, 5.52766, -121.802, 5.52766, 58.1985
54, 0.00000, 2408.43, -121.829, 0, 0, 6.5902, -121.829, 6.5902, 58.1709
55, 0.00000, 2379.95, -122.463, 0, 0, 7.92725, -122.463, 7.92725, 57.5372
56, 0.00000, 2381.01, -122.438, 0, 0, 7.16034, -122.439, 7.16034, 57.5615
57, 0.00000, 2371.89, -122.638, 0, 0, 6.46325, -122.638, 6.46325, 57.3621
58, 0.00000, 2370.23, -122.673, 0, 0, 5.57977, -122.673, 5.57977, 57.3268
59, 0.00000, 2371.1, -122.654, 0, 0, 4.90531, -122.655, 4.90531, 57.3452
60, 0.00000, 0, 0, 0, 0, 0, 0, 0, 0
61, 0.00000, 0, 0, 0, 0, 0, 0, 0, 0
62, 0.00000, 0, 0, 0, 0, 0, 0, 0, 0
63, 0.00000, 0, 0, 0, 0, 0, 0, 0, 0
64, 0.00000, 0, 0, 0, 0, 0, 0, 0, 0
65, 0.00000, 0, 0, 0, 0, 0, 0, 0, 0
66, 0.00000, 0, 0, 0, 0, 0, 0, 0, 0
67, 0.00000, 0, 0, 0, 0, 0, 0, 0, 0
68, 0.00000, 0, 0, 0, 0, 0, 0, 0, 0
69, 0.00000, 0, 0, 0, 0, 0, 0, 0, 0
70, 0.00000, 0, 0, 0, 0, 0, 0, 0, 0
71, 0.00000, 0, 0, 0, 0, 0, 0, 0, 0
72, 0.00000, 0, 0, 0, 0, 0, 0, 0, 0
73, 0.00000, 0, 0, 0, 0, 0, 0, 0, 0
74, 0.00000, 0, 0, 0, 0, 0, 0, 0, 0
75, 0.00000, 0, 0, 0, 0, 0, 0, 0, 0
76, 0.00000, 0, 0, 0, 0, 0, 0, 0, 0
77, 0.00000, 0, 0, 0, 0, 0, 0, 0, 0
78, 0.00000, 0, 0, 0, 0, 0, 0, 0, 0
79, 0.00000, 0, 0, 0, 0, 0, 0, 0, 0
80, 0.00000, 0, 0, 0, 0, 0, 0, 0, 0
81, 0.00000, 0, 0, 0, 0, 0, 0, 0, 0
82, 0.00000, 0, 0, 0, 0, 0, 0, 0, 0
83, 0.00000, 0, 0, 0, 0, 0, 0, 0, 0
84, 0.00000, 0, 0, 0, 0, 0, 0, 0, 0
85, 0.00000, 0, 0, 0, 0, 0, 0, 0, 0
86, 0.00000, 0, 0, 0, 0, 0, 0, 0, 0
87, 0.00000, 0, 0, 0, 0, 0, 0, 0, 0
88, 0.00000, 0, 0, 0, 0, 0, 0, 0, 0
89, 0.00000, 0, 0, 0, 0, 0, 0, 0, 0
90, 0.00000, 0, 0, 0, 0, 0, 0, 0, 0
91, 0.00000, 0, 0, 0, 0, 0, 0, 0, 0
92, 0.00000, 0, 0, 0, 0, 0, 0, 0, 0
93, 0.00000, 0, 0, 0, 0, 0, 0, 0, 0
94, 0.00000, 0, 0, 0, 0, 0, 0, 0, 0
95, 0.00000, 0, 0, 0, 0, 0, 0, 0, 0
96, 0.00000, 0, 0, 0, 0, 0, 0, 0, 0
97, 0.00000, 0, 0, 0, 0, 0, 0, 0, 0
98, 0.00000, 0, 0, 0, 0, 0, 0, 0, 0
99, 0.00000, 0, 0, 0, 0, 0, 0, 0, 0
100, 0.00000, 0, 0, 0, 0, 0, 0, 0, 0
101, 0.00000, 0, 0, 0, 0, 0, 0, 0, 0
102, 0.00000, 0, 0, 0, 0, 0, 0, 0, 0
103, 0.00000, 0, 0, 0, 0, 0, 0, 0, 0
104, 0.00000, 0, 0, 0, 0, 0, 0, 0, 0
105, 0.00000, 0, 0, 0, 0, 0, 0, 0, 0
106, 0.00000, 0, 0, 0, 0, 0, 0, 0, 0
107, 0.00000, 0, 0, 0, 0, 0, 0, 0, 0
108, 0.00000, 0, 0, 0, 0, 0, 0, 0, 0
109, 0.00000, 0, 0, 0, 0, 0, 0, 0, 0
110, 0.00000, 0, 0, 0, 0, 0, 0, 0, 0
111, 0.00000, 0, 0, 0, 0, 0, 0, 0, 0
112, 0.00000, 0, 0, 0, 0, 0, 0, 0, 0
113, 0.00000, 0, 0, 0, 0, 0, 0, 0, 0
114, 0.00000, 0, 0, 0, 0, 0, 0, 0, 0
115, 0.00000, 0, 0, 0, 0, 0, 0, 0, 0
116, 0.00000, 0, 0, 0, 0, 0, 0, 0, 0
117, 0.00000, 0, 0, 0, 0, 0, 0, 0, 0
118, 0.00000, 0, 0, 0, 0, 0, 0, 0, 0
119, 0.00000, 0, 0, 0, 0, 0, 0, 0, 0
120, 0.00000, 0, 0, 0, 0, 0, 0, 0, 0
121, 0.00000, 0, 0, 0, 0, 0, 0, 0, 0
122, 0.00000, 0, 0, 0, 0, 0, 0, 0, 0
123, 0.00000, 0, 0, 0, 0, 0, 0, 0, 0
124, 0.00000, 0, 0, 0, 0, 0, 0, 0, 0
125, 0.00000, 0, 0, 0, 0, 0, 0, 0, 0
126, 0.00000, 0, 0, 0, 0, 0, 0, 0, 0
127, 0.00000, 0, 0, 0, 0, 0, 0, 0, 0
128, 0.00000, 0, 0, 0, 0, 0, 0, 0, 0
129, 0.00000, 0, 0, 0, 0, 0, 0, 0, 0
130, 0.00000, 0, 0, 0, 0, 0, 0, 0, 0
131, 0.00000, 0, 0, 0, 0, 0, 0, 0, 0
132, 0.00000, 0, 0, 0, 0, 0, 0, 0, 0
133, 0.00000, 0, 0, 0, 0, 0, 0, 0, 0
134, 0.00000, 0, 0, 0, 0, 0, 0, 0, 0
135, 0.00000, 0, 0, 0, 0, 0, 0, 0, 0
136, 0.00000, 0, 0, 0, 0, 0, 0, 0, 0
137, 0.00000, 0, 0, 0, 0, 0, 0, 0, 0
138, 0.00000, 0, 0, 0, 0, 0, 0, 0, 0
139, 0.00000, 0, 0, 0, 0, 0, 0, 0, 0
140, 0.00000, 0, 0, 0, 0, 0, 0, 0, 0
141, 0.00000, 0, 0, 0, 0, 0, 0, 0, 0
142, 0.00000, 0, 0, 0, 0, 0, 0, 0, 0
143, 0.00000, 0, 0, 0, 0, 0, 0, 0, 0
144, 0.00000, 0, 0, 0, 0, 0, 0, 0, 0
145, 0.00000, 0, 0, 0, 0, 0, 0, 0, 0
146, 0.00000, 0, 0, 0, 0, 0, 0, 0, 0
147, 0.00000, 0, 0, 0, 0, 0, 0, 0, 0
148, 0.00000, 0, 0, 0, 0, 0, 0, 0, 0
149, 0.00000, 0, 0, 0, 0, 0, 0, 0, 0
150, 0.00000, 0, 0, 0, 0, 0, 0, 0, 0
151, 0.00000, 0, 0, 0, 0, 0, 0, 0, 0
152, 0.00000, 0, 0, 0, 0, 0, 0, 0, 0
153, 0.00000, 0, 0, 0, 0, 0, 0, 0, 0
154, 0.00000, 0, 0, 0, 0, 0, 0, 0, 0
155, 0.00000, 0, 0, 0, 0, 0, 0, 0, 0
156, 0.00000, 0, 0, 0, 0, 0, 0, 0, 0
157, 0.00000, 0, 0, 0, 0, 0, 0, 0, 0
158, 0.00000, 0, 0, 0, 0, 0, 0, 0, 0
159, 0.00000, 0, 0, 0, 0, 0, 0, 0, 0
160, 0.00000, 0, 0, 0, 0, 0, 0, 0, 0
161, 0.00000, 0, 0, 0, 0, 0, 0, 0, 0
162, 0.00000, 0, 0, 0, 0, 0, 0, 0, 0
163, 0.00000, 0, 0, 0, 0, 0, 0, 0, 0
164, 0.00000, 0, 0, 0, 0, 0, 0, 0, 0
165, 0.00000, 0, 0, 0, 0, 0, 0, 0, 0
166, 0.00000, 0, 0, 0, 0, 0, 0, 0, 0
167, 0.00000, 0, 0, 0, 0, 0, 0, 0, 0
168, 0.00000, 0, 0, 0, 0, 0, 0, 0, 0
169, 0.00000, 0, 0, 0, 0, 0, 0, 0, 0
170, 0.00000, 0, 0, 0, 0, 0, 0, 0, 0
171, 0.00000, 0, 0, 0, 0, 0, 0, 0, 0
172, 0.00000, 0, 0, 0, 0, 0, 0, 0, 0
173, 0.00000, 0, 0, 0, 0, 0, 0, 0, 0
174, 0.00000, 0, 0, 0, 0, 0, 0, 0, 0
175, 0.00000, 0, 0, 0, 0, 0, 0, 0, 0
176, 0.00000, 0, 0, 0, 0, 0, 0, 0, 0
177, 0.00000, 0, 0, 0, 0, 0, 0, 0, 0
178, 0.00000, 0, 0, 0, 0, 0, 0, 0, 0
179, 0.00000, 0, 0, 0, 0, 0, 0, 0, 0
180, 0.00000, 2462.95, -120.588, 0, 0, 9.13826, -120.588, 9.13826, 59.4125
181, 0.00000, 2413.56, -121.715, 0, 0, 9.58587, -121.715, 9.58587, 58.2846
182, 0.00000, 2414.2, -121.701, 0, 0, 10.3027, -121.701, 10.3027, 58.2992
183, 0.00000, 2412.4, -121.742, 0, 0, 11.255, -121.742, 11.255, 58.2584
184, 0.00000, 2413.5, -121.717, 0, 0, 11.5121, -121.716, 11.5121, 58.2837
185, 0.00000, 2412.92, -121.73, 0, 0, 12.1641, -121.73, 12.1641, 58.27
186, 0.00000, 2412.96, -121.729, 0, 0, 12.1755, -121.729, 12.1755, 58.2714
187, 0.00000, 2412.06, -121.748, 0, 0, 11.6019, -121.748, 11.6019, 58.2519
188, 0.00000, 2412.95, -121.728, 0, 0, 10.1988, -121.728, 10.1988, 58.2723
189, 0.00000, 2414, -121.704, 0, 0, 9.30403, -121.705, 9.30403, 58.2955
190, 0.00000, 2414.79, -121.687, 0, 0, 7.78923, -121.687, 7.78923, 58.3132
191, 0.00000, 2416.3, -121.653, 0, 0, 6.03341, -121.653, 6.03341, 58.3465
192, 0.00000, 2417, -121.638, 0, 0, 4.67575, -121.638, 4.67575, 58.3616
193, 0.00000, 2416.64, -121.647, 0, 0, 3.886, -121.647, 3.886, 58.3535
194, 0.00000, 2416.35, -121.653, 0, 0, 3.83798, -121.653, 3.83798, 58.3468
195, 0.00000, 2416.1, -121.659, 0, 0, 3.86004, -121.659, 3.86004, 58.341
196, 0.00000, 2415.85, -121.664, 0, 0, 3.91437, -121.664, 3.91437, 58.3357
197, 0.00000, 2412.92, -121.729, 0, 0, 4.4104, -121.729, 4.4104, 58.2712
198, 0.00000, 2411.83, -121.753, 0, 0, 5.4082, -121.753, 5.4082, 58.2469
199, 0.00000, 2391.07, -122.216, 0, 0, 6.59828, -122.216, 6.59828, 57.7845
200, 0.00000, 2387.45, -122.295, 0, 0, 6.04271, -122.295, 6.04271, 57.7051
201, 0.00000, 2374.67, -122.576, 0, 0, 5.8261, -122.576, 5.8261, 57.424
202, 0.00000, 2371.39, -122.647, 0, 0, 5.74043, -122.647, 5.74043, 57.3528
203, 0.00000, 2370.45, -122.668, 0, 0, 6.36594, -122.669, 6.36594, 57.3308
204, 0.00000, 2368.29, -122.716, 0, 0, 7.9546, -122.716, 7.9546, 57.2841
205, 0.00000, 2369.72, -122.685, 0, 0, 9.29625, -122.684, 9.29625, 57.3157
206, 0.00000, 2365.38, -122.78, 0, 0, 10.2487, -122.78, 10.2487, 57.2198
207, 0.00000, 2364.46, -122.801, 0, 0, 11.1955, -122.801, 11.1955, 57.1993
208, 0.00000, 2365.57, -122.776, 0, 0, 10.4556, -122.777, 10.4556, 57.2229
209, 0.00000, 2365.63, -122.775, 0, 0, 10.9554, -122.775, 10.9554, 57.2249
210, 0.00000, 2381.62, -122.426, 0, 0, 10.7902, -122.427, 10.7902, 57.5733
211, 0.00000, 2393.21, -122.169, 0, 0, 10.691, -122.169, 10.691, 57.8311
212, 0.00000, 2393.66, -122.159, 0, 0, 9.67855, -122.159, 9.67855, 57.8412
213, 0.00000, 2399.24, -122.035, 0, 0, 9.2347, -122.035, 9.2347, 57.9651
214, 0.00000, 2400.28, -122.012, 0, 0, 7.96457, -122.012, 7.96457, 57.9882
215, 0.00000, 2413.31, -121.72, 0, 0, 6.31073, -121.72, 6.31073, 58.2799
216, 0.00000, 2414.56, -121.692, 0, 0, 4.96257, -121.693, 4.96257, 58.3075
217, 0.00000, 2415.48, -121.672, 0, 0, 4.08891, -121.672, 4.08891, 58.328
218, 0.00000, 2415.79, -121.665, 0, 0, 3.94759, -121.665, 3.94759, 58.3347
219, 0.00000, 2416.02, -121.66, 0, 0, 3.81081, -121.66, 3.81081, 58.3399
220, 0.00000, 2416.12, -121.658, 0, 0, 3.75249, -121.658, 3.75249, 58.342
221, 0.00000, 2413.19, -121.722, 0, 0, 4.20859, -121.722, 4.20859, 58.2776
222, 0.00000, 2411.85, -121.752, 0, 0, 5.18839, -121.752, 5.18839, 58.2478
223, 0.00000, 2395.33, -122.12, 0, 0, 6.4144, -122.12, 6.4144, 57.8802
224, 0.00000, 2389.04, -122.259, 0, 0, 6.17272, -122.259, 6.17272, 57.7409
225, 0.00000, 2371.95, -122.636, 0, 0, 6.94937, -122.636, 6.94937, 57.3638
226, 0.00000, 2367.63, -122.73, 0, 0, 7.69366, -122.73, 7.69366, 57.2696
227, 0.00000, 2365.7, -122.773, 0, 0, 9.25839, -122.772, 9.25839, 57.2284
228, 0.00000, 2363.83, -122.814, 0, 0, 10.1746, -122.814, 10.1746, 57.1856
229, 0.00000, 2367.55, -122.733, 0, 0, 9.5157, -122.733, 9.5157, 57.2667
230, 0.00000, 2364.23, -122.806, 0, 0, 9.47796, -122.803, 9.47796, 57.1974
231, 0.00000, 2364.54, -122.799, 0, 0, 9.54036, -122.799, 9.54036, 57.2011
232, 0.00000, 2364.93, -122.79, 0, 0, 9.20787, -122.79, 9.20787, 57.2096
233, 0.00000, 2364.03, -122.81, 0, 0, 10.2637, -122.809, 10.2637, 57.1909
234, 0.00000, 2378.99, -122.485, 0, 0, 11.1817, -122.485, 11.1817, 57.5149
235, 0.00000, 2390.97, -122.219, 0, 0, 11.505, -122.219, 11.505, 57.7808
236, 0.00000, 2391.86, -122.199, 0, 0, 10.8194, -122.199, 10.8194, 57.8013
237, 0.00000, 2398.28, -122.056, 0, 0, 10.5188, -122.056, 10.5188, 57.9438
238, 0.00000, 2400.42, -122.009, 0, 0, 8.86143, -122.009, 8.86143, 57.9913
239, 0.00000, 2413.84, -121.709, 0, 0, 6.70746, -121.709, 6.70746, 58.2914
240, 0.00000, 2415.12, -121.68, 0, 0, 5.10612, -121.68, 5.10612, 58.32
241, 0.00000, 2415.81, -121.665, 0, 0, 4.07334, -121.665, 4.07334, 58.3354
242, 0.00000, 2416.1, -121.658, 0, 0, 3.805, -121.658, 3.805, 58.3416
243, 0.00000, 2416.3, -121.654, 0, 0, 3.67903, -121.654, 3.67903, 58.3461
244, 0.00000, 2416.47, -121.65, 0, 0, 3.62849, -121.65, 3.62849, 58.3497
245, 0.00000, 2413.84, -121.708, 0, 0, 4.07335, -121.708, 4.07335, 58.2918
246, 0.00000, 2412.59, -121.736, 0, 0, 5.03802, -121.736, 5.03802, 58.264
247, 0.00000, 2395.58, -122.115, 0, 0, 6.19942, -122.115, 6.19942, 57.8852
248, 0.00000, 2389.62, -122.246, 0, 0, 5.69833, -122.246, 5.69833, 57.7537
249, 0.00000, 2373.81, -122.595, 0, 0, 5.65015, -122.595, 5.65015, 57.4049
250, 0.00000, 2370.4, -122.669, 0, 0, 5.08851, -122.669, 5.08851, 57.3308
251, 0.00000, 2370.17, -122.674, 0, 0, 4.54711, -122.674, 4.54711, 57.326
252, 0.00000, 2369.21, -122.695, 0, 0, 5.18359, -122.695, 5.18359, 57.3047
253, 0.00000, 2369.95, -122.68, 0, 0, 7.12105, -122.681, 7.12105, 57.3193
254, 0.00000, 2363.63, -122.819, 0, 0, 9.64097, -122.819, 9.64097, 57.1814
255, 0.00000, 2362.15, -122.852, 0, 0, 11.2105, -122.85, 11.2105, 57.1496
256, 0.00000, 2361.6, -122.863, 0, 0, 11.6093, -122.863, 11.6093, 57.1369
257, 0.00000, 2361.66, -122.862, 0, 0, 12.0508, -122.862, 12.0508, 57.1376
258, 0.00000, 2378.34, -122.499, 0, 0, 11.4973, -122.5, 11.4973, 57.5005
259, 0.00000, 2390.63, -122.226, 0, 0, 11.8617, -122.227, 11.8617, 57.7733
260, 0.00000, 2392.23, -122.191, 0, 0, 10.4034, -122.191, 10.4034, 57.8094
261, 0.00000, 2399.33, -122.033, 0, 0, 9.07575, -122.033, 9.07575, 57.9671
262, 0.00000, 2401.5, -121.985, 0, 0, 7.66743, -121.985, 7.66743, 58.0152
263, 0.00000, 2414.43, -121.696, 0, 0, 6.01463, -121.696, 6.01463, 58.3044
264, 0.00000, 2415.8, -121.665, 0, 0, 4.68036, -121.665, 4.68036, 58.3349
265, 0.00000, 2416.52, -121.649, 0, 0, 3.84956, -121.649, 3.84956, 58.3509
266, 0.00000, 2416.6, -121.648, 0, 0, 3.73955, -121.648, 3.73955, 58.3524
267, 0.00000, 2416.74, -121.644, 0, 0, 3.7075, -121.644, 3.7075, 58.3556
268, 0.00000, 2416.82, -121.643, 0, 0, 3.71016, -121.643, 3.71016, 58.3572
269, 0.00000, 2413.97, -121.705, 0, 0, 4.17047, -121.705, 4.17047, 58.2947
270, 0.00000, 2412.4, -121.74, 0, 0, 5.1414, -121.74, 5.1414, 58.2597
271, 0.00000, 2393.63, -122.158, 0, 0, 6.33282, -122.158, 6.33282, 57.8417
272, 0.00000, 2386.96, -122.306, 0, 0, 5.92527, -122.306, 5.92527, 57.6944
273, 0.00000, 2370.22, -122.675, 0, 0, 6.00925, -122.675, 6.00925, 57.3255
274, 0.00000, 2366.8, -122.749, 0, 0, 5.56121, -122.749, 5.56121, 57.2512
275, 0.00000, 2366.96, -122.745, 0, 0, 5.08567, -122.745, 5.08567, 57.2546
276, 0.00000, 2367.89, -122.725, 0, 0, 5.10036, -122.725, 5.10036, 57.2752
277, 0.00000, 2372.97, -122.613, 0, 0, 4.75711, -122.614, 4.75711, 57.3865
278, 0.00000, 2370.73, -122.662, 0, 0, 4.67252, -122.662, 4.67252, 57.3384
279, 0.00000, 2371.51, -122.645, 0, 0, 4.6054, -122.645, 4.6054, 57.3552
280, 0.00000, 2371.37, -122.648, 0, 0, 4.85292, -122.648, 4.85292, 57.3521
281, 0.00000, 2369.58, -122.688, 0, 0, 6.43752, -122.687, 6.43752, 57.3126
282, 0.00000, 2382.31, -122.41, 0, 0, 7.8593, -122.411, 7.8593, 57.5894
283, 0.00000, 2391.52, -122.206, 0, 0, 9.25593, -122.206, 9.25593, 57.7935
284, 0.00000, 2391.4, -122.209, 0, 0, 9.10173, -122.209, 9.10173, 57.791
285, 0.00000, 2396.82, -122.089, 0, 0, 9.06867, -122.089, 9.06867, 57.911
286, 0.00000, 2397.13, -122.082, 0, 0, 8.03055, -122.082, 8.03055, 57.9178
287, 0.00000, 2412.77, -121.733, 0, 0, 6.60241, -121.733, 6.60241, 58.2674
288, 0.00000, 2413.83, -121.709, 0, 0, 5.49201, -121.709, 5.49201, 58.291
289, 0.00000, 2414.59, -121.692, 0, 0, 4.90207, -121.692, 4.90207, 58.3078
290, 0.00000, 2414.12, -121.703, 0, 0, 4.94642, -121.702, 4.94642, 58.2975
291, 0.00000, 2414.45, -121.695, 0, 0, 5.02285, -121.696, 5.02285, 58.3045
292, 0.00000, 2412.96, -121.729, 0, 0, 5.09971, -121.728, 5.09971, 58.2717
293, 0.00000, 2410.01, -121.794, 0, 0, 5.63916, -121.794, 5.63916, 58.2063
294, 0.00000, 2408.43, -121.829, 0, 0, 6.67835, -121.829, 6.67835, 58.1711
295, 0.00000, 2381.43, -122.43, 0, 0, 7.89938, -122.43, 7.89938, 57.57
296, 0.00000, 2380.64, -122.446, 0, 0, 7.3393, -122.447, 7.3393, 57.5535
297, 0.00000, 2369.78, -122.685, 0, 0, 6.88966, -122.684, 6.88966, 57.3156
298, 0.00000, 2370.29, -122.672, 0, 0, 5.71195, -122.672, 5.71195, 57.3282
299, 0.00000, 2371.63, -122.642, 0, 0, 4.77027, -122.642, 4.77027, 57.3576
300, 0.00000, 2371.22, -122.651, 0, 0, 4.66333, -122.651, 4.66333, 57.3489
