hour, t(sec), V1, VAngle1, V2, VAngle2, V3, VAngle3, I1, IAngle1, I2, IAngle2, I3, IAngle3
1, 0.00000, 2427.73, -1.74652, 2402.35, -121.509, 2373.12, 115.116, 4.6505, -2.35905, 4.71386, -122.595, 4.66579, 116.848
2, 0.00000, 2427.28, -1.76387, 2402.45, -121.497, 2371.46, 115.072, 4.5387, -2.36845, 4.60155, -122.606, 4.55403, 116.827
3, 0.00000, 2426.74, -1.77287, 2402.4, -121.504, 2372.18, 115.09, 4.53866, -2.37351, 4.60129, -122.604, 4.55434, 116.828
4, 0.00000, 2426.59, -1.77581, 2402.38, -121.505, 2372.3, 115.093, 4.53864, -2.37509, 4.60121, -122.604, 4.55445, 116.828
5, 0.00000, 2425.7, -1.81583, 2401.16, -121.511, 2366.28, 114.942, 4.53793, -2.41607, 4.60306, -122.671, 4.55324, 116.746
6, 0.00000, 2425.87, -1.81484, 2400.67, -121.519, 2364.68, 114.905, 4.53801, -2.42191, 4.60351, -122.688, 4.55269, 116.73
7, 0.00000, 2422.81, -1.97121, 2396.65, -121.51, 2339.38, 114.272, 4.53473, -2.57371, 4.61171, -122.954, 4.54742, 116.395
8, 0.00000, 2424.52, -1.93848, 2403.54, -121.339, 2339.32, 114.27, 1.80504, -2.49187, 1.83754, -122.865, 1.81122, 116.429
9, 0.00000, 2438.88, -2.03688, 2402.46, -121.268, 2318.2, 113.743, 1.26015, -2.57031, 1.28374, -123.1, 1.26191, 116.235
10, 0.00000, 2440.64, -1.97652, 2403.32, -121.277, 2325.21, 113.914, 1.26049, -2.52401, 1.28314, -123.032, 1.2622, 116.33
11, 0.00000, 2433.65, -2.09239, 2404.04, -121.299, 2333.13, 114.109, 1.2601, -2.57045, 1.28223, -122.974, 1.26354, 116.357
12, 0.00000, 2430.43, -2.15487, 2404.04, -121.304, 2333.81, 114.127, 1.25983, -2.60241, 1.28208, -122.974, 1.26396, 116.337
13, 0.00000, 2426.98, -2.22029, 2404.23, -121.304, 2334.77, 114.151, 1.25953, -2.63347, 1.28193, -122.97, 1.26442, 116.318
14, 0.00000, 2426.92, -2.21584, 2404.53, -121.303, 2336.35, 114.19, 1.25955, -2.62687, 1.28181, -122.954, 1.26453, 116.334
15, 0.00000, 2427.7, -2.20155, 2404.48, -121.303, 2336.04, 114.182, 1.25961, -2.62029, 1.28183, -122.954, 1.26444, 116.339
16, 0.00000, 2428.18, -2.19243, 2404.31, -121.306, 2335.71, 114.175, 1.25967, -2.61736, 1.28186, -122.958, 1.26435, 116.34
17, 0.00000, 2428.23, -2.17973, 2404.15, -121.321, 2337.32, 114.222, 1.25979, -2.61017, 1.2817, -122.948, 1.2644, 116.36
18, 0.00000, 2431.6, -2.10298, 2399.93, -121.427, 2337.65, 114.236, 2.89835, -2.60879, 2.94593, -122.989, 2.90564, 116.387
19, 0.00000, 2431.74, -2.11079, 2395.77, -121.506, 2333.45, 114.135, 4.53726, -2.65529, 4.61087, -123.07, 4.54579, 116.332
20, 0.00000, 2433.84, -2.07011, 2395.94, -121.497, 2333.08, 114.124, 4.53776, -2.63381, 4.61121, -123.067, 4.54494, 116.346
21, 0.00000, 2435.84, -2.00982, 2397.04, -121.488, 2338.28, 114.254, 4.53872, -2.58405, 4.60979, -123.006, 4.54547, 116.427
22, 0.00000, 2438.86, -1.94001, 2397.8, -121.479, 2341.32, 114.325, 4.54474, -2.53699, 4.61415, -122.966, 4.55011, 116.49
23, 0.00000, 2445.35, -1.75106, 2399.68, -121.497, 2356.53, 114.702, 4.75338, -2.40368, 4.81729, -122.808, 4.75637, 116.726
24, 0.00000, 2440.12, -1.82592, 2400.77, -121.522, 2367.04, 114.965, 4.86041, -2.41987, 4.92176, -122.721, 4.86907, 116.803
25, 0.00000, 2442.73, -1.76176, 2400.37, -121.543, 2370.01, 115.037, 4.92473, -2.38654, 4.98411, -122.696, 4.93146, 116.86
26, 0.00000, 2443.88, -1.73558, 2400.21, -121.549, 2370.4, 115.047, 5.02127, -2.37489, 5.08114, -122.693, 5.02713, 116.874
27, 0.00000, 2444.15, -1.72635, 2400.19, -121.554, 2371.25, 115.069, 5.07244, -2.36887, 5.13232, -122.687, 5.07813, 116.886
28, 0.00000, 2444.34, -1.72089, 2400.09, -121.558, 2371.55, 115.077, 5.15951, -2.36627, 5.22005, -122.684, 5.16508, 116.892
29, 0.00000, 2444.41, -1.81265, 2395.45, -121.569, 2346.39, 114.442, 5.1735, -2.49187, 5.2458, -122.953, 5.17369, 116.583
30, 0.00000, 2444.9, -1.8245, 2392.06, -121.621, 2339.45, 114.271, 5.28696, -2.53703, 5.36208, -123.048, 5.28373, 116.5
31, 0.00000, 2441.21, -2.12867, 2374.44, -122.119, 2292.88, 112.772, 5.97821, -3.05787, 6.08464, -123.889, 5.95626, 115.636
32, 0.00000, 2441.63, -2.21905, 2373.1, -122.07, 2267.67, 112.166, 7.33167, -3.13922, 7.47972, -124.117, 7.29707, 115.36
33, 0.00000, 2428.25, -2.50409, 2362.68, -122.308, 2264.76, 112.094, 10.5677, -3.3834, 10.778, -124.295, 10.527, 115.165
34, 0.00000, 2421.15, -2.67807, 2361.89, -122.311, 2257.44, 111.917, 12.7594, -3.43634, 13.0478, -124.383, 12.7209, 114.96
35, 0.00000, 2421.49, -2.67283, 2362.67, -122.298, 2257.96, 111.927, 12.7603, -3.43182, 13.0479, -124.373, 12.7226, 114.971
36, 0.00000, 2417.22, -2.77811, 2361.37, -122.309, 2252.24, 111.794, 12.7407, -3.46173, 13.0517, -124.442, 12.7076, 114.828
37, 0.00000, 2419.94, -2.70999, 2364.07, -122.255, 2256.08, 111.885, 11.4934, -3.4247, 11.7631, -124.371, 11.4639, 114.929
38, 0.00000, 2419.12, -2.74696, 2361.71, -122.297, 2251.07, 111.766, 12.74, -3.43976, 13.0538, -124.446, 12.7032, 114.825
39, 0.00000, 2419.48, -2.73787, 2362.36, -122.285, 2251.78, 111.782, 12.7422, -3.43421, 13.0533, -124.431, 12.7057, 114.846
40, 0.00000, 2419.84, -2.73236, 2362.38, -122.284, 2251.1, 111.766, 12.741, -3.42829, 13.0542, -124.436, 12.7034, 114.838
41, 0.00000, 2419.76, -2.73496, 2361.12, -122.31, 2249.35, 111.73, 12.7382, -3.43151, 13.055, -124.465, 12.6975, 114.807
42, 0.00000, 2423.71, -2.65968, 2372.91, -122.013, 2246.63, 111.679, 5.69749, -3.26971, 5.85113, -124.326, 5.68346, 114.854
43, 0.00000, 2426.03, -2.44125, 2385.57, -121.867, 2290.4, 112.724, 4.63162, -3.12445, 4.72732, -123.805, 4.63203, 115.507
44, 0.00000, 2428.18, -2.40076, 2385.17, -121.871, 2289.91, 112.711, 4.73605, -3.10631, 4.83329, -123.809, 4.73454, 115.52
45, 0.00000, 2432.14, -2.21145, 2391.52, -121.83, 2319.07, 113.418, 4.86013, -2.92029, 4.9482, -123.485, 4.86284, 115.896
46, 0.00000, 2441.07, -1.98772, 2393.03, -121.835, 2330.78, 113.699, 4.92705, -2.77725, 5.00868, -123.355, 4.92491, 116.109
47, 0.00000, 2446.42, -1.76103, 2411.13, -121.555, 2362.55, 114.484, 5.04971, -2.45852, 5.12765, -122.873, 5.0572, 116.568
48, 0.00000, 2441.3, -1.83982, 2412.75, -121.559, 2371.54, 114.706, 5.12613, -2.47467, 5.20257, -122.794, 5.13984, 116.627
49, 0.00000, 2444.48, -1.76165, 2413.13, -121.562, 2374.84, 114.786, 5.25066, -2.42635, 5.32631, -122.755, 5.26257, 116.695
50, 0.00000, 2445.27, -1.73867, 2413.35, -121.564, 2376.43, 114.826, 5.2576, -2.41133, 5.33241, -122.739, 5.26912, 116.719
51, 0.00000, 2445.1, -1.73359, 2413.42, -121.572, 2378.63, 114.882, 5.41546, -2.40484, 5.49123, -122.721, 5.42765, 116.743
52, 0.00000, 2445.23, -1.73032, 2412.56, -121.591, 2378.64, 114.882, 5.34452, -2.40935, 5.41837, -122.727, 5.35594, 116.746
53, 0.00000, 2443.36, -1.8657, 2407.19, -121.617, 2352.9, 114.24, 5.51166, -2.56401, 5.60027, -123.012, 5.51886, 116.414
54, 0.00000, 2444.06, -1.87689, 2405.48, -121.626, 2345.03, 114.049, 5.38384, -2.59391, 5.47352, -123.093, 5.3882, 116.328
55, 0.00000, 2440.25, -2.18142, 2372.85, -122.124, 2283.79, 112.555, 5.97724, -3.10736, 6.08821, -123.984, 5.95343, 115.525
56, 0.00000, 2441.52, -2.25293, 2372.6, -122.054, 2259.19, 111.968, 7.3185, -3.15496, 7.47718, -124.201, 7.28185, 115.235
57, 0.00000, 2429.16, -2.5142, 2363.27, -122.271, 2257.41, 111.92, 10.5534, -3.34821, 10.7845, -124.348, 10.5092, 115.055
58, 0.00000, 2422.38, -2.67439, 2361.31, -122.306, 2251.97, 111.789, 12.7487, -3.41419, 13.053, -124.434, 12.7043, 114.881
59, 0.00000, 2422.75, -2.65295, 2362.4, -122.3, 2256.45, 111.892, 12.7594, -3.41825, 13.0493, -124.385, 12.7178, 114.962
60, 0.00000, 0, 0, 0, 0, 0, 0, 0, 0, 0, 0, 0, 0
61, 0.00000, 0, 0, 0, 0, 0, 0, 0, 0, 0, 0, 0, 0
62, 0.00000, 0, 0, 0, 0, 0, 0, 0, 0, 0, 0, 0, 0
63, 0.00000, 0, 0, 0, 0, 0, 0, 0, 0, 0, 0, 0, 0
64, 0.00000, 0, 0, 0, 0, 0, 0, 0, 0, 0, 0, 0, 0
65, 0.00000, 0, 0, 0, 0, 0, 0, 0, 0, 0, 0, 0, 0
66, 0.00000, 0, 0, 0, 0, 0, 0, 0, 0, 0, 0, 0, 0
67, 0.00000, 0, 0, 0, 0, 0, 0, 0, 0, 0, 0, 0, 0
68, 0.00000, 0, 0, 0, 0, 0, 0, 0, 0, 0, 0, 0, 0
69, 0.00000, 0, 0, 0, 0, 0, 0, 0, 0, 0, 0, 0, 0
70, 0.00000, 0, 0, 0, 0, 0, 0, 0, 0, 0, 0, 0, 0
71, 0.00000, 0, 0, 0, 0, 0, 0, 0, 0, 0, 0, 0, 0
72, 0.00000, 0, 0, 0, 0, 0, 0, 0, 0, 0, 0, 0, 0
73, 0.00000, 0, 0, 0, 0, 0, 0, 0, 0, 0, 0, 0, 0
74, 0.00000, 0, 0, 0, 0, 0, 0, 0, 0, 0, 0, 0, 0
75, 0.00000, 0, 0, 0, 0, 0, 0, 0, 0, 0, 0, 0, 0
76, 0.00000, 0, 0, 0, 0, 0, 0, 0, 0, 0, 0, 0, 0
77, 0.00000, 0, 0, 0, 0, 0, 0, 0, 0, 0, 0, 0, 0
78, 0.00000, 0, 0, 0, 0, 0, 0, 0, 0, 0, 0, 0, 0
79, 0.00000, 0, 0, 0, 0, 0, 0, 0, 0, 0, 0, 0, 0
80, 0.00000, 0, 0, 0, 0, 0, 0, 0, 0, 0, 0, 0, 0
81, 0.00000, 0, 0, 0, 0, 0, 0, 0, 0, 0, 0, 0, 0
82, 0.00000, 0, 0, 0, 0, 0, 0, 0, 0, 0, 0, 0, 0
83, 0.00000, 0, 0, 0, 0, 0, 0, 0, 0, 0, 0, 0, 0
84, 0.00000, 0, 0, 0, 0, 0, 0, 0, 0, 0, 0, 0, 0
85, 0.00000, 0, 0, 0, 0, 0, 0, 0, 0, 0, 0, 0, 0
86, 0.00000, 0, 0, 0, 0, 0, 0, 0, 0, 0, 0, 0, 0
87, 0.00000, 0, 0, 0, 0, 0, 0, 0, 0, 0, 0, 0, 0
88, 0.00000, 0, 0, 0, 0, 0, 0, 0, 0, 0, 0, 0, 0
89, 0.00000, 5.70569E8, 160.355, 5.70597E8, 40.3544, 5.70582E8, -79.6483, 1.70425E6, -113.264, 1.70435E6, 126.735, 1.70429E6, 6.73288
90, 0.00000, 1.43812E12, -55.8949, 1.4382E12, -175.898, 1.4381E12, 64.1003, 1.94814E9, 30.5212, 1.94825E9, -89.4817, 1.94811E9, 150.517
91, 0.00000, 2.52144E15, 87.8624, 2.52155E15, -32.1428, 2.5213E15, -152.143, 2.77401E12, 174.278, 2.77416E12, 54.2735, 2.77388E12, -65.7266
92, 0.00000, 4.37008E18, -128.381, 4.37025E18, 111.612, 4.36971E18, -8.38746, 4.81154E15, -41.9652, 4.81176E15, -161.972, 4.81115E15, 78.0291
93, 0.00000, 6.31645E21, 15.3751, 6.31664E21, -104.634, 6.3157E21, 135.368, 7.03922E18, 101.791, 7.03949E18, -18.2176, 7.03842E18, -138.215
94, 0.00000, 8.76439E24, 159.132, 8.76459E24, 39.1205, 8.76306E24, -80.8759, 9.7939E21, -114.452, 9.7942E21, 125.537, 9.79246E21, 5.54066
95, 0.00000, 1.08119E28, -57.1121, 1.08121E28, -177.125, 1.08099E28, 62.88, 1.2177E25, 29.304, 1.21773E25, -90.7087, 1.21748E25, 149.296
96, 0.00000, 1.33468E31, 86.6443, 1.33469E31, -33.3706, 1.33439E31, -153.364, 1.50313E28, 173.06, 1.50316E28, 53.0457, 1.50281E28, -66.9477
97, 0.00000, 1.62527E34, -129.599, 1.62527E34, 110.384, 1.62486E34, -9.60845, 1.83206E31, -43.1833, 1.83207E31, -163.2, 1.83161E31, 76.8081
98, 0.00000, 1.97326E37, 14.1571, 1.97325E37, -105.862, 1.9727E37, 134.147, 2.22477E34, 100.573, 2.22477E34, -19.4454, 2.22415E34, -139.436
99, 0.00000, 2.18795E22, 157.671, 2.18622E22, 37.6913, 2.18763E22, -82.2832, 3.93288E20, -115.888, 3.93014E20, 124.127, 3.93239E20, 4.15415
100, 0.00000, 90.8753, 119.018, 90.1096, -0.8704, 91.4439, -120.836, 0.922029, 25.5226, 0.917603, -94.1162, 0.92484, 145.94
101, 0.00000, 1.03842, 39.6796, 1.03136, -80.1208, 1.04446, 159.948, 0.00876308, -54.0252, 0.00871821, -173.621, 0.00879402, 66.4294
102, 0.00000, 0.0756794, -133.189, 0.0752123, 107.048, 0.0761017, -12.872, 0.000532939, 133.133, 0.00053022, 13.5374, 0.000534833, -106.413
103, 0.00000, 0.000982701, 147.513, 0.000977234, 27.7951, 0.000987876, -92.1188, 0.0000104609, 53.8656, 0.0000104077, -65.7278, 0.0000104984, 174.32
104, 0.00000, 0.0000421645, -25.3421, 0.000041941, -145.038, 0.000042379, 95.0484, 6.24934E-7, -118.976, 6.21763E-7, 121.431, 6.27189E-7, 1.47807
105, 0.00000, 1.42331E-7, -104.596, 1.41614E-7, 135.722, 1.43037E-7, 15.8116, 4.20004E-9, 161.778, 4.17885E-9, 42.1848, 4.21519E-9, -77.7695
106, 0.00000, 6.57658E-10, 176.168, 6.54494E-10, 56.4856, 6.6094E-10, -63.4156, 2.11523E-11, 82.5452, 2.10462E-11, -37.0511, 2.12281E-11, -157.005
107, 0.00000, 1.79306E-11, 3.33193, 1.78467E-11, -116.349, 1.80206E-11, 123.755, 5.81806E-13, -90.2879, 5.7889E-13, 150.116, 5.83889E-13, 30.1612
108, 0.00000, 8.01561E-14, -75.923, 7.97963E-14, 164.4, 8.05609E-14, 44.5116, 2.60717E-15, -169.538, 2.59411E-15, 70.8656, 2.6165E-15, -49.0888
109, 0.00000, 2.07549E-15, 111.227, 2.06634E-15, -8.44071, 2.08586E-15, -128.329, 6.22976E-17, 17.6187, 6.19851E-17, -101.977, 6.25214E-17, 138.068
110, 0.00000, 7.15767E-18, -61.5998, 7.12694E-18, 178.735, 7.19323E-18, 58.8493, 6.53061E-19, -155.205, 6.49794E-19, 85.1975, 6.55397E-19, -34.7572
111, 0.00000, 8.37579E-20, 125.563, 8.34065E-20, 5.90213, 8.41722E-20, -113.981, 4.149E-21, -148.039, 4.12826E-21, 92.3642, 4.16384E-21, -27.5905
112, 0.00000, 1.04393E-21, -47.2738, 1.03965E-21, -166.93, 1.04906E-21, 73.1888, 5.01076E-23, 39.1283, 4.98572E-23, -80.4691, 5.02866E-23, 159.576
113, 0.00000, 3.60514E-23, 139.889, 3.59064E-23, 20.2377, 3.62271E-23, -99.6418, 1.03958E-24, -133.705, 1.03439E-24, 106.698, 1.04329E-24, -13.2572
114, 0.00000, 1.14754E-24, -32.8965, 1.14339E-24, -152.563, 1.15338E-24, 87.5819, 1.543E-26, 53.5157, 1.53537E-26, -66.0899, 1.54836E-26, 173.957
115, 0.00000, 7.45478E-27, 67.838, 7.43422E-27, -51.8425, 7.49786E-27, -171.642, 7.6037E-29, 154.259, 7.56571E-29, 34.6546, 7.63008E-29, -85.2966
116, 0.00000, 2.56415E-28, -105.015, 2.55926E-28, 135.296, 2.5805E-28, 15.5474, 2.63248E-30, -18.5838, 2.61921E-30, -138.187, 2.64161E-30, 101.863
117, 0.00000, 1.26115E-30, -4.30865, 1.26138E-30, -124.006, 1.27078E-30, 116.36, 1.41339E-32, 82.1546, 1.40617E-32, -37.4464, 1.41829E-32, -157.394
118, 0.00000, 5.69512E-33, 96.3598, 5.71586E-33, -23.3255, 5.74813E-33, -142.787, 6.57702E-35, -177.113, 6.54294E-35, 63.2886, 6.59985E-35, -56.6567
119, 0.00000, 1.96477E-35, -163.041, 1.98404E-35, 77.334, 1.98765E-35, -41.8456, 2.48812E-37, -76.3801, 2.47504E-37, 164.024, 2.49676E-37, 44.0817
120, 0.00000, 4.4062E-37, 23.9549, 4.47693E-37, -95.5683, 4.46528E-37, 145.515, 5.643E-39, 110.77, 5.61298E-39, -8.82297, 5.66264E-39, -128.764
121, 0.00000, 3.0012E-39, -149.29, 3.10103E-39, 91.4502, 3.05638E-39, -26.7475, 7.00565E-41, -62.0316, 6.96824E-41, 178.371, 7.02947E-41, 58.4333
122, 0.00000, 1.91754E-41, 36.9448, 2.04225E-41, -81.6322, 1.96588E-41, 161.399, 4.66632E-43, 125.066, 4.6383E-43, 5.47949, 4.68034E-43, -114.456
123, 0.00000, 1.02295E-43, -135.151, 1.03696E-43, 105.773, 1.03696E-43, -13.2146, 2.8026E-45, 131.963, 2.8026E-45, 12.4155, 2.8026E-45, -107.524
124, 0.00000, 2.8026E-45, 52.2297, 2.8026E-45, -66.9283, 2.8026E-45, 173.698, 0, -40.8894, 0, -160.435, 0, 79.6228
125, 0.00000, 0, -120.51, 0, 120.281, 0, 0.695344, 0, 146.261, 0, 26.7171, 0, -93.2271
126, 0.00000, 0, 66.716, 0, -52.5302, 0, -172.242, 0, -26.5839, 0, -146.126, 0, 93.9282
127, 0.00000, 0, -12.4776, 0, -131.78, 0, 108.385, 0, -105.857, 0, 134.603, 0, 14.6555
128, 0.00000, 6.74269E8, 160.928, 6.74296E8, 40.9264, 6.74272E8, -79.0755, 1.179E6, -112.704, 1.17906E6, 127.295, 1.17901E6, 7.29284
129, 0.00000, 1.69858E12, -55.3362, 1.69866E12, -175.339, 1.69856E12, 64.6595, 4.24658E9, 31.0801, 4.2468E9, -88.9224, 4.24653E9, 151.076
130, 0.00000, 4.71396E15, 88.4143, 4.71424E15, -31.5899, 4.71384E15, -151.591, 1.41703E13, 174.831, 1.41712E13, 54.8268, 1.41699E13, -65.1746
131, 0.00000, 1.3135E19, -127.834, 1.3136E19, 112.161, 1.31345E19, -7.8409, 3.94735E16, -41.4174, 3.94767E16, -161.423, 3.94719E16, 78.5759
132, 0.00000, 3.67451E22, 15.9182, 3.67485E22, -104.089, 3.67431E22, 135.91, 1.10697E20, 102.335, 1.10707E20, -17.6723, 1.10691E20, -137.674
133, 0.00000, 9.54098E25, 159.672, 9.54197E25, 39.6629, 9.54026E25, -80.3385, 2.63735E23, -113.912, 2.63764E23, 126.079, 2.63716E23, 6.0783
134, 0.00000, 2.67993E29, -56.5775, 2.68025E29, -176.588, 2.67969E29, 63.4109, 8.26972E26, 29.8388, 8.27075E26, -90.1711, 8.269E26, 149.828
135, 0.00000, 7.54194E32, 87.1743, 7.54296E32, -32.8375, 7.54116E32, -152.839, 2.32526E30, 173.591, 2.32558E30, 53.5792, 2.32502E30, -66.4221
136, 0.00000, 2.12014E36, -129.074, 2.12046E36, 110.913, 2.11989E36, -9.08857, 6.49451E33, -42.6575, 6.49552E33, -162.67, 6.49374E33, 77.3283
137, 0.00000, +Inf, 14.6783, +Inf, -105.337, +Inf, 134.662, 1.79927E37, 101.095, 1.79958E37, -18.9199, 1.79903E37, -138.921
138, 0.00000, 4.4522E32, 158.454, 4.45251E32, 38.4361, 4.45108E32, -81.5597, 2.74651E30, -115.129, 2.74676E30, 124.853, 2.74586E30, 4.85734
139, 0.00000, 6.05898E24, -57.8054, 6.05843E24, -177.822, 6.05711E24, 62.1893, 3.6688E22, 28.6124, 3.66856E22, -91.4048, 3.66773E22, 148.607
140, 0.00000, 7.06551E16, 85.928, 7.06367E16, -34.086, 7.06301E16, -154.068, 4.32257E14, 172.346, 4.32156E14, 52.3312, 4.32111E14, -67.6499
141, 0.00000, 2.88903E8, -130.342, 2.88775E8, 109.647, 2.88788E8, -10.3266, 1.89536E6, -43.9237, 1.89457E6, -163.935, 1.89464E6, 76.0913
142, 0.00000, 0.31787, 99.8238, 0.317088, -20.1946, 0.317447, -140.184, 0.0038184, -173.775, 0.00381377, 66.2113, 0.0038153, -53.7216
143, 0.00000, 0.000698819, -159.42, 0.000696391, 80.543, 0.000697803, -39.4786, 0.0000102059, -73.0402, 0.0000101927, 166.949, 0.0000101976, 47.0186
144, 0.00000, 0.0000120339, 27.7518, 0.0000119799, -92.3113, 0.0000120165, 147.637, 1.7411E-7, 114.101, 1.73871E-7, -5.90633, 1.73971E-7, -125.835
145, 0.00000, 8.93833E-8, -145.019, 8.87796E-8, 94.8473, 8.92531E-8, -25.273, 1.96742E-9, -58.7217, 1.96463E-9, -178.73, 1.96577E-9, 61.3446
146, 0.00000, 1.43762E-10, 42.3686, 1.4138E-10, -78.0829, 1.43609E-10, 161.497, 6.77961E-12, 128.482, 6.76952E-12, 8.46859, 6.77325E-12, -111.451
147, 0.00000, 3.19659E-13, -129.951, 3.07419E-13, 108.697, 3.20627E-13, -12.2855, 1.27854E-14, -44.708, 1.2759E-14, -164.668, 1.27799E-14, 75.4146
148, 0.00000, 3.62726E-16, 55.3014, 3.61477E-16, -64.5859, 3.63128E-16, 175.474, 2.0361E-17, -38.0225, 2.03073E-17, -157.913, 2.03677E-17, 82.1628
149, 0.00000, 4.00797E-19, -118.153, 3.99451E-19, 122.075, 4.0159E-19, 2.1343, 2.2917E-20, 148.559, 2.28446E-20, 28.7514, 2.29474E-20, -91.1883
150, 0.00000, 4.58177E-22, 68.4385, 4.56406E-22, -51.2514, 4.5953E-22, -171.208, 2.57583E-23, -24.859, 2.56633E-23, -144.583, 2.58181E-23, 95.4611
151, 0.00000, 5.24377E-27, 169.259, 5.22062E-27, 49.5765, 5.25589E-27, -70.3775, 4.39115E-28, -103.773, 4.37616E-28, 136.457, 4.39886E-28, 16.5109
152, 0.00000, 7.78532E-30, -4.34115, 7.74195E-30, -123.916, 7.81223E-30, 116.137, 2.74702E-31, 82.3246, 2.73314E-31, -37.2918, 2.75598E-31, -157.234
153, 0.00000, 3.83993E-34, 95.5779, 3.81322E-34, -23.8771, 3.85776E-34, -143.818, 1.31415E-35, -177.713, 1.30579E-35, 62.7857, 1.31986E-35, -57.1502
154, 0.00000, 3.90402E-37, -164.032, 3.87498E-37, 76.557, 3.92485E-37, -43.3766, 8.05024E-39, -77.5988, 7.9912E-39, 162.993, 8.09253E-39, 43.0581
155, 0.00000, 6.22556E-40, -63.3391, 6.17845E-40, 177.252, 6.25991E-40, 57.3257, 1.10366E-41, 23.0849, 1.0954E-41, -96.3132, 1.10955E-41, 143.755
156, 0.00000, 1.01874E-42, 37.3729, 1.01174E-42, -82.0416, 1.02575E-42, 158.044, 1.82169E-44, 123.792, 1.82169E-44, 4.40017, 1.82169E-44, -115.529
157, 0.00000, 1.12104E-44, -135.467, 9.80909E-45, 105.101, 1.12104E-44, -14.7948, 0, -49.0353, 0, -168.427, 0, 71.6464
158, 0.00000, 0, 51.641, 0, -67.8154, 0, 172.323, 0, 138.058, 0, 18.6771, 0, -101.247
159, 0.00000, 0, -121.26, 0, 119.26, 0, -0.562429, 0, -34.8758, 0, -154.242, 0, 85.8357
160, 0.00000, 0, 65.9011, 0, -53.6262, 0, -173.388, 0, 152.274, 0, 32.9104, 0, -87.0103
161, 0.00000, 0, -106.938, 0, 133.462, 0, 13.8009, 0, -20.581, 0, -139.941, 0, 100.141
162, 0.00000, 0, 80.21, 0, -39.4793, 0, -158.998, 0, 166.548, 0, 47.1942, 0, -72.7227
163, 0.00000, 0, -179.081, 0, 61.1115, 0, -58.1613, 0, -92.7499, 0, 147.903, 0, 27.9884
164, 0.00000, 0, -78.3764, 0, 161.673, 0, 42.7771, 0, 7.98433, 0, -111.36, 0, 128.727
165, 0.00000, 0, 108.732, 0, -11.3379, 0, -129.844, 0, -164.855, 0, 75.8021, 0, -44.1091
166, 0.00000, 0, -150.714, 0, 89.0562, 0, -28.6079, 0, -64.1254, 0, 176.535, 0, 56.6256
167, 0.00000, 0, 36.1972, 0, -84.1253, 0, 159.127, 0, 123.035, 0, 3.69613, 0, -116.211
168, 0.00000, 0, -137.09, 0, 102.607, 0, -12.8899, 0, -49.8175, 0, -169.153, 0, 70.9411
169, 0.00000, 0, 49.016, 0, -71.116, 0, 176.159, 0, 137.363, 0, 18.0249, 0, -101.878
170, 0.00000, 0, -125.543, 0, 115.274, 0, 5.54811, 0, -35.5469, 0, -154.873, 0, 85.2257
171, 0.00000, 0, 57.932, 0, -58.6415, 0, -162.961, 0, 151.611, 0, 32.2866, 0, -87.6122
172, 0.00000, 0, -122.154, 0, 127.572, 0, 30.9902, 0, -21.2684, 0, -140.586, 0, 99.5173
173, 0.00000, 0, 50.834, 0, -45.7655, 0, -131.054, 0, 165.857, 0, 46.5461, 0, -73.3485
174, 0.00000, 0, -145.882, 0, 141.716, 0, 72.6153, 0, -7.01513, 0, -126.32, 0, 113.787
175, 0.00000, 0, -75.9853, 0, -114.82, 0, -156.332, 0, 93.672, 0, -25.6237, 0, -145.513
176, 0.00000, 0, 97.2028, 0, 75.5318, 0, 54.1429, 0, -79.1629, 0, 161.542, 0, 41.6552
