hour,t(sec),V1,VAngle1,V2,VAngle2,I1,IAngle1,I2,IAngle2,V3,Name,VAngle3,I3,IAngle3,V4,VAngle4,I4,IAngle4,kv,V1(PU),V2(PU),V3(PU)
1,0.0,,111.586,,0.0,20.2518,111.586,20.2518,-68.4143,2425.74,monload-611_runway,,,,,,,,2.4,,,1.0107249999999999
2,0.0,,111.558,,0.0,21.49,111.557,21.49,-68.4434,2424.5,monload-611_runway,,,,,,,,2.4,,,1.0102083333333334
3,0.0,,111.59,,0.0,18.735,111.591,18.735,-68.4095,2425.95,monload-611_runway,,,,,,,,2.4,,,1.0108125
4,0.0,,111.596,,0.0,18.1696,111.596,18.1696,-68.4038,2426.24,monload-611_runway,,,,,,,,2.4,,,1.0109333333333332
5,0.0,,111.438,,0.0,18.3433,111.439,18.3433,-68.5609,2419.06,monload-611_runway,,,,,,,,2.4,,,1.0079416666666667
6,0.0,,111.352,,0.0,19.8621,111.353,19.8621,-68.6473,2415.03,monload-611_runway,,,,,,,,2.4,,,1.0062625
7,0.0,,110.752,,0.0,29.8483,110.752,29.8483,-69.248,2388.04,monload-611_runway,,,,,,,,2.4,,,0.9950166666666667
8,0.0,,111.574,,0.0,31.8618,111.574,31.8618,-68.426,2428.06,monload-611_runway,,,,,,,,2.4,,,1.0116916666666667
9,0.0,,111.078,,0.0,44.0268,111.082,44.0268,-68.9177,2405.81,monload-611_runway,,,,,,,,2.4,,,1.0024208333333333
10,0.0,,111.288,,0.0,37.8158,111.286,37.8158,-68.7136,2415.34,monload-611_runway,,,,,,,,2.4,,,1.0063916666666668
11,0.0,,111.544,,0.0,26.7204,111.542,26.7204,-68.4581,2426.92,monload-611_runway,,,,,,,,2.4,,,1.0112166666666667
12,0.0,,111.56,,0.0,25.0426,111.549,25.0426,-68.4507,2427.81,monload-611_runway,,,,,,,,2.4,,,1.0115875
13,0.0,,111.588,,0.0,24.9564,111.589,24.9564,-68.4112,2428.92,monload-611_runway,,,,,,,,2.4,,,1.0120500000000001
14,0.0,,111.628,,0.0,24.9959,111.628,24.9959,-68.3725,2430.7,monload-611_runway,,,,,,,,2.4,,,1.0127916666666665
15,0.0,,111.619,,0.0,24.9268,111.607,24.9268,-68.3926,2430.43,monload-611_runway,,,,,,,,2.4,,,1.0126791666666666
16,0.0,,111.599,,0.0,24.7866,111.603,24.7866,-68.3972,2429.46,monload-611_runway,,,,,,,,2.4,,,1.012275
17,0.0,,111.56,,0.0,25.989,111.561,25.989,-68.4391,2427.36,monload-611_runway,,,,,,,,2.4,,,1.0114
18,0.0,,111.451,,0.0,31.4301,111.452,31.4301,-68.5483,2422.39,monload-611_runway,,,,,,,,2.4,,,1.0093291666666666
19,0.0,,111.253,,0.0,43.1551,111.255,43.1551,-68.7455,2413.89,monload-611_runway,,,,,,,,2.4,,,1.0057875
20,0.0,,111.243,,0.0,45.3034,111.242,45.3034,-68.7581,2413.55,monload-611_runway,,,,,,,,2.4,,,1.0056458333333333
21,0.0,,111.354,,0.0,47.8087,111.357,47.8087,-68.6431,2418.48,monload-611_runway,,,,,,,,2.4,,,1.0077
22,0.0,,111.477,,0.0,46.4444,111.474,46.4444,-68.5256,2424.25,monload-611_runway,,,,,,,,2.4,,,1.0101041666666666
23,0.0,,111.931,,0.0,35.6973,111.933,35.6973,-68.0674,2444.69,monload-611_runway,,,,,,,,2.4,,,1.0186208333333333
24,0.0,,113.965,,0.0,22.9122,113.965,22.9122,-66.0349,2509.13,monload-611_runway,,,,,,,,2.4,,,1.0454708333333333
25,0.0,,114.57,,0.0,18.7872,114.57,18.7872,-65.4302,2536.27,monload-611_runway,,,,,,,,2.4,,,1.0567791666666666
26,0.0,,114.768,,0.0,18.0344,114.768,18.0344,-65.2319,2546.13,monload-611_runway,,,,,,,,2.4,,,1.0608875
27,0.0,,115.725,,0.0,17.2862,115.725,17.2862,-64.2751,2573.57,monload-611_runway,,,,,,,,2.4,,,1.0723208333333334
28,0.0,,114.227,,0.0,17.0116,114.227,17.0116,-65.7733,2504.93,monload-611_runway,,,,,,,,2.4,,,1.0437208333333332
29,0.0,,111.749,,0.0,17.6802,111.749,17.6802,-68.2507,2406.32,monload-611_runway,,,,,,,,2.4,,,1.0026333333333335
30,0.0,,112.4,,0.0,21.26,112.397,21.26,-67.6034,2439.35,monload-611_runway,,,,,,,,2.4,,,1.0163958333333334
31,0.0,,113.522,,0.0,33.1809,113.522,33.1809,-66.4778,2499.77,monload-611_runway,,,,,,,,2.4,,,1.0415708333333333
32,0.0,,109.464,,0.0,34.8528,109.463,34.8528,-70.5367,2334.58,monload-611_runway,,,,,,,,2.4,,,0.9727416666666666
33,0.0,,109.718,,0.0,30.7756,109.715,30.7756,-70.2851,2348.61,monload-611_runway,,,,,,,,2.4,,,0.9785875
34,0.0,,111.297,,0.0,31.0977,111.296,31.0977,-68.7044,2428.86,monload-611_runway,,,,,,,,2.4,,,1.012025
35,0.0,,111.522,,0.0,25.135,111.521,25.135,-68.4792,2439.65,monload-611_runway,,,,,,,,2.4,,,1.0165208333333333
36,0.0,,109.752,,0.0,26.0047,109.751,26.0047,-70.2493,2352.19,monload-611_runway,,,,,,,,2.4,,,0.9800791666666667
37,0.0,,114.19,,0.0,26.5857,114.19,26.5857,-65.8097,2536.61,monload-611_runway,,,,,,,,2.4,,,1.0569208333333333
38,0.0,,111.836,,0.0,25.3752,111.837,25.3752,-68.1628,2425.86,monload-611_runway,,,,,,,,2.4,,,1.010775
39,0.0,,115.584,,0.0,25.1568,115.585,25.1568,-64.4153,2586.68,monload-611_runway,,,,,,,,2.4,,,1.0777833333333333
40,0.0,,113.241,,0.0,24.748,113.242,24.748,-66.7584,2477.15,monload-611_runway,,,,,,,,2.4,,,1.0321458333333333
41,0.0,,112.741,,0.0,25.8685,112.741,25.8685,-67.259,2454.11,monload-611_runway,,,,,,,,2.4,,,1.0225458333333335
42,0.0,,108.825,,0.0,31.6633,108.824,31.6633,-71.1763,2304.29,monload-611_runway,,,,,,,,2.4,,,0.9601208333333333
43,0.0,,110.756,,0.0,38.7986,110.752,38.7986,-69.2475,2395.9,monload-611_runway,,,,,,,,2.4,,,0.9982916666666667
44,0.0,,113.969,,0.0,41.1781,113.969,41.1781,-66.0312,2519.98,monload-611_runway,,,,,,,,2.4,,,1.0499916666666667
45,0.0,,114.06,,0.0,45.1536,114.06,45.1536,-65.94,2521.7,monload-611_runway,,,,,,,,2.4,,,1.0507083333333334
46,0.0,,115.214,,0.0,42.9382,115.215,42.9382,-64.7854,2557.87,monload-611_runway,,,,,,,,2.4,,,1.0657791666666667
47,0.0,,116.5,,0.0,31.9767,116.5,31.9767,-63.5,2612.06,monload-611_runway,,,,,,,,2.4,,,1.0883583333333333
48,0.0,,116.359,,0.0,21.856,116.359,21.856,-63.6411,2604.14,monload-611_runway,,,,,,,,2.4,,,1.0850583333333332
49,0.0,,115.394,,0.0,19.1953,115.394,19.1953,-64.6059,2560.16,monload-611_runway,,,,,,,,2.4,,,1.0667333333333333
50,0.0,,117.144,,0.0,19.2613,117.143,19.2613,-62.8571,2638.69,monload-611_runway,,,,,,,,2.4,,,1.0994541666666666
51,0.0,,115.535,,0.0,18.215,115.535,18.215,-64.4655,2566.16,monload-611_runway,,,,,,,,2.4,,,1.0692333333333333
52,0.0,,116.763,,0.0,19.1812,116.763,19.1812,-63.237,2621.52,monload-611_runway,,,,,,,,2.4,,,1.0923
53,0.0,,111.489,,0.0,19.6598,111.489,19.6598,-68.5112,2394.85,monload-611_runway,,,,,,,,2.4,,,0.9978541666666666
54,0.0,,112.326,,0.0,23.9779,112.325,23.9779,-67.6754,2436.45,monload-611_runway,,,,,,,,2.4,,,1.0151875
55,0.0,,111.576,,0.0,35.7182,111.577,35.7182,-68.4225,2407.98,monload-611_runway,,,,,,,,2.4,,,1.003325
56,0.0,,109.205,,0.0,35.9782,109.202,35.9782,-70.7977,2322.52,monload-611_runway,,,,,,,,2.4,,,0.9677166666666667
57,0.0,,109.226,,0.0,31.5574,109.224,31.5574,-70.7759,2324.6,monload-611_runway,,,,,,,,2.4,,,0.9685833333333332
58,0.0,,113.373,,0.0,31.2533,113.378,31.2533,-66.6216,2499.14,monload-611_runway,,,,,,,,2.4,,,1.0413083333333333
59,0.0,,114.014,,0.0,24.8699,114.014,24.8699,-65.9856,2528.97,monload-611_runway,,,,,,,,2.4,,,1.0537375
60,0.0,,110.489,,0.0,25.9092,110.488,25.9092,-69.5125,2373.8,monload-611_runway,,,,,,,,2.4,,,0.9890833333333334
61,0.0,,112.625,,0.0,27.1001,112.629,27.1001,-67.3714,2477.06,monload-611_runway,,,,,,,,2.4,,,1.0321083333333334
62,0.0,,112.377,,0.0,27.5835,112.378,27.5835,-67.6221,2466.57,monload-611_runway,,,,,,,,2.4,,,1.0277375
63,0.0,,111.429,,0.0,27.9419,111.432,27.9419,-68.568,2420.56,monload-611_runway,,,,,,,,2.4,,,1.0085666666666666
64,0.0,,110.659,,0.0,28.0794,110.661,28.0794,-69.3387,2382.75,monload-611_runway,,,,,,,,2.4,,,0.9928125
65,0.0,,109.421,,0.0,28.5183,109.421,28.5183,-70.5786,2321.13,monload-611_runway,,,,,,,,2.4,,,0.9671375000000001
66,0.0,,108.958,,0.0,32.6003,108.957,32.6003,-71.0431,2310.43,monload-611_runway,,,,,,,,2.4,,,0.9626791666666666
67,0.0,,110.159,,0.0,38.728,110.157,38.728,-69.843,2365.17,monload-611_runway,,,,,,,,2.4,,,0.9854875000000001
68,0.0,,110.155,,0.0,40.8709,110.157,40.8709,-69.8431,2365.07,monload-611_runway,,,,,,,,2.4,,,0.9854458333333334
69,0.0,,110.899,,0.0,44.806,110.898,44.806,-69.1024,2399.27,monload-611_runway,,,,,,,,2.4,,,0.9996958333333333
70,0.0,,111.063,,0.0,41.9513,111.061,41.9513,-68.9391,2406.29,monload-611_runway,,,,,,,,2.4,,,1.0026208333333333
71,0.0,,112.245,,0.0,30.874,112.247,30.874,-67.7533,2444.95,monload-611_runway,,,,,,,,2.4,,,1.0187291666666667
72,0.0,,112.125,,0.0,21.1947,112.125,21.1947,-67.8749,2438.14,monload-611_runway,,,,,,,,2.4,,,1.0158916666666666
73,0.0,,112.287,,0.0,18.5785,112.286,18.5785,-67.7139,2445.42,monload-611_runway,,,,,,,,2.4,,,1.018925
74,0.0,,112.312,,0.0,17.7129,112.313,17.7129,-67.6873,2446.5,monload-611_runway,,,,,,,,2.4,,,1.019375
75,0.0,,112.338,,0.0,16.7422,112.339,16.7422,-67.6613,2447.66,monload-611_runway,,,,,,,,2.4,,,1.0198583333333333
76,0.0,,112.334,,0.0,16.8093,112.334,16.8093,-67.6659,2447.49,monload-611_runway,,,,,,,,2.4,,,1.0197874999999998
77,0.0,,111.728,,0.0,17.5128,111.733,17.5128,-68.2671,2420.74,monload-611_runway,,,,,,,,2.4,,,1.0086416666666667
78,0.0,,111.58,,0.0,20.9229,111.581,20.9229,-68.4191,2413.99,monload-611_runway,,,,,,,,2.4,,,1.0058291666666666
79,0.0,,110.022,,0.0,32.7171,110.021,32.7171,-69.9792,2344.57,monload-611_runway,,,,,,,,2.4,,,0.9769041666666667
80,0.0,,109.402,,0.0,34.9942,109.401,34.9942,-70.5993,2331.68,monload-611_runway,,,,,,,,2.4,,,0.9715333333333332
81,0.0,,109.368,,0.0,30.82,109.37,30.82,-70.6296,2331.24,monload-611_runway,,,,,,,,2.4,,,0.9713499999999999
82,0.0,,109.262,,0.0,30.1071,109.261,30.1071,-70.7389,2327.08,monload-611_runway,,,,,,,,2.4,,,0.9696166666666667
83,0.0,,110.246,,0.0,23.08,110.245,23.08,-69.7554,2376.05,monload-611_runway,,,,,,,,2.4,,,0.9900208333333335
84,0.0,,111.43,,0.0,23.6213,111.428,23.6213,-68.572,2435.24,monload-611_runway,,,,,,,,2.4,,,1.0146833333333332
85,0.0,,112.275,,0.0,24.733,112.277,24.733,-67.7233,2460.41,monload-611_runway,,,,,,,,2.4,,,1.0251708333333334
86,0.0,,114.844,,0.0,26.3843,114.845,26.3843,-65.1552,2551.24,monload-611_runway,,,,,,,,2.4,,,1.0630166666666665
87,0.0,,113.646,,0.0,26.4039,113.648,26.4039,-66.3523,2496.19,monload-611_runway,,,,,,,,2.4,,,1.0400791666666667
88,0.0,,111.658,,0.0,26.3335,111.656,26.3335,-68.344,2418.16,monload-611_runway,,,,,,,,2.4,,,1.0075666666666665
89,0.0,,108.852,,0.0,27.5633,108.848,27.5633,-71.1517,2307.91,monload-611_runway,,,,,,,,2.4,,,0.9616291666666666
90,0.0,,108.528,,0.0,33.8235,108.529,33.8235,-71.4709,2290.2,monload-611_runway,,,,,,,,2.4,,,0.9542499999999999
91,0.0,,109.701,,0.0,41.4629,109.697,41.4629,-70.303,2343.93,monload-611_runway,,,,,,,,2.4,,,0.9766374999999999
92,0.0,,109.697,,0.0,44.545,109.696,44.545,-70.3037,2343.77,monload-611_runway,,,,,,,,2.4,,,0.9765708333333333
93,0.0,,110.331,,0.0,49.2734,110.329,49.2734,-69.6705,2372.97,monload-611_runway,,,,,,,,2.4,,,0.9887374999999999
94,0.0,,110.638,,0.0,46.4184,110.632,46.4184,-69.3677,2387.12,monload-611_runway,,,,,,,,2.4,,,0.9946333333333333
95,0.0,,111.462,,0.0,34.3923,111.46,34.3923,-68.5398,2424.16,monload-611_runway,,,,,,,,2.4,,,1.0100666666666667
96,0.0,,111.773,,0.0,24.0131,111.775,24.0131,-68.2247,2438.23,monload-611_runway,,,,,,,,2.4,,,1.0159291666666668
97,0.0,,111.928,,0.0,21.7964,111.929,21.7964,-68.0709,2445.3,monload-611_runway,,,,,,,,2.4,,,1.018875
98,0.0,,111.969,,0.0,20.8093,111.97,20.8093,-68.0298,2447.15,monload-611_runway,,,,,,,,2.4,,,1.0196458333333334
99,0.0,,112.008,,0.0,19.5335,112.008,19.5335,-67.9918,2448.85,monload-611_runway,,,,,,,,2.4,,,1.0203541666666667
100,0.0,,112.053,,0.0,19.3539,112.052,19.3539,-67.9482,2450.88,monload-611_runway,,,,,,,,2.4,,,1.0212
101,0.0,,111.516,,0.0,19.795,111.518,19.795,-68.4824,2426.89,monload-611_runway,,,,,,,,2.4,,,1.0112041666666667
102,0.0,,111.294,,0.0,23.6849,111.292,23.6849,-68.7082,2416.8,monload-611_runway,,,,,,,,2.4,,,1.0070000000000001
103,0.0,,109.641,,0.0,38.4226,109.642,38.4226,-70.3576,2342.2,monload-611_runway,,,,,,,,2.4,,,0.9759166666666665
104,0.0,,108.884,,0.0,42.7031,108.885,42.7031,-71.1151,2307.77,monload-611_runway,,,,,,,,2.4,,,0.9615708333333334
105,0.0,,108.779,,0.0,39.7651,108.777,39.7651,-71.2228,2304.07,monload-611_runway,,,,,,,,2.4,,,0.9600291666666667
106,0.0,,108.421,,0.0,42.459,108.424,42.459,-71.576,2287.92,monload-611_runway,,,,,,,,2.4,,,0.9533
107,0.0,,109.341,,0.0,36.7749,109.339,36.7749,-70.6608,2334.88,monload-611_runway,,,,,,,,2.4,,,0.9728666666666667
108,0.0,,110.895,,0.0,34.924,110.891,34.924,-69.109,2412.2,monload-611_runway,,,,,,,,2.4,,,1.0050833333333333
109,0.0,,111.802,,0.0,35.3309,111.804,35.3309,-68.196,2440.19,monload-611_runway,,,,,,,,2.4,,,1.0167458333333335
110,0.0,,114.811,,0.0,36.6164,114.812,36.6164,-65.1882,2552.44,monload-611_runway,,,,,,,,2.4,,,1.0635166666666667
111,0.0,,114.774,,0.0,37.006,114.774,37.006,-65.2261,2550.96,monload-611_runway,,,,,,,,2.4,,,1.0629
112,0.0,,112.495,,0.0,35.8436,112.497,35.8436,-67.5033,2444.03,monload-611_runway,,,,,,,,2.4,,,1.0183458333333335
113,0.0,,109.354,,0.0,37.3236,109.349,37.3236,-70.6506,2319.81,monload-611_runway,,,,,,,,2.4,,,0.9665874999999999
114,0.0,,107.764,,0.0,42.0417,107.757,42.0417,-72.2435,2264.15,monload-611_runway,,,,,,,,2.4,,,0.9433958333333333
115,0.0,,108.98,,0.0,48.2942,108.978,48.2942,-71.022,2321.08,monload-611_runway,,,,,,,,2.4,,,0.9671166666666666
116,0.0,,109.0,,0.0,50.8826,108.998,50.8826,-71.0023,2322.15,monload-611_runway,,,,,,,,2.4,,,0.9675625
117,0.0,,109.626,,0.0,55.1034,109.625,55.1034,-70.3746,2351.27,monload-611_runway,,,,,,,,2.4,,,0.9796958333333333
118,0.0,,109.935,,0.0,52.4571,109.935,52.4571,-70.065,2365.74,monload-611_runway,,,,,,,,2.4,,,0.985725
119,0.0,,110.73,,0.0,40.733,110.73,40.733,-69.27,2386.89,monload-611_runway,,,,,,,,2.4,,,0.9945375
120,0.0,,111.074,,0.0,29.5798,111.073,29.5798,-68.9265,2402.71,monload-611_runway,,,,,,,,2.4,,,1.0011291666666666
121,0.0,,111.287,,0.0,25.8806,111.288,25.8806,-68.7123,2412.55,monload-611_runway,,,,,,,,2.4,,,1.0052291666666668
122,0.0,,111.749,,0.0,24.5759,111.747,24.5759,-68.2534,2434.98,monload-611_runway,,,,,,,,2.4,,,1.014575
123,0.0,,112.225,,0.0,22.9971,112.226,22.9971,-67.774,2442.39,monload-611_runway,,,,,,,,2.4,,,1.0176625
124,0.0,,112.24,,0.0,22.3842,112.24,22.3842,-67.7599,2443.08,monload-611_runway,,,,,,,,2.4,,,1.01795
125,0.0,,111.627,,0.0,22.8134,111.627,22.8134,-68.3732,2415.96,monload-611_runway,,,,,,,,2.4,,,1.00665
126,0.0,,111.444,,0.0,26.7316,111.446,26.7316,-68.5544,2407.66,monload-611_runway,,,,,,,,2.4,,,1.0031916666666667
127,0.0,,109.795,,0.0,41.3038,109.796,41.3038,-70.2036,2333.84,monload-611_runway,,,,,,,,2.4,,,0.9724333333333334
128,0.0,,109.087,,0.0,45.5509,109.086,45.5509,-70.9142,2316.73,monload-611_runway,,,,,,,,2.4,,,0.9653041666666666
129,0.0,,108.796,,0.0,44.0571,108.797,44.0571,-71.2028,2304.11,monload-611_runway,,,,,,,,2.4,,,0.9600458333333334
130,0.0,,108.594,,0.0,44.3574,108.591,44.3574,-71.4094,2295.37,monload-611_runway,,,,,,,,2.4,,,0.9564041666666666
131,0.0,,108.879,,0.0,38.3172,108.876,38.3172,-71.1244,2309.66,monload-611_runway,,,,,,,,2.4,,,0.9623583333333333
132,0.0,,108.513,,0.0,39.0492,108.516,39.0492,-71.4838,2291.49,monload-611_runway,,,,,,,,2.4,,,0.9547874999999999
133,0.0,,108.994,,0.0,39.7514,108.989,39.7514,-71.0115,2315.17,monload-611_runway,,,,,,,,2.4,,,0.9646541666666667
134,0.0,,108.868,,0.0,40.3209,108.872,40.3209,-71.1275,2310.22,monload-611_runway,,,,,,,,2.4,,,0.9625916666666666
135,0.0,,108.929,,0.0,40.0177,108.926,40.0177,-71.0744,2313.29,monload-611_runway,,,,,,,,2.4,,,0.9638708333333333
136,0.0,,108.507,,0.0,38.751,108.511,38.751,-71.4889,2291.44,monload-611_runway,,,,,,,,2.4,,,0.9547666666666667
137,0.0,,108.137,,0.0,37.7118,108.136,37.7118,-71.8643,2271.68,monload-611_runway,,,,,,,,2.4,,,0.9465333333333332
138,0.0,,107.712,,0.0,42.5307,107.709,42.5307,-72.2908,2261.42,monload-611_runway,,,,,,,,2.4,,,0.9422583333333333
139,0.0,,108.811,,0.0,49.9773,108.81,49.9773,-71.1903,2312.95,monload-611_runway,,,,,,,,2.4,,,0.9637291666666666
140,0.0,,108.824,,0.0,52.678,108.822,52.678,-71.178,2313.64,monload-611_runway,,,,,,,,2.4,,,0.9640166666666666
141,0.0,,109.438,,0.0,57.1881,109.437,57.1881,-70.5634,2342.21,monload-611_runway,,,,,,,,2.4,,,0.9759208333333333
142,0.0,,109.931,,0.0,51.6617,109.93,51.6617,-70.07,2365.5,monload-611_runway,,,,,,,,2.4,,,0.985625
143,0.0,,110.863,,0.0,37.0848,110.864,37.0848,-69.1363,2393.14,monload-611_runway,,,,,,,,2.4,,,0.9971416666666666
144,0.0,,111.207,,0.0,25.3175,111.204,25.3175,-68.7955,2408.84,monload-611_runway,,,,,,,,2.4,,,1.0036833333333335
145,0.0,,111.349,,0.0,23.1146,111.348,23.1146,-68.6521,2415.36,monload-611_runway,,,,,,,,2.4,,,1.0064
146,0.0,,111.339,,0.0,22.7156,111.339,22.7156,-68.6612,2414.95,monload-611_runway,,,,,,,,2.4,,,1.0062291666666665
147,0.0,,111.401,,0.0,19.4987,111.401,19.4987,-68.5991,2417.74,monload-611_runway,,,,,,,,2.4,,,1.0073916666666667
148,0.0,,112.084,,0.0,19.1538,112.08,19.1538,-67.9196,2450.97,monload-611_runway,,,,,,,,2.4,,,1.0212375
149,0.0,,112.149,,0.0,19.44,112.148,19.44,-67.8517,2454.69,monload-611_runway,,,,,,,,2.4,,,1.0227875
150,0.0,,112.059,,0.0,20.7921,112.06,20.7921,-67.9402,2450.55,monload-611_runway,,,,,,,,2.4,,,1.0210625
151,0.0,,111.386,,0.0,30.6613,111.386,30.6613,-68.6145,2420.61,monload-611_runway,,,,,,,,2.4,,,1.0085875
152,0.0,,110.833,,0.0,32.5578,110.834,32.5578,-69.1665,2395.54,monload-611_runway,,,,,,,,2.4,,,0.9981416666666667
153,0.0,,110.632,,0.0,45.5458,110.629,45.5458,-69.3709,2386.62,monload-611_runway,,,,,,,,2.4,,,0.994425
154,0.0,,110.265,,0.0,40.6198,110.266,40.6198,-69.7337,2370.48,monload-611_runway,,,,,,,,2.4,,,0.9877
155,0.0,,111.625,,0.0,31.8176,111.624,31.8176,-68.376,2437.23,monload-611_runway,,,,,,,,2.4,,,1.0155125
156,0.0,,112.459,,0.0,31.3428,112.46,31.3428,-67.5404,2462.39,monload-611_runway,,,,,,,,2.4,,,1.0259958333333332
157,0.0,,111.86,,0.0,32.0281,111.861,32.0281,-68.139,2432.38,monload-611_runway,,,,,,,,2.4,,,1.0134916666666667
158,0.0,,111.659,,0.0,31.7662,111.662,31.7662,-68.338,2422.45,monload-611_runway,,,,,,,,2.4,,,1.0093541666666666
159,0.0,,110.636,,0.0,32.0361,110.637,32.0361,-69.3631,2372.17,monload-611_runway,,,,,,,,2.4,,,0.9884041666666668
160,0.0,,110.751,,0.0,33.0122,110.749,33.0122,-69.2513,2376.2,monload-611_runway,,,,,,,,2.4,,,0.9900833333333332
161,0.0,,110.489,,0.0,33.2851,110.494,33.2851,-69.5061,2363.16,monload-611_runway,,,,,,,,2.4,,,0.9846499999999999
162,0.0,,109.75,,0.0,36.5459,109.751,36.5459,-70.2492,2326.49,monload-611_runway,,,,,,,,2.4,,,0.9693708333333333
163,0.0,,109.701,,0.0,47.5561,109.7,47.5561,-70.2997,2339.53,monload-611_runway,,,,,,,,2.4,,,0.9748041666666668
164,0.0,,109.716,,0.0,49.2997,109.716,49.2997,-70.2835,2340.29,monload-611_runway,,,,,,,,2.4,,,0.9751208333333333
165,0.0,,110.229,,0.0,51.8892,110.224,51.8892,-69.7756,2363.76,monload-611_runway,,,,,,,,2.4,,,0.9849000000000001
166,0.0,,110.336,,0.0,51.0972,110.335,51.0972,-69.6653,2368.86,monload-611_runway,,,,,,,,2.4,,,0.987025
167,0.0,,110.799,,0.0,40.8171,110.799,40.8171,-69.2014,2390.17,monload-611_runway,,,,,,,,2.4,,,0.9959041666666667
168,0.0,,111.169,,0.0,27.8677,111.169,27.8677,-68.8311,2407.14,monload-611_runway,,,,,,,,2.4,,,1.002975
169,0.0,,111.438,,0.0,23.6005,111.438,23.6005,-68.5616,2419.38,monload-611_runway,,,,,,,,2.4,,,1.008075
170,0.0,,111.461,,0.0,23.0303,111.461,23.0303,-68.5388,2420.42,monload-611_runway,,,,,,,,2.4,,,1.0085083333333333
171,0.0,,111.54,,0.0,19.8099,111.539,19.8099,-68.4609,2423.95,monload-611_runway,,,,,,,,2.4,,,1.0099791666666667
172,0.0,,111.544,,0.0,19.6465,111.544,19.6465,-68.4557,2424.17,monload-611_runway,,,,,,,,2.4,,,1.0100708333333335
173,0.0,,111.368,,0.0,20.1694,111.369,20.1694,-68.6313,2416.17,monload-611_runway,,,,,,,,2.4,,,1.0067375
174,0.0,,111.266,,0.0,21.5583,111.267,21.5583,-68.7333,2411.43,monload-611_runway,,,,,,,,2.4,,,1.0047625
175,0.0,,110.59,,0.0,31.2002,110.59,31.2002,-69.4104,2380.69,monload-611_runway,,,,,,,,2.4,,,0.9919541666666667
176,0.0,,110.589,,0.0,33.3904,110.588,33.3904,-69.4122,2380.15,monload-611_runway,,,,,,,,2.4,,,0.9917291666666667
177,0.0,,109.918,,0.0,49.5935,109.909,49.5935,-70.0906,2349.36,monload-611_runway,,,,,,,,2.4,,,0.9789000000000001
178,0.0,,110.32,,0.0,48.4258,110.318,48.4258,-69.682,2369.53,monload-611_runway,,,,,,,,2.4,,,0.9873041666666668
179,0.0,,110.072,,0.0,39.6712,110.07,39.6712,-69.9301,2356.51,monload-611_runway,,,,,,,,2.4,,,0.9818791666666667
180,0.0,,110.391,,0.0,38.1499,110.39,38.1499,-69.6096,2372.35,monload-611_runway,,,,,,,,2.4,,,0.9884791666666666
