hour,t(sec),V1,VAngle1,V2,VAngle2,I1,IAngle1,I2,IAngle2,V3,Name,VAngle3,I3,IAngle3,V4,VAngle4,I4,IAngle4,kv,V1(PU),V2(PU),V3(PU)
1,0.0,,117.241,,0.0,20.2518,117.241,20.2518,-62.759,2453.72,monload-611_runway,,,,,,,,2.4,,,1.0223833333333332
2,0.0,,117.217,,0.0,21.49,117.217,21.49,-62.7829,2452.91,monload-611_runway,,,,,,,,2.4,,,1.0220458333333333
3,0.0,,117.248,,0.0,18.735,117.248,18.735,-62.752,2454.1,monload-611_runway,,,,,,,,2.4,,,1.0225416666666667
4,0.0,,115.116,,0.0,18.1696,115.117,18.1696,-64.8827,2367.87,monload-611_runway,,,,,,,,2.4,,,0.9866125
5,0.0,,114.959,,0.0,18.3433,114.956,18.3433,-65.0435,2376.59,monload-611_runway,,,,,,,,2.4,,,0.9902458333333334
6,0.0,,114.851,,0.0,19.8621,114.852,19.8621,-65.1481,2372.12,monload-611_runway,,,,,,,,2.4,,,0.9883833333333333
7,0.0,,114.085,,0.0,29.8483,114.085,29.8483,-65.9148,2341.63,monload-611_runway,,,,,,,,2.4,,,0.9756791666666668
8,0.0,,114.115,,0.0,31.8618,114.112,31.8618,-65.8882,2342.86,monload-611_runway,,,,,,,,2.4,,,0.9761916666666667
9,0.0,,113.758,,0.0,44.0268,113.761,44.0268,-66.2389,2329.19,monload-611_runway,,,,,,,,2.4,,,0.9704958333333333
10,0.0,,112.092,,0.0,37.6494,112.091,37.6494,-67.9086,2270.5,monload-611_runway,,,,,,,,2.4,,,0.9460416666666667
11,0.0,,112.567,,0.0,26.7204,112.566,26.7204,-67.4341,2290.87,monload-611_runway,,,,,,,,2.4,,,0.9545291666666667
12,0.0,,114.194,,0.0,25.0426,114.188,25.0426,-65.8125,2361.46,monload-611_runway,,,,,,,,2.4,,,0.9839416666666667
13,0.0,,112.386,,0.0,24.9564,112.388,24.9564,-67.6118,2282.6,monload-611_runway,,,,,,,,2.4,,,0.9510833333333333
14,0.0,,113.175,,0.0,24.9959,113.171,24.9959,-66.829,2317.18,monload-611_runway,,,,,,,,2.4,,,0.9654916666666666
15,0.0,,113.799,,0.0,24.9268,113.796,24.9268,-66.2037,2344.3,monload-611_runway,,,,,,,,2.4,,,0.9767916666666667
16,0.0,,116.108,,0.0,24.7866,116.11,24.7866,-63.8903,2425.97,monload-611_runway,,,,,,,,2.4,,,1.0108208333333333
17,0.0,,115.073,,0.0,25.989,115.074,25.989,-64.9262,2383.13,monload-611_runway,,,,,,,,2.4,,,0.9929708333333334
18,0.0,,116.182,,0.0,31.4301,116.182,31.4301,-63.818,2428.35,monload-611_runway,,,,,,,,2.4,,,1.0118125
19,0.0,,115.91,,0.0,43.1551,115.911,43.1551,-64.0892,2417.46,monload-611_runway,,,,,,,,2.4,,,1.007275
20,0.0,,115.909,,0.0,45.3034,115.908,45.3034,-64.0916,2417.43,monload-611_runway,,,,,,,,2.4,,,1.0072625
21,0.0,,116.035,,0.0,47.8087,116.031,47.8087,-63.969,2422.24,monload-611_runway,,,,,,,,2.4,,,1.0092666666666665
22,0.0,,116.181,,0.0,46.4444,116.177,46.4444,-63.8234,2428.1,monload-611_runway,,,,,,,,2.4,,,1.0117083333333332
23,0.0,,116.666,,0.0,35.6973,116.665,35.6973,-63.3347,2446.88,monload-611_runway,,,,,,,,2.4,,,1.0195333333333334
24,0.0,,114.907,,0.0,22.9122,114.908,22.9122,-65.0916,2374.25,monload-611_runway,,,,,,,,2.4,,,0.9892708333333333
25,0.0,,115.036,,0.0,18.6667,115.035,18.6667,-64.9647,2379.47,monload-611_runway,,,,,,,,2.4,,,0.9914458333333332
26,0.0,,115.048,,0.0,17.8494,115.048,17.8494,-64.9523,2379.97,monload-611_runway,,,,,,,,2.4,,,0.9916541666666666
27,0.0,,115.07,,0.0,16.9263,115.068,16.9263,-64.9318,2380.79,monload-611_runway,,,,,,,,2.4,,,0.9919958333333333
28,0.0,,115.074,,0.0,17.0116,115.074,17.0116,-64.926,2380.96,monload-611_runway,,,,,,,,2.4,,,0.9920666666666667
29,0.0,,114.37,,0.0,17.6802,114.37,17.6802,-65.6298,2353.13,monload-611_runway,,,,,,,,2.4,,,0.9804708333333334
30,0.0,,114.109,,0.0,21.26,114.112,21.26,-65.8883,2342.61,monload-611_runway,,,,,,,,2.4,,,0.9760875000000001
31,0.0,,112.413,,0.0,33.1809,112.409,33.1809,-67.591,2288.54,monload-611_runway,,,,,,,,2.4,,,0.9535583333333333
32,0.0,,111.769,,0.0,34.562,111.767,34.562,-68.2332,2262.03,monload-611_runway,,,,,,,,2.4,,,0.9425125000000001
33,0.0,,112.112,,0.0,30.7437,112.112,30.7437,-67.8878,2277.76,monload-611_runway,,,,,,,,2.4,,,0.9490666666666667
34,0.0,,110.618,,0.0,30.3036,110.618,30.3036,-69.3817,2224.83,monload-611_runway,,,,,,,,2.4,,,0.9270125
35,0.0,,111.074,,0.0,24.7373,111.074,24.7373,-68.9258,2245.83,monload-611_runway,,,,,,,,2.4,,,0.9357624999999999
36,0.0,,113.817,,0.0,26.0047,113.821,26.0047,-66.1794,2366.33,monload-611_runway,,,,,,,,2.4,,,0.9859708333333334
37,0.0,,112.81,,0.0,26.4116,112.808,26.4116,-67.1923,2323.75,monload-611_runway,,,,,,,,2.4,,,0.9682291666666667
38,0.0,,110.595,,0.0,24.7198,110.597,24.7198,-69.4034,2224.24,monload-611_runway,,,,,,,,2.4,,,0.9267666666666666
39,0.0,,113.813,,0.0,24.5082,113.807,24.5082,-66.1931,2367.4,monload-611_runway,,,,,,,,2.4,,,0.9864166666666667
40,0.0,,112.258,,0.0,24.748,112.26,24.748,-67.74,2300.05,monload-611_runway,,,,,,,,2.4,,,0.9583541666666667
41,0.0,,110.79,,0.0,25.3122,110.791,25.3122,-69.2091,2233.54,monload-611_runway,,,,,,,,2.4,,,0.9306416666666667
42,0.0,,113.516,,0.0,31.6633,113.514,31.6633,-66.4858,2353.49,monload-611_runway,,,,,,,,2.4,,,0.9806208333333333
43,0.0,,114.511,,0.0,38.7986,114.514,38.7986,-65.4864,2378.0,monload-611_runway,,,,,,,,2.4,,,0.9908333333333333
44,0.0,,114.498,,0.0,41.1781,114.498,41.1781,-65.5018,2377.51,monload-611_runway,,,,,,,,2.4,,,0.9906291666666668
45,0.0,,115.181,,0.0,45.1231,115.178,45.1231,-64.8224,2404.33,monload-611_runway,,,,,,,,2.4,,,1.0018041666666666
46,0.0,,115.535,,0.0,42.3023,115.533,42.3023,-64.4669,2418.36,monload-611_runway,,,,,,,,2.4,,,1.0076500000000002
47,0.0,,116.402,,0.0,30.8497,116.403,30.8497,-63.5971,2436.87,monload-611_runway,,,,,,,,2.4,,,1.0153625
48,0.0,,114.57,,0.0,21.1497,114.572,21.1497,-65.4283,2360.95,monload-611_runway,,,,,,,,2.4,,,0.9837291666666665
49,0.0,,114.702,,0.0,18.8942,114.701,18.8942,-65.2991,2366.31,monload-611_runway,,,,,,,,2.4,,,0.9859625
50,0.0,,114.744,,0.0,18.3946,114.74,18.3946,-65.2597,2367.95,monload-611_runway,,,,,,,,2.4,,,0.9866458333333332
51,0.0,,114.799,,0.0,17.8874,114.795,17.8874,-65.2055,2370.11,monload-611_runway,,,,,,,,2.4,,,0.9875458333333333
52,0.0,,114.793,,0.0,18.4384,114.794,18.4384,-65.2062,2369.87,monload-611_runway,,,,,,,,2.4,,,0.9874458333333332
53,0.0,,114.068,,0.0,19.6598,114.069,19.6598,-65.9308,2341.1,monload-611_runway,,,,,,,,2.4,,,0.9754583333333333
54,0.0,,113.78,,0.0,23.9779,113.783,23.9779,-66.2171,2329.38,monload-611_runway,,,,,,,,2.4,,,0.9705750000000001
55,0.0,,112.115,,0.0,35.6548,112.115,35.6548,-67.8848,2276.16,monload-611_runway,,,,,,,,2.4,,,0.9483999999999999
56,0.0,,111.533,,0.0,35.514,111.534,35.514,-68.4657,2252.13,monload-611_runway,,,,,,,,2.4,,,0.9383875
57,0.0,,112.785,,0.0,31.5574,112.783,31.5574,-67.2166,2307.76,monload-611_runway,,,,,,,,2.4,,,0.9615666666666668
58,0.0,,112.127,,0.0,31.2533,112.13,31.2533,-67.8701,2280.49,monload-611_runway,,,,,,,,2.4,,,0.9502041666666666
59,0.0,,113.447,,0.0,24.7817,113.44,24.7817,-66.5595,2337.19,monload-611_runway,,,,,,,,2.4,,,0.9738291666666666
60,0.0,,111.142,,0.0,25.3717,111.142,25.3717,-68.8576,2235.21,monload-611_runway,,,,,,,,2.4,,,0.9313375
61,0.0,,112.543,,0.0,27.1001,112.542,27.1001,-67.4585,2297.48,monload-611_runway,,,,,,,,2.4,,,0.9572833333333334
62,0.0,,112.293,,0.0,27.5835,112.294,27.5835,-67.7059,2287.23,monload-611_runway,,,,,,,,2.4,,,0.9530125
63,0.0,,111.736,,0.0,27.7147,111.734,27.7147,-68.2659,2262.48,monload-611_runway,,,,,,,,2.4,,,0.9427
64,0.0,,113.65,,0.0,28.0794,113.647,28.0794,-66.3528,2345.1,monload-611_runway,,,,,,,,2.4,,,0.9771249999999999
65,0.0,,112.387,,0.0,28.5183,112.391,28.5183,-67.6094,2290.83,monload-611_runway,,,,,,,,2.4,,,0.9545125
66,0.0,,113.553,,0.0,32.6003,113.548,32.6003,-66.4515,2340.26,monload-611_runway,,,,,,,,2.4,,,0.9751083333333335
67,0.0,,114.745,,0.0,38.728,114.745,38.728,-65.2553,2387.27,monload-611_runway,,,,,,,,2.4,,,0.9946958333333333
68,0.0,,114.746,,0.0,40.8709,114.745,40.8709,-65.2547,2387.32,monload-611_runway,,,,,,,,2.4,,,0.9947166666666667
69,0.0,,115.419,,0.0,44.806,115.415,44.806,-64.5854,2413.65,monload-611_runway,,,,,,,,2.4,,,1.0056875
70,0.0,,115.733,,0.0,41.9513,115.731,41.9513,-64.2693,2426.06,monload-611_runway,,,,,,,,2.4,,,1.0108583333333334
71,0.0,,116.576,,0.0,30.874,116.576,30.874,-63.4236,2443.46,monload-611_runway,,,,,,,,2.4,,,1.0181083333333334
72,0.0,,114.76,,0.0,21.1947,114.762,21.1947,-65.2383,2368.49,monload-611_runway,,,,,,,,2.4,,,0.9868708333333333
73,0.0,,114.948,,0.0,18.5785,114.946,18.5785,-65.0537,2376.02,monload-611_runway,,,,,,,,2.4,,,0.9900083333333334
74,0.0,,114.974,,0.0,17.7129,114.972,17.7129,-65.0279,2377.08,monload-611_runway,,,,,,,,2.4,,,0.9904499999999999
75,0.0,,115.003,,0.0,16.7422,115.0,16.7422,-64.9997,2378.22,monload-611_runway,,,,,,,,2.4,,,0.990925
76,0.0,,114.999,,0.0,16.8093,114.999,16.8093,-65.0008,2378.07,monload-611_runway,,,,,,,,2.4,,,0.9908625000000001
77,0.0,,114.292,,0.0,17.5128,114.293,17.5128,-65.7072,2350.13,monload-611_runway,,,,,,,,2.4,,,0.9792208333333334
78,0.0,,114.12,,0.0,20.9229,114.121,20.9229,-65.8787,2343.09,monload-611_runway,,,,,,,,2.4,,,0.9762875000000001
79,0.0,,112.391,,0.0,32.7171,112.387,32.7171,-67.6126,2287.66,monload-611_runway,,,,,,,,2.4,,,0.9531916666666667
80,0.0,,111.717,,0.0,34.6687,111.716,34.6687,-68.2841,2259.96,monload-611_runway,,,,,,,,2.4,,,0.94165
81,0.0,,111.429,,0.0,30.3646,111.428,30.3646,-68.5717,2248.08,monload-611_runway,,,,,,,,2.4,,,0.9367
82,0.0,,113.948,,0.0,30.1071,113.94,30.1071,-66.0597,2358.46,monload-611_runway,,,,,,,,2.4,,,0.9826916666666666
83,0.0,,116.085,,0.0,23.08,116.088,23.08,-63.9119,2431.23,monload-611_runway,,,,,,,,2.4,,,1.0130125
84,0.0,,117.228,,0.0,23.6213,117.228,23.6213,-62.7722,2476.91,monload-611_runway,,,,,,,,2.4,,,1.0320458333333333
85,0.0,,117.795,,0.0,24.733,117.792,24.733,-62.2079,2499.36,monload-611_runway,,,,,,,,2.4,,,1.0414
86,0.0,,117.337,,0.0,26.0612,117.339,26.0612,-62.6613,2482.05,monload-611_runway,,,,,,,,2.4,,,1.0341875
87,0.0,,118.365,,0.0,26.4039,118.365,26.4039,-61.6348,2507.07,monload-611_runway,,,,,,,,2.4,,,1.0446125000000002
88,0.0,,116.646,,0.0,26.3335,116.646,26.3335,-63.354,2438.52,monload-611_runway,,,,,,,,2.4,,,1.01605
89,0.0,,113.933,,0.0,27.5633,113.932,27.5633,-66.0678,2343.67,monload-611_runway,,,,,,,,2.4,,,0.9765291666666667
90,0.0,,113.546,,0.0,33.8235,113.545,33.8235,-66.4551,2326.72,monload-611_runway,,,,,,,,2.4,,,0.9694666666666666
91,0.0,,114.217,,0.0,41.4629,114.211,41.4629,-65.7894,2351.72,monload-611_runway,,,,,,,,2.4,,,0.9798833333333332
92,0.0,,114.222,,0.0,44.545,114.221,44.545,-65.7795,2351.93,monload-611_runway,,,,,,,,2.4,,,0.9799708333333332
93,0.0,,114.927,,0.0,49.2734,114.924,49.2734,-65.076,2379.62,monload-611_runway,,,,,,,,2.4,,,0.9915083333333333
94,0.0,,115.271,,0.0,46.4184,115.27,46.4184,-64.7303,2393.25,monload-611_runway,,,,,,,,2.4,,,0.9971875
95,0.0,,116.155,,0.0,34.3923,116.152,34.3923,-63.8479,2427.68,monload-611_runway,,,,,,,,2.4,,,1.0115333333333332
96,0.0,,114.322,,0.0,24.0131,114.322,24.0131,-65.6777,2351.4,monload-611_runway,,,,,,,,2.4,,,0.97975
97,0.0,,114.506,,0.0,21.7964,114.505,21.7964,-65.4952,2358.87,monload-611_runway,,,,,,,,2.4,,,0.9828625
98,0.0,,114.553,,0.0,20.8093,114.549,20.8093,-65.4514,2360.74,monload-611_runway,,,,,,,,2.4,,,0.9836416666666665
99,0.0,,114.594,,0.0,19.5335,114.59,19.5335,-65.4095,2362.38,monload-611_runway,,,,,,,,2.4,,,0.984325
100,0.0,,114.647,,0.0,19.3539,114.642,19.3539,-65.3578,2364.48,monload-611_runway,,,,,,,,2.4,,,0.9852
101,0.0,,114.013,,0.0,19.795,114.013,19.795,-65.9866,2339.25,monload-611_runway,,,,,,,,2.4,,,0.9746875
102,0.0,,113.753,,0.0,23.6849,113.756,23.6849,-66.2442,2328.69,monload-611_runway,,,,,,,,2.4,,,0.9702875
103,0.0,,111.952,,0.0,38.2376,111.952,38.2376,-68.0478,2269.6,monload-611_runway,,,,,,,,2.4,,,0.9456666666666667
104,0.0,,111.28,,0.0,41.9466,111.282,41.9466,-68.718,2241.72,monload-611_runway,,,,,,,,2.4,,,0.9340499999999999
105,0.0,,111.07,,0.0,38.9102,111.069,38.9102,-68.9306,2233.55,monload-611_runway,,,,,,,,2.4,,,0.9306458333333334
106,0.0,,113.303,,0.0,42.459,113.298,42.459,-66.7024,2332.85,monload-611_runway,,,,,,,,2.4,,,0.9720208333333333
107,0.0,,115.358,,0.0,36.7749,115.357,36.7749,-64.6432,2418.15,monload-611_runway,,,,,,,,2.4,,,1.0075625000000001
108,0.0,,116.718,,0.0,34.924,116.721,34.924,-63.2793,2457.88,monload-611_runway,,,,,,,,2.4,,,1.0241166666666668
109,0.0,,117.405,,0.0,35.3309,117.401,35.3309,-62.599,2484.78,monload-611_runway,,,,,,,,2.4,,,1.035325
110,0.0,,116.882,,0.0,36.1511,116.885,36.1511,-63.115,2464.56,monload-611_runway,,,,,,,,2.4,,,1.0269
111,0.0,,117.93,,0.0,36.557,117.93,36.557,-62.0699,2490.33,monload-611_runway,,,,,,,,2.4,,,1.0376375
112,0.0,,116.248,,0.0,35.8436,116.247,35.8436,-63.7525,2422.66,monload-611_runway,,,,,,,,2.4,,,1.0094416666666666
113,0.0,,113.621,,0.0,37.3236,113.62,37.3236,-66.3803,2330.38,monload-611_runway,,,,,,,,2.4,,,0.9709916666666667
114,0.0,,113.441,,0.0,42.3539,113.438,42.3539,-66.562,2321.79,monload-611_runway,,,,,,,,2.4,,,0.9674125
115,0.0,,114.308,,0.0,48.2942,114.3,48.2942,-65.6999,2354.78,monload-611_runway,,,,,,,,2.4,,,0.9811583333333335
116,0.0,,114.345,,0.0,50.8826,114.341,50.8826,-65.6593,2356.36,monload-611_runway,,,,,,,,2.4,,,0.9818166666666667
117,0.0,,115.043,,0.0,55.1034,115.04,55.1034,-64.9596,2383.69,monload-611_runway,,,,,,,,2.4,,,0.9932041666666667
118,0.0,,115.396,,0.0,52.4571,115.397,52.4571,-64.6032,2397.7,monload-611_runway,,,,,,,,2.4,,,0.9990416666666666
119,0.0,,116.31,,0.0,40.733,116.308,40.733,-63.6921,2433.24,monload-611_runway,,,,,,,,2.4,,,1.01385
120,0.0,,114.546,,0.0,29.5798,114.546,29.5798,-65.4536,2360.03,monload-611_runway,,,,,,,,2.4,,,0.9833458333333334
121,0.0,,114.802,,0.0,25.8806,114.8,25.8806,-65.2001,2370.38,monload-611_runway,,,,,,,,2.4,,,0.9876583333333334
122,0.0,,114.847,,0.0,24.5759,114.843,24.5759,-65.1567,2372.2,monload-611_runway,,,,,,,,2.4,,,0.9884166666666666
123,0.0,,114.893,,0.0,22.9971,114.889,22.9971,-65.1109,2374.03,monload-611_runway,,,,,,,,2.4,,,0.9891791666666667
124,0.0,,114.911,,0.0,22.3842,114.909,22.3842,-65.0908,2374.77,monload-611_runway,,,,,,,,2.4,,,0.9894875
125,0.0,,114.198,,0.0,22.8134,114.198,22.8134,-65.8016,2346.53,monload-611_runway,,,,,,,,2.4,,,0.9777208333333334
126,0.0,,113.984,,0.0,26.7316,113.986,26.7316,-66.0138,2337.81,monload-611_runway,,,,,,,,2.4,,,0.9740875
127,0.0,,112.162,,0.0,41.2684,112.162,41.2684,-67.8378,2278.15,monload-611_runway,,,,,,,,2.4,,,0.9492291666666667
128,0.0,,111.45,,0.0,44.8902,111.452,44.8902,-68.5478,2248.68,monload-611_runway,,,,,,,,2.4,,,0.93695
129,0.0,,110.665,,0.0,43.0054,110.669,43.0054,-69.3313,2228.3,monload-611_runway,,,,,,,,2.4,,,0.9284583333333334
130,0.0,,112.681,,0.0,44.3574,112.676,44.3574,-67.3241,2319.63,monload-611_runway,,,,,,,,2.4,,,0.9665125
131,0.0,,115.083,,0.0,38.3172,115.087,38.3172,-64.9127,2406.0,monload-611_runway,,,,,,,,2.4,,,1.0025
132,0.0,,114.257,,0.0,39.0492,114.258,39.0492,-65.7415,2371.99,monload-611_runway,,,,,,,,2.4,,,0.9883291666666666
133,0.0,,115.197,,0.0,39.7514,115.196,39.7514,-64.8035,2410.37,monload-611_runway,,,,,,,,2.4,,,1.0043208333333333
134,0.0,,115.178,,0.0,40.3209,115.178,40.3209,-64.822,2410.05,monload-611_runway,,,,,,,,2.4,,,1.0041875
135,0.0,,117.384,,0.0,40.0177,117.386,40.0177,-62.6139,2483.4,monload-611_runway,,,,,,,,2.4,,,1.03475
136,0.0,,115.814,,0.0,38.751,115.814,38.751,-64.1862,2420.03,monload-611_runway,,,,,,,,2.4,,,1.0083458333333335
137,0.0,,113.354,,0.0,37.858,113.355,37.858,-66.6449,2319.0,monload-611_runway,,,,,,,,2.4,,,0.96625
138,0.0,,113.315,,0.0,42.9001,113.318,42.9001,-66.6818,2316.42,monload-611_runway,,,,,,,,2.4,,,0.965175
139,0.0,,114.102,,0.0,49.9773,114.095,49.9773,-65.9047,2346.3,monload-611_runway,,,,,,,,2.4,,,0.9776250000000001
140,0.0,,114.131,,0.0,52.678,114.127,52.678,-65.873,2347.52,monload-611_runway,,,,,,,,2.4,,,0.9781333333333333
141,0.0,,114.814,,0.0,57.1881,114.811,57.1881,-65.1893,2374.32,monload-611_runway,,,,,,,,2.4,,,0.9893000000000001
142,0.0,,115.39,,0.0,51.6617,115.388,51.6617,-64.6123,2397.42,monload-611_runway,,,,,,,,2.4,,,0.9989250000000001
143,0.0,,116.466,,0.0,37.0848,116.462,37.0848,-63.5376,2439.44,monload-611_runway,,,,,,,,2.4,,,1.0164333333333333
144,0.0,,114.705,,0.0,25.3175,114.706,25.3175,-65.2941,2366.37,monload-611_runway,,,,,,,,2.4,,,0.9859874999999999
145,0.0,,114.874,,0.0,23.1146,114.873,23.1146,-65.1269,2373.23,monload-611_runway,,,,,,,,2.4,,,0.9888458333333333
146,0.0,,114.863,,0.0,22.7156,114.864,22.7156,-65.1356,2372.84,monload-611_runway,,,,,,,,2.4,,,0.9886833333333334
147,0.0,,114.928,,0.0,19.4987,114.923,19.4987,-65.0774,2375.37,monload-611_runway,,,,,,,,2.4,,,0.9897374999999999
148,0.0,,114.941,,0.0,19.1538,114.94,19.1538,-65.0598,2375.92,monload-611_runway,,,,,,,,2.4,,,0.9899666666666667
149,0.0,,114.753,,0.0,19.44,114.755,19.44,-65.2454,2368.42,monload-611_runway,,,,,,,,2.4,,,0.9868416666666667
150,0.0,,114.642,,0.0,20.7921,114.643,20.7921,-65.3573,2363.82,monload-611_runway,,,,,,,,2.4,,,0.984925
151,0.0,,113.869,,0.0,30.6613,113.869,30.6613,-66.1311,2333.03,monload-611_runway,,,,,,,,2.4,,,0.9720958333333334
152,0.0,,113.237,,0.0,32.5578,113.238,32.5578,-66.762,2307.76,monload-611_runway,,,,,,,,2.4,,,0.9615666666666668
153,0.0,,112.584,,0.0,45.5458,112.583,45.5458,-67.4174,2294.87,monload-611_runway,,,,,,,,2.4,,,0.9561958333333332
154,0.0,,112.121,,0.0,40.5438,112.121,40.5438,-67.879,2275.87,monload-611_runway,,,,,,,,2.4,,,0.9482791666666667
155,0.0,,116.91,,0.0,31.8176,116.912,31.8176,-63.0877,2461.36,monload-611_runway,,,,,,,,2.4,,,1.0255666666666667
156,0.0,,117.779,,0.0,31.3428,117.779,31.3428,-62.2214,2495.52,monload-611_runway,,,,,,,,2.4,,,1.0398
157,0.0,,117.148,,0.0,32.0281,117.149,32.0281,-62.8508,2470.37,monload-611_runway,,,,,,,,2.4,,,1.0293208333333332
158,0.0,,116.938,,0.0,31.7662,116.939,31.7662,-63.0612,2462.03,monload-611_runway,,,,,,,,2.4,,,1.0258458333333333
159,0.0,,118.088,,0.0,32.0361,118.087,32.0361,-61.9134,2506.71,monload-611_runway,,,,,,,,2.4,,,1.0444625
160,0.0,,115.882,,0.0,33.0122,115.882,33.0122,-64.1179,2418.45,monload-611_runway,,,,,,,,2.4,,,1.0076874999999998
161,0.0,,114.498,,0.0,33.2851,114.497,33.2851,-65.5032,2361.19,monload-611_runway,,,,,,,,2.4,,,0.9838291666666666
162,0.0,,115.433,,0.0,36.5459,115.432,36.5459,-64.5678,2399.6,monload-611_runway,,,,,,,,2.4,,,0.9998333333333332
163,0.0,,115.171,,0.0,47.5561,115.172,47.5561,-64.8282,2388.88,monload-611_runway,,,,,,,,2.4,,,0.9953666666666667
164,0.0,,115.196,,0.0,49.2997,115.195,49.2997,-64.8051,2389.88,monload-611_runway,,,,,,,,2.4,,,0.9957833333333334
165,0.0,,115.757,,0.0,51.8892,115.756,51.8892,-64.2442,2411.58,monload-611_runway,,,,,,,,2.4,,,1.004825
166,0.0,,115.89,,0.0,51.0972,115.89,51.0972,-64.1098,2416.96,monload-611_runway,,,,,,,,2.4,,,1.0070666666666668
167,0.0,,116.399,,0.0,40.8171,116.398,40.8171,-63.602,2436.83,monload-611_runway,,,,,,,,2.4,,,1.0153458333333334
168,0.0,,114.665,,0.0,27.8677,114.667,27.8677,-65.3334,2364.87,monload-611_runway,,,,,,,,2.4,,,0.9853624999999999
169,0.0,,114.979,,0.0,23.6005,114.977,23.6005,-65.0234,2377.4,monload-611_runway,,,,,,,,2.4,,,0.9905833333333334
170,0.0,,115.005,,0.0,23.0303,115.003,23.0303,-64.9968,2378.48,monload-611_runway,,,,,,,,2.4,,,0.9910333333333333
171,0.0,,115.089,,0.0,19.8099,115.082,19.8099,-64.9178,2381.77,monload-611_runway,,,,,,,,2.4,,,0.9924041666666666
172,0.0,,115.095,,0.0,19.6465,115.094,19.6465,-64.9055,2382.01,monload-611_runway,,,,,,,,2.4,,,0.9925041666666667
173,0.0,,114.885,,0.0,20.1694,114.886,20.1694,-65.1139,2373.67,monload-611_runway,,,,,,,,2.4,,,0.9890291666666667
174,0.0,,114.757,,0.0,21.5583,114.758,21.5583,-65.2421,2368.44,monload-611_runway,,,,,,,,2.4,,,0.98685
175,0.0,,113.975,,0.0,31.2002,113.975,31.2002,-66.0254,2337.24,monload-611_runway,,,,,,,,2.4,,,0.9738499999999999
176,0.0,,114.004,,0.0,33.3904,114.0,33.3904,-65.9997,2338.41,monload-611_runway,,,,,,,,2.4,,,0.9743375
177,0.0,,112.828,,0.0,49.5935,112.827,49.5935,-67.1734,2304.45,monload-611_runway,,,,,,,,2.4,,,0.9601875
178,0.0,,115.19,,0.0,48.4258,115.185,48.4258,-64.8146,2405.13,monload-611_runway,,,,,,,,2.4,,,1.0021375000000001
179,0.0,,112.088,,0.0,39.5114,112.087,39.5114,-67.9127,2271.24,monload-611_runway,,,,,,,,2.4,,,0.9463499999999999
180,0.0,,112.421,,0.0,38.1499,112.417,38.1499,-67.5833,2285.95,monload-611_runway,,,,,,,,2.4,,,0.9524791666666665
