hour,t(sec),V1,VAngle1,V2,VAngle2,I1,IAngle1,I2,IAngle2,V3,Name,VAngle3,I3,IAngle3,V4,VAngle4,I4,IAngle4,kv,V1(PU),V2(PU),V3(PU)
1,0.0,,111.12899999999999,,0.0,20.2518,111.132,20.2518,-68.8685,2402.96,monload-611_runway,,,,,,,,2.4,,,1.0012333333333334
2,0.0,,111.169,,0.0,21.49,111.164,21.49,-68.8358,2405.12,monload-611_runway,,,,,,,,2.4,,,1.0021333333333333
3,0.0,,111.14399999999999,,0.0,18.735,111.147,18.735,-68.8529,2403.77,monload-611_runway,,,,,,,,2.4,,,1.0015708333333333
4,0.0,,111.149,,0.0,18.1696,111.149,18.1696,-68.8512,2403.99,monload-611_runway,,,,,,,,2.4,,,1.0016625
5,0.0,,110.932,,0.0,18.3433,110.934,18.3433,-69.0663,2393.83,monload-611_runway,,,,,,,,2.4,,,0.9974291666666666
6,0.0,,110.81299999999999,,0.0,19.8621,110.814,19.8621,-69.1864,2388.11,monload-611_runway,,,,,,,,2.4,,,0.9950458333333334
7,0.0,,110.084,,0.0,29.8483,110.085,29.8483,-69.9154,2354.41,monload-611_runway,,,,,,,,2.4,,,0.9810041666666666
8,0.0,,110.23899999999999,,0.0,31.8618,110.23700000000001,31.8618,-69.7627,2361.71,monload-611_runway,,,,,,,,2.4,,,0.9840458333333334
9,0.0,,109.805,,0.0,44.0268,109.805,44.0268,-70.1947,2342.22,monload-611_runway,,,,,,,,2.4,,,0.9759249999999999
10,0.0,,110.32700000000001,,0.0,37.8158,110.32600000000001,37.8158,-69.6739,2367.65,monload-611_runway,,,,,,,,2.4,,,0.9865208333333334
11,0.0,,110.93,,0.0,26.7204,110.93,26.7204,-69.0701,2396.7,monload-611_runway,,,,,,,,2.4,,,0.9986249999999999
12,0.0,,112.712,,0.0,25.0426,112.71600000000001,25.0426,-67.2836,2468.18,monload-611_runway,,,,,,,,2.4,,,1.0284083333333334
13,0.0,,110.70299999999999,,0.0,24.9564,110.704,24.9564,-69.2958,2370.4,monload-611_runway,,,,,,,,2.4,,,0.9876666666666667
14,0.0,,111.48899999999999,,0.0,24.9959,111.48899999999999,24.9959,-68.5114,2408.79,monload-611_runway,,,,,,,,2.4,,,1.0036625
15,0.0,,112.54299999999999,,0.0,24.9268,112.542,24.9268,-67.4581,2459.82,monload-611_runway,,,,,,,,2.4,,,1.024925
16,0.0,,113.03299999999999,,0.0,24.7866,113.03200000000001,24.7866,-66.9679,2483.27,monload-611_runway,,,,,,,,2.4,,,1.0346958333333334
17,0.0,,111.993,,0.0,25.989,111.994,25.989,-68.006,2433.26,monload-611_runway,,,,,,,,2.4,,,1.0138583333333335
18,0.0,,110.43299999999999,,0.0,31.4301,110.434,31.4301,-69.5665,2357.28,monload-611_runway,,,,,,,,2.4,,,0.9822000000000001
19,0.0,,109.99799999999999,,0.0,43.1551,110.001,43.1551,-69.9987,2336.66,monload-611_runway,,,,,,,,2.4,,,0.9736083333333333
20,0.0,,111.087,,0.0,45.3034,111.086,45.3034,-68.9139,2390.71,monload-611_runway,,,,,,,,2.4,,,0.9961291666666667
21,0.0,,112.296,,0.0,47.8087,112.295,47.8087,-67.7047,2449.22,monload-611_runway,,,,,,,,2.4,,,1.0205083333333334
22,0.0,,111.569,,0.0,46.4444,111.57,46.4444,-68.4302,2413.57,monload-611_runway,,,,,,,,2.4,,,1.0056541666666667
23,0.0,,114.001,,0.0,35.6973,114.00200000000001,35.6973,-65.9976,2512.27,monload-611_runway,,,,,,,,2.4,,,1.0467791666666666
24,0.0,,116.671,,0.0,23.7911,116.67200000000001,23.7911,-63.3284,2616.66,monload-611_runway,,,,,,,,2.4,,,1.0902749999999999
25,0.0,,114.229,,0.0,18.6667,114.229,18.6667,-65.7706,2505.19,monload-611_runway,,,,,,,,2.4,,,1.0438291666666666
26,0.0,,114.439,,0.0,17.8494,114.439,17.8494,-65.5612,2514.84,monload-611_runway,,,,,,,,2.4,,,1.0478500000000002
27,0.0,,115.329,,0.0,17.166,115.329,17.166,-64.6707,2555.7,monload-611_runway,,,,,,,,2.4,,,1.064875
28,0.0,,113.93,,0.0,17.0116,113.931,17.0116,-66.0692,2491.29,monload-611_runway,,,,,,,,2.4,,,1.0380375
29,0.0,,111.569,,0.0,17.6802,111.565,17.6802,-68.4351,2397.6,monload-611_runway,,,,,,,,2.4,,,0.999
30,0.0,,115.193,,0.0,21.6822,115.193,21.6822,-64.807,2570.03,monload-611_runway,,,,,,,,2.4,,,1.0708458333333335
31,0.0,,113.016,,0.0,33.1809,113.016,33.1809,-66.9838,2475.96,monload-611_runway,,,,,,,,2.4,,,1.03165
32,0.0,,108.91799999999999,,0.0,34.8528,108.915,34.8528,-71.0848,2306.82,monload-611_runway,,,,,,,,2.4,,,0.9611750000000001
33,0.0,,109.87700000000001,,0.0,30.7756,109.876,30.7756,-70.1243,2356.61,monload-611_runway,,,,,,,,2.4,,,0.9819208333333334
34,0.0,,110.99600000000001,,0.0,31.0977,110.994,31.0977,-69.006,2414.03,monload-611_runway,,,,,,,,2.4,,,1.0058458333333333
35,0.0,,111.25200000000001,,0.0,25.135,111.25,25.135,-68.75,2426.41,monload-611_runway,,,,,,,,2.4,,,1.0110041666666667
36,0.0,,109.47399999999999,,0.0,26.0047,109.476,26.0047,-70.5235,2337.98,monload-611_runway,,,,,,,,2.4,,,0.9741583333333333
37,0.0,,113.916,,0.0,26.4531,113.916,26.4531,-66.0835,2523.95,monload-611_runway,,,,,,,,2.4,,,1.0516458333333332
38,0.0,,111.471,,0.0,25.3752,111.47200000000001,25.3752,-68.5275,2408.25,monload-611_runway,,,,,,,,2.4,,,1.0034375
39,0.0,,115.27600000000001,,0.0,25.0185,115.27600000000001,25.0185,-64.7237,2572.46,monload-611_runway,,,,,,,,2.4,,,1.0718583333333334
40,0.0,,112.931,,0.0,24.748,112.932,24.748,-67.0676,2462.69,monload-611_runway,,,,,,,,2.4,,,1.0261208333333334
41,0.0,,112.30799999999999,,0.0,25.8685,112.309,25.8685,-67.6914,2433.67,monload-611_runway,,,,,,,,2.4,,,1.0140291666666668
42,0.0,,108.29700000000001,,0.0,31.6175,108.29700000000001,31.6175,-71.7029,2276.88,monload-611_runway,,,,,,,,2.4,,,0.9487000000000001
43,0.0,,110.855,,0.0,38.7986,110.852,38.7986,-69.1475,2400.85,monload-611_runway,,,,,,,,2.4,,,1.0003541666666667
44,0.0,,113.40100000000001,,0.0,41.1781,113.402,41.1781,-66.5976,2493.69,monload-611_runway,,,,,,,,2.4,,,1.0390375
45,0.0,,113.574,,0.0,45.1231,113.572,45.1231,-66.4277,2498.64,monload-611_runway,,,,,,,,2.4,,,1.0411
46,0.0,,114.71799999999999,,0.0,42.8302,114.71799999999999,42.8302,-65.282,2551.44,monload-611_runway,,,,,,,,2.4,,,1.0631
47,0.0,,115.962,,0.0,31.682,115.963,31.682,-64.0372,2587.99,monload-611_runway,,,,,,,,2.4,,,1.0783291666666666
48,0.0,,115.863,,0.0,21.6699,115.863,21.6699,-64.1367,2581.95,monload-611_runway,,,,,,,,2.4,,,1.0758124999999998
49,0.0,,114.99600000000001,,0.0,19.0592,114.995,19.0592,-65.0048,2542.0,monload-611_runway,,,,,,,,2.4,,,1.0591666666666666
50,0.0,,116.59200000000001,,0.0,19.0828,116.59100000000001,19.0828,-63.4089,2614.31,monload-611_runway,,,,,,,,2.4,,,1.0892958333333334
51,0.0,,115.131,,0.0,18.0849,115.13,18.0849,-64.8697,2547.82,monload-611_runway,,,,,,,,2.4,,,1.0615916666666667
52,0.0,,116.249,,0.0,19.0142,116.249,19.0142,-63.7514,2598.73,monload-611_runway,,,,,,,,2.4,,,1.0828041666666666
53,0.0,,110.98299999999999,,0.0,19.6598,110.98200000000001,19.6598,-69.0182,2385.13,monload-611_runway,,,,,,,,2.4,,,0.9938041666666667
54,0.0,,112.572,,0.0,23.9779,112.56700000000001,23.9779,-67.4328,2463.5,monload-611_runway,,,,,,,,2.4,,,1.0264583333333333
55,0.0,,111.28200000000001,,0.0,35.7182,111.286,35.7182,-68.7139,2408.47,monload-611_runway,,,,,,,,2.4,,,1.0035291666666666
56,0.0,,107.734,,0.0,35.6469,107.734,35.6469,-72.266,2260.12,monload-611_runway,,,,,,,,2.4,,,0.9417166666666666
57,0.0,,110.523,,0.0,31.5574,110.525,31.5574,-69.4753,2389.96,monload-611_runway,,,,,,,,2.4,,,0.9958166666666667
58,0.0,,113.37,,0.0,31.2533,113.37200000000001,31.2533,-66.6279,2499.07,monload-611_runway,,,,,,,,2.4,,,1.0412791666666668
59,0.0,,113.8,,0.0,24.7817,113.79899999999999,24.7817,-66.2012,2518.83,monload-611_runway,,,,,,,,2.4,,,1.0495125
60,0.0,,110.29799999999999,,0.0,25.9092,110.296,25.9092,-69.7041,2364.47,monload-611_runway,,,,,,,,2.4,,,0.9851958333333333
61,0.0,,112.40700000000001,,0.0,27.1001,112.405,27.1001,-67.5954,2466.98,monload-611_runway,,,,,,,,2.4,,,1.0279083333333334
62,0.0,,112.154,,0.0,27.5835,112.155,27.5835,-67.8451,2456.16,monload-611_runway,,,,,,,,2.4,,,1.0233999999999999
63,0.0,,111.225,,0.0,27.9419,111.23,27.9419,-68.7702,2410.85,monload-611_runway,,,,,,,,2.4,,,1.0045208333333333
64,0.0,,110.479,,0.0,28.0794,110.48299999999999,28.0794,-69.5167,2374.09,monload-611_runway,,,,,,,,2.4,,,0.9892041666666668
65,0.0,,109.31700000000001,,0.0,28.5183,109.315,28.5183,-70.6849,2330.29,monload-611_runway,,,,,,,,2.4,,,0.9709541666666667
66,0.0,,108.081,,0.0,32.5884,108.081,32.5884,-71.9195,2279.21,monload-611_runway,,,,,,,,2.4,,,0.9496708333333334
67,0.0,,110.36399999999999,,0.0,38.728,110.36200000000001,38.728,-69.638,2390.16,monload-611_runway,,,,,,,,2.4,,,0.9958999999999999
68,0.0,,109.915,,0.0,40.8709,109.917,40.8709,-70.0827,2367.61,monload-611_runway,,,,,,,,2.4,,,0.9865041666666667
69,0.0,,111.31,,0.0,44.806000000000004,111.315,44.806000000000004,-68.6852,2419.53,monload-611_runway,,,,,,,,2.4,,,1.0081375000000001
70,0.0,,110.584,,0.0,41.9513,110.585,41.9513,-69.415,2382.52,monload-611_runway,,,,,,,,2.4,,,0.9927166666666667
71,0.0,,112.398,,0.0,30.874000000000002,112.40100000000001,30.874000000000002,-67.5993,2452.57,monload-611_runway,,,,,,,,2.4,,,1.0219041666666668
72,0.0,,111.546,,0.0,21.1947,111.546,21.1947,-68.4538,2409.97,monload-611_runway,,,,,,,,2.4,,,1.0041541666666667
73,0.0,,112.15899999999999,,0.0,18.5785,112.155,18.5785,-67.8453,2439.26,monload-611_runway,,,,,,,,2.4,,,1.0163583333333335
74,0.0,,111.773,,0.0,17.7129,111.775,17.7129,-68.2247,2420.45,monload-611_runway,,,,,,,,2.4,,,1.0085208333333333
75,0.0,,111.374,,0.0,16.7422,111.376,16.7422,-68.6243,2400.83,monload-611_runway,,,,,,,,2.4,,,1.0003458333333333
76,0.0,,111.318,,0.0,16.8093,111.32,16.8093,-68.6797,2398.1,monload-611_runway,,,,,,,,2.4,,,0.9992083333333333
77,0.0,,110.398,,0.0,17.5128,110.399,17.5128,-69.6013,2355.3,monload-611_runway,,,,,,,,2.4,,,0.9813750000000001
78,0.0,,110.13600000000001,,0.0,20.9229,110.13799999999999,20.9229,-69.8619,2342.73,monload-611_runway,,,,,,,,2.4,,,0.9761375
79,0.0,,108.256,,0.0,32.7171,108.255,32.7171,-71.7452,2283.36,monload-611_runway,,,,,,,,2.4,,,0.9514
80,0.0,,107.458,,0.0,34.4155,107.458,34.4155,-72.5418,2244.28,monload-611_runway,,,,,,,,2.4,,,0.9351166666666667
81,0.0,,109.00299999999999,,0.0,30.82,109.001,30.82,-70.9985,2326.7,monload-611_runway,,,,,,,,2.4,,,0.9694583333333333
82,0.0,,111.34299999999999,,0.0,30.1071,111.345,30.1071,-68.655,2431.0,monload-611_runway,,,,,,,,2.4,,,1.0129166666666667
83,0.0,,113.62899999999999,,0.0,23.08,113.63,23.08,-66.3697,2509.55,monload-611_runway,,,,,,,,2.4,,,1.0456458333333334
84,0.0,,114.791,,0.0,24.0486,114.79,24.0486,-65.2097,2565.59,monload-611_runway,,,,,,,,2.4,,,1.0689958333333334
85,0.0,,115.45,,0.0,25.3076,115.45100000000001,25.3076,-64.5489,2578.53,monload-611_runway,,,,,,,,2.4,,,1.0743875
86,0.0,,114.90299999999999,,0.0,26.4207,114.904,26.4207,-65.096,2554.8,monload-611_runway,,,,,,,,2.4,,,1.0645
87,0.0,,113.706,,0.0,26.4039,113.706,26.4039,-66.2941,2499.32,monload-611_runway,,,,,,,,2.4,,,1.0413833333333333
88,0.0,,111.68700000000001,,0.0,26.3335,111.685,26.3335,-68.3153,2419.54,monload-611_runway,,,,,,,,2.4,,,1.0081416666666667
89,0.0,,108.848,,0.0,27.5633,108.845,27.5633,-71.1551,2307.74,monload-611_runway,,,,,,,,2.4,,,0.9615583333333333
90,0.0,,106.913,,0.0,32.8525,106.913,32.8525,-73.0867,2218.0,monload-611_runway,,,,,,,,2.4,,,0.9241666666666667
91,0.0,,107.685,,0.0,40.9629,107.685,40.9629,-72.3147,2253.95,monload-611_runway,,,,,,,,2.4,,,0.9391458333333332
92,0.0,,107.883,,0.0,44.227,107.883,44.227,-72.1168,2264.58,monload-611_runway,,,,,,,,2.4,,,0.9435749999999999
93,0.0,,109.066,,0.0,49.2734,109.061,49.2734,-70.939,2323.16,monload-611_runway,,,,,,,,2.4,,,0.9679833333333333
94,0.0,,110.046,,0.0,46.4184,110.04,46.4184,-69.9604,2372.02,monload-611_runway,,,,,,,,2.4,,,0.9883416666666667
95,0.0,,111.305,,0.0,34.3923,111.309,34.3923,-68.6908,2416.18,monload-611_runway,,,,,,,,2.4,,,1.0067416666666666
96,0.0,,111.794,,0.0,24.0131,111.788,24.0131,-68.2122,2438.96,monload-611_runway,,,,,,,,2.4,,,1.0162333333333333
97,0.0,,111.34299999999999,,0.0,21.7964,111.348,21.7964,-68.6521,2416.28,monload-611_runway,,,,,,,,2.4,,,1.0067833333333334
98,0.0,,111.24700000000001,,0.0,20.8093,111.24799999999999,20.8093,-68.7519,2411.39,monload-611_runway,,,,,,,,2.4,,,1.0047458333333332
99,0.0,,111.338,,0.0,19.5335,111.337,19.5335,-68.6631,2415.71,monload-611_runway,,,,,,,,2.4,,,1.0065458333333333
100,0.0,,112.17399999999999,,0.0,19.3539,112.17299999999999,19.3539,-67.8269,2456.51,monload-611_runway,,,,,,,,2.4,,,1.0235458333333334
101,0.0,,111.344,,0.0,19.795,111.345,19.795,-68.6552,2418.14,monload-611_runway,,,,,,,,2.4,,,1.0075583333333333
102,0.0,,111.235,,0.0,23.6849,111.236,23.6849,-68.7638,2413.64,monload-611_runway,,,,,,,,2.4,,,1.0056833333333333
103,0.0,,108.848,,0.0,38.4226,108.848,38.4226,-71.1516,2301.49,monload-611_runway,,,,,,,,2.4,,,0.9589541666666666
104,0.0,,107.734,,0.0,42.3399,107.734,42.3399,-72.2661,2261.64,monload-611_runway,,,,,,,,2.4,,,0.9423499999999999
105,0.0,,109.12,,0.0,39.7651,109.118,39.7651,-70.8824,2335.57,monload-611_runway,,,,,,,,2.4,,,0.9731541666666668
106,0.0,,111.042,,0.0,42.458999999999996,111.045,42.458999999999996,-68.9554,2420.27,monload-611_runway,,,,,,,,2.4,,,1.0084458333333333
107,0.0,,112.77799999999999,,0.0,36.7749,112.78,36.7749,-67.2198,2489.4,monload-611_runway,,,,,,,,2.4,,,1.03725
108,0.0,,114.315,,0.0,35.2967,114.315,35.2967,-65.6853,2546.9,monload-611_runway,,,,,,,,2.4,,,1.0612083333333333
109,0.0,,115.209,,0.0,36.0367,115.21,36.0367,-64.7898,2570.33,monload-611_runway,,,,,,,,2.4,,,1.0709708333333332
110,0.0,,114.82799999999999,,0.0,36.6395,114.829,36.6395,-65.1709,2554.07,monload-611_runway,,,,,,,,2.4,,,1.0641958333333335
111,0.0,,114.699,,0.0,36.9678,114.691,36.9678,-65.309,2548.25,monload-611_runway,,,,,,,,2.4,,,1.0617708333333333
112,0.0,,112.411,,0.0,35.8436,112.413,35.8436,-67.5873,2440.45,monload-611_runway,,,,,,,,2.4,,,1.0168541666666666
113,0.0,,109.35799999999999,,0.0,37.3236,109.35600000000001,37.3236,-70.6443,2334.49,monload-611_runway,,,,,,,,2.4,,,0.9727041666666666
114,0.0,,107.04,,0.0,41.2697,107.04,41.2697,-72.9604,2224.71,monload-611_runway,,,,,,,,2.4,,,0.9269625
115,0.0,,108.15299999999999,,0.0,48.2495,108.152,48.2495,-71.8478,2277.99,monload-611_runway,,,,,,,,2.4,,,0.9491624999999999
116,0.0,,108.64200000000001,,0.0,50.8826,108.639,50.8826,-71.361,2303.35,monload-611_runway,,,,,,,,2.4,,,0.9597291666666666
117,0.0,,109.15,,0.0,55.1034,109.148,55.1034,-70.8516,2326.64,monload-611_runway,,,,,,,,2.4,,,0.9694333333333333
118,0.0,,109.68700000000001,,0.0,52.4571,109.685,52.4571,-70.3154,2352.93,monload-611_runway,,,,,,,,2.4,,,0.9803875
119,0.0,,110.31,,0.0,40.733000000000004,110.30799999999999,40.733000000000004,-69.6916,2380.79,monload-611_runway,,,,,,,,2.4,,,0.9919958333333333
120,0.0,,110.639,,0.0,29.5798,110.63,29.5798,-69.3701,2396.03,monload-611_runway,,,,,,,,2.4,,,0.9983458333333334
121,0.0,,110.915,,0.0,25.8806,110.919,25.8806,-69.0813,2393.93,monload-611_runway,,,,,,,,2.4,,,0.9974708333333333
122,0.0,,110.853,,0.0,24.5759,110.854,24.5759,-69.1459,2390.73,monload-611_runway,,,,,,,,2.4,,,0.9961375
123,0.0,,110.975,,0.0,22.9971,110.97399999999999,22.9971,-69.0257,2396.61,monload-611_runway,,,,,,,,2.4,,,0.9985875000000001
124,0.0,,110.94,,0.0,22.3842,110.943,22.3842,-69.0566,2394.81,monload-611_runway,,,,,,,,2.4,,,0.9978374999999999
125,0.0,,110.088,,0.0,22.8134,110.089,22.8134,-69.9107,2354.86,monload-611_runway,,,,,,,,2.4,,,0.9811916666666667
126,0.0,,109.85799999999999,,0.0,26.7316,109.86,26.7316,-70.1398,2343.89,monload-611_runway,,,,,,,,2.4,,,0.9766208333333333
127,0.0,,107.825,,0.0,40.9497,107.829,40.9497,-72.1711,2261.29,monload-611_runway,,,,,,,,2.4,,,0.9422041666666666
128,0.0,,107.038,,0.0,44.3479,107.04,44.3479,-72.9601,2222.97,monload-611_runway,,,,,,,,2.4,,,0.9262374999999999
129,0.0,,107.846,,0.0,43.825,107.846,43.825,-72.1539,2268.65,monload-611_runway,,,,,,,,2.4,,,0.9452708333333334
130,0.0,,109.851,,0.0,44.3574,109.851,44.3574,-70.1486,2373.73,monload-611_runway,,,,,,,,2.4,,,0.9890541666666667
131,0.0,,112.208,,0.0,38.3172,112.211,38.3172,-67.7887,2460.77,monload-611_runway,,,,,,,,2.4,,,1.0253208333333332
132,0.0,,111.25200000000001,,0.0,39.0492,111.256,39.0492,-68.7436,2414.49,monload-611_runway,,,,,,,,2.4,,,1.0060375
133,0.0,,112.329,,0.0,39.7514,112.325,39.7514,-67.6754,2465.77,monload-611_runway,,,,,,,,2.4,,,1.0274041666666667
134,0.0,,112.21700000000001,,0.0,40.3209,112.219,40.3209,-67.7808,2461.94,monload-611_runway,,,,,,,,2.4,,,1.0258083333333334
135,0.0,,112.286,,0.0,40.0177,112.285,40.0177,-67.7154,2465.28,monload-611_runway,,,,,,,,2.4,,,1.0272000000000001
136,0.0,,110.505,,0.0,38.751,110.506,38.751,-69.4936,2377.6,monload-611_runway,,,,,,,,2.4,,,0.9906666666666666
137,0.0,,108.134,,0.0,37.7085,108.134,37.7085,-71.8661,2271.47,monload-611_runway,,,,,,,,2.4,,,0.9464458333333332
138,0.0,,106.634,,0.0,41.6463,106.634,41.6463,-73.3659,2216.88,monload-611_runway,,,,,,,,2.4,,,0.9237000000000001
139,0.0,,107.49700000000001,,0.0,49.4689,107.49700000000001,49.4689,-72.5031,2258.02,monload-611_runway,,,,,,,,2.4,,,0.9408416666666667
140,0.0,,107.665,,0.0,52.3635,107.665,52.3635,-72.3346,2267.1,monload-611_runway,,,,,,,,2.4,,,0.9446249999999999
141,0.0,,108.331,,0.0,57.1881,108.329,57.1881,-71.6706,2299.39,monload-611_runway,,,,,,,,2.4,,,0.9580791666666666
142,0.0,,109.209,,0.0,51.6617,109.21,51.6617,-70.7903,2328.51,monload-611_runway,,,,,,,,2.4,,,0.9702125000000001
143,0.0,,110.399,,0.0,37.0848,110.397,37.0848,-69.6034,2384.84,monload-611_runway,,,,,,,,2.4,,,0.9936833333333334
144,0.0,,111.073,,0.0,25.3175,111.07600000000001,25.3175,-68.9235,2402.02,monload-611_runway,,,,,,,,2.4,,,1.0008416666666666
145,0.0,,111.09200000000001,,0.0,23.1146,111.09100000000001,23.1146,-68.9088,2402.49,monload-611_runway,,,,,,,,2.4,,,1.0010374999999998
146,0.0,,111.14,,0.0,22.7156,111.135,22.7156,-68.865,2404.96,monload-611_runway,,,,,,,,2.4,,,1.0020666666666667
147,0.0,,111.088,,0.0,19.4987,111.089,19.4987,-68.9112,2402.12,monload-611_runway,,,,,,,,2.4,,,1.0008833333333333
148,0.0,,110.978,,0.0,19.1538,110.979,19.1538,-69.0208,2396.62,monload-611_runway,,,,,,,,2.4,,,0.9985916666666667
149,0.0,,110.866,,0.0,19.44,110.867,19.44,-69.133,2391.65,monload-611_runway,,,,,,,,2.4,,,0.9965208333333334
150,0.0,,110.537,,0.0,20.7921,110.54,20.7921,-69.4602,2375.48,monload-611_runway,,,,,,,,2.4,,,0.9897833333333333
151,0.0,,109.829,,0.0,30.6613,109.83,30.6613,-70.1705,2342.94,monload-611_runway,,,,,,,,2.4,,,0.976225
152,0.0,,109.10700000000001,,0.0,32.5578,109.10799999999999,32.5578,-70.8919,2308.6,monload-611_runway,,,,,,,,2.4,,,0.9619166666666666
153,0.0,,110.635,,0.0,45.5458,110.631,45.5458,-69.369,2386.58,monload-611_runway,,,,,,,,2.4,,,0.9944083333333333
154,0.0,,110.031,,0.0,40.6198,110.03299999999999,40.6198,-69.9669,2358.53,monload-611_runway,,,,,,,,2.4,,,0.9827208333333334
155,0.0,,114.899,,0.0,32.3438,114.899,32.3438,-65.1008,2561.66,monload-611_runway,,,,,,,,2.4,,,1.0673583333333332
156,0.0,,115.77,,0.0,32.1554,115.771,32.1554,-64.2294,2585.33,monload-611_runway,,,,,,,,2.4,,,1.0772208333333333
157,0.0,,115.177,,0.0,32.4966,115.177,32.4966,-64.8228,2556.86,monload-611_runway,,,,,,,,2.4,,,1.0653583333333334
158,0.0,,114.977,,0.0,32.111,114.978,32.111,-65.0221,2547.35,monload-611_runway,,,,,,,,2.4,,,1.0613958333333333
159,0.0,,113.9,,0.0,32.0361,113.899,32.0361,-66.101,2497.4,monload-611_runway,,,,,,,,2.4,,,1.0405833333333334
160,0.0,,111.594,,0.0,33.0122,111.594,33.0122,-68.4065,2402.35,monload-611_runway,,,,,,,,2.4,,,1.0009791666666665
161,0.0,,110.439,,0.0,33.2851,110.439,33.2851,-69.5614,2360.82,monload-611_runway,,,,,,,,2.4,,,0.9836750000000001
162,0.0,,109.29799999999999,,0.0,36.5459,109.29700000000001,36.5459,-70.7029,2318.19,monload-611_runway,,,,,,,,2.4,,,0.9659125000000001
163,0.0,,109.461,,0.0,47.5561,109.45700000000001,47.5561,-70.5431,2327.2,monload-611_runway,,,,,,,,2.4,,,0.9696666666666666
164,0.0,,108.93700000000001,,0.0,49.2997,108.93799999999999,49.2997,-71.0618,2300.59,monload-611_runway,,,,,,,,2.4,,,0.9585791666666668
165,0.0,,109.493,,0.0,51.8892,109.492,51.8892,-70.5081,2326.57,monload-611_runway,,,,,,,,2.4,,,0.9694041666666667
166,0.0,,109.56200000000001,,0.0,51.0972,109.561,51.0972,-70.4389,2329.87,monload-611_runway,,,,,,,,2.4,,,0.9707791666666666
167,0.0,,110.369,,0.0,40.8171,110.368,40.8171,-69.632,2368.78,monload-611_runway,,,,,,,,2.4,,,0.9869916666666667
168,0.0,,110.616,,0.0,27.8677,110.61200000000001,27.8677,-69.3876,2379.63,monload-611_runway,,,,,,,,2.4,,,0.9915125
