hour,t(sec),V1,VAngle1,V2,VAngle2,I1,IAngle1,I2,IAngle2,V3,Name,VAngle3,I3,IAngle3,V4,VAngle4,I4,IAngle4,kv,V1(PU),V2(PU),V3(PU)
1,0.0,,111.15299999999999,,0.0,20.2518,111.156,20.2518,-68.8442,2404.16,monload-611_runway,,,,,,,,2.4,,,1.0017333333333334
2,0.0,,111.197,,0.0,21.49,111.19200000000001,21.49,-68.8079,2406.51,monload-611_runway,,,,,,,,2.4,,,1.0027125000000001
3,0.0,,111.16799999999999,,0.0,18.735,111.17200000000001,18.735,-68.8282,2404.97,monload-611_runway,,,,,,,,2.4,,,1.0020708333333332
4,0.0,,111.17299999999999,,0.0,18.1696,111.17299999999999,18.1696,-68.827,2405.19,monload-611_runway,,,,,,,,2.4,,,1.0021625
5,0.0,,110.95700000000001,,0.0,18.3433,110.959,18.3433,-69.0411,2395.08,monload-611_runway,,,,,,,,2.4,,,0.99795
6,0.0,,110.84,,0.0,19.8621,110.84100000000001,19.8621,-69.1594,2389.45,monload-611_runway,,,,,,,,2.4,,,0.9956041666666666
7,0.0,,110.12100000000001,,0.0,29.8483,110.12200000000001,29.8483,-69.8783,2356.27,monload-611_runway,,,,,,,,2.4,,,0.9817791666666666
8,0.0,,110.27799999999999,,0.0,31.8618,110.27600000000001,31.8618,-69.7235,2363.67,monload-611_runway,,,,,,,,2.4,,,0.9848625000000001
9,0.0,,109.837,,0.0,44.0268,109.837,44.0268,-70.1632,2343.81,monload-611_runway,,,,,,,,2.4,,,0.9765874999999999
10,0.0,,110.352,,0.0,37.8158,110.352,37.8158,-69.6484,2368.98,monload-611_runway,,,,,,,,2.4,,,0.987075
11,0.0,,110.958,,0.0,26.7204,110.95700000000001,26.7204,-69.0433,2398.09,monload-611_runway,,,,,,,,2.4,,,0.9992041666666668
12,0.0,,112.742,,0.0,25.0426,112.74700000000001,25.0426,-67.2534,2469.62,monload-611_runway,,,,,,,,2.4,,,1.0290083333333333
13,0.0,,110.73200000000001,,0.0,24.9564,110.73299999999999,24.9564,-69.2666,2371.83,monload-611_runway,,,,,,,,2.4,,,0.9882624999999999
14,0.0,,111.514,,0.0,24.9959,111.51299999999999,24.9959,-68.4871,2409.97,monload-611_runway,,,,,,,,2.4,,,1.0041541666666667
15,0.0,,112.596,,0.0,24.9268,112.595,24.9268,-67.4049,2462.36,monload-611_runway,,,,,,,,2.4,,,1.0259833333333335
16,0.0,,113.116,,0.0,24.7866,113.115,24.7866,-66.8848,2487.21,monload-611_runway,,,,,,,,2.4,,,1.0363375
17,0.0,,112.094,,0.0,25.989,112.095,25.989,-67.9049,2438.13,monload-611_runway,,,,,,,,2.4,,,1.0158875
18,0.0,,110.509,,0.0,31.4301,110.51,31.4301,-69.4903,2361.05,monload-611_runway,,,,,,,,2.4,,,0.9837708333333334
19,0.0,,110.066,,0.0,43.1551,110.069,43.1551,-69.9306,2340.05,monload-611_runway,,,,,,,,2.4,,,0.9750208333333334
20,0.0,,111.245,,0.0,45.3034,111.245,45.3034,-68.7553,2398.48,monload-611_runway,,,,,,,,2.4,,,0.9993666666666666
21,0.0,,112.54700000000001,,0.0,47.8087,112.546,47.8087,-67.4545,2461.23,monload-611_runway,,,,,,,,2.4,,,1.0255125
22,0.0,,111.738,,0.0,46.4444,111.73899999999999,46.4444,-68.2612,2421.77,monload-611_runway,,,,,,,,2.4,,,1.0090708333333334
23,0.0,,114.325,,0.0,35.8008,114.325,35.8008,-65.6746,2527.3,monload-611_runway,,,,,,,,2.4,,,1.0530416666666667
24,0.0,,117.2,,0.0,24.002,117.2,24.002,-62.7999,2639.87,monload-611_runway,,,,,,,,2.4,,,1.0999458333333332
25,0.0,,114.541,,0.0,18.6667,114.542,18.6667,-65.458,2519.47,monload-611_runway,,,,,,,,2.4,,,1.0497791666666665
26,0.0,,114.75399999999999,,0.0,17.9149,114.75399999999999,17.9149,-65.2461,2529.26,monload-611_runway,,,,,,,,2.4,,,1.0538583333333333
27,0.0,,115.711,,0.0,17.2819,115.712,17.2819,-64.2884,2572.96,monload-611_runway,,,,,,,,2.4,,,1.0720666666666667
28,0.0,,114.213,,0.0,17.0116,114.213,17.0116,-65.7865,2504.28,monload-611_runway,,,,,,,,2.4,,,1.04345
29,0.0,,111.714,,0.0,17.6802,111.71,17.6802,-68.2904,2404.59,monload-611_runway,,,,,,,,2.4,,,1.0019125
30,0.0,,115.65,,0.0,21.7181,115.65,21.7181,-64.3499,2574.29,monload-611_runway,,,,,,,,2.4,,,1.0726208333333334
31,0.0,,113.439,,0.0,33.1809,113.439,33.1809,-66.5612,2480.12,monload-611_runway,,,,,,,,2.4,,,1.0333833333333333
32,0.0,,109.096,,0.0,34.8528,109.095,34.8528,-70.9053,2315.92,monload-611_runway,,,,,,,,2.4,,,0.9649666666666668
33,0.0,,110.111,,0.0,30.7756,110.109,30.7756,-69.8906,2368.35,monload-611_runway,,,,,,,,2.4,,,0.9868125
34,0.0,,111.28299999999999,,0.0,31.0977,111.281,31.0977,-68.7193,2428.16,monload-611_runway,,,,,,,,2.4,,,1.0117333333333334
35,0.0,,111.507,,0.0,25.135,111.505,25.135,-68.4945,2438.94,monload-611_runway,,,,,,,,2.4,,,1.016225
36,0.0,,109.742,,0.0,26.0047,109.745,26.0047,-70.2555,2351.51,monload-611_runway,,,,,,,,2.4,,,0.9797958333333334
37,0.0,,114.17399999999999,,0.0,26.5813,114.17399999999999,26.5813,-65.8259,2536.18,monload-611_runway,,,,,,,,2.4,,,1.0567416666666667
38,0.0,,111.821,,0.0,25.3752,111.822,25.3752,-68.1783,2425.14,monload-611_runway,,,,,,,,2.4,,,1.010475
39,0.0,,115.57,,0.0,25.1506,115.571,25.1506,-64.429,2586.05,monload-611_runway,,,,,,,,2.4,,,1.0775208333333335
40,0.0,,113.225,,0.0,24.748,113.226,24.748,-66.7739,2476.43,monload-611_runway,,,,,,,,2.4,,,1.0318458333333334
41,0.0,,112.725,,0.0,25.8685,112.726,25.8685,-67.2743,2453.39,monload-611_runway,,,,,,,,2.4,,,1.0222458333333333
42,0.0,,108.458,,0.0,31.6633,108.456,31.6633,-71.5444,2285.24,monload-611_runway,,,,,,,,2.4,,,0.9521833333333333
43,0.0,,111.147,,0.0,38.7986,111.145,38.7986,-68.8551,2415.32,monload-611_runway,,,,,,,,2.4,,,1.0063833333333334
44,0.0,,113.956,,0.0,41.1781,113.956,41.1781,-66.0445,2519.67,monload-611_runway,,,,,,,,2.4,,,1.0498625
45,0.0,,114.054,,0.0,45.1442,114.055,45.1442,-65.9454,2521.15,monload-611_runway,,,,,,,,2.4,,,1.0504791666666666
46,0.0,,115.20100000000001,,0.0,42.9276,115.20100000000001,42.9276,-64.7989,2557.25,monload-611_runway,,,,,,,,2.4,,,1.0655208333333333
47,0.0,,116.486,,0.0,31.969,116.486,31.969,-63.513999999999996,2611.43,monload-611_runway,,,,,,,,2.4,,,1.0880958333333333
48,0.0,,116.345,,0.0,21.8508,116.345,21.8508,-63.655,2603.52,monload-611_runway,,,,,,,,2.4,,,1.0848
49,0.0,,115.381,,0.0,19.1907,115.381,19.1907,-64.6193,2559.55,monload-611_runway,,,,,,,,2.4,,,1.0664791666666666
50,0.0,,117.13,,0.0,19.2567,117.12899999999999,19.2567,-62.8715,2638.06,monload-611_runway,,,,,,,,2.4,,,1.0991916666666666
51,0.0,,115.521,,0.0,18.2107,115.521,18.2107,-64.479,2565.55,monload-611_runway,,,,,,,,2.4,,,1.0689791666666668
52,0.0,,116.749,,0.0,19.1767,116.749,19.1767,-63.2512,2620.89,monload-611_runway,,,,,,,,2.4,,,1.0920375
53,0.0,,111.104,,0.0,19.6598,111.09899999999999,19.6598,-68.9009,2391.05,monload-611_runway,,,,,,,,2.4,,,0.9962708333333334
54,0.0,,112.86200000000001,,0.0,23.9779,112.85700000000001,23.9779,-67.1433,2477.35,monload-611_runway,,,,,,,,2.4,,,1.0322291666666665
55,0.0,,111.635,,0.0,35.7182,111.639,35.7182,-68.3608,2425.72,monload-611_runway,,,,,,,,2.4,,,1.0107166666666665
56,0.0,,107.805,,0.0,35.7098,107.805,35.7098,-72.1954,2263.89,monload-611_runway,,,,,,,,2.4,,,0.9432875
57,0.0,,110.75299999999999,,0.0,31.5574,110.755,31.5574,-69.2448,2401.43,monload-611_runway,,,,,,,,2.4,,,1.0005958333333334
58,0.0,,113.698,,0.0,31.2533,113.697,31.2533,-66.3028,2514.96,monload-611_runway,,,,,,,,2.4,,,1.0479
59,0.0,,114.00200000000001,,0.0,24.8638,114.00200000000001,24.8638,-65.9981,2528.36,monload-611_runway,,,,,,,,2.4,,,1.0534833333333333
60,0.0,,0.0,,0.0,0.0,0.0,0.0,0.0,0.0,monload-611_runway,,,,,,,,2.4,,,0.0
61,0.0,,0.0,,0.0,0.0,0.0,0.0,0.0,0.0,monload-611_runway,,,,,,,,2.4,,,0.0
62,0.0,,0.0,,0.0,0.0,0.0,0.0,0.0,0.0,monload-611_runway,,,,,,,,2.4,,,0.0
63,0.0,,0.0,,0.0,0.0,0.0,0.0,0.0,0.0,monload-611_runway,,,,,,,,2.4,,,0.0
64,0.0,,0.0,,0.0,0.0,0.0,0.0,0.0,0.0,monload-611_runway,,,,,,,,2.4,,,0.0
65,0.0,,0.0,,0.0,0.0,0.0,0.0,0.0,0.0,monload-611_runway,,,,,,,,2.4,,,0.0
66,0.0,,0.0,,0.0,0.0,0.0,0.0,0.0,0.0,monload-611_runway,,,,,,,,2.4,,,0.0
67,0.0,,0.0,,0.0,0.0,0.0,0.0,0.0,0.0,monload-611_runway,,,,,,,,2.4,,,0.0
68,0.0,,0.0,,0.0,0.0,0.0,0.0,0.0,0.0,monload-611_runway,,,,,,,,2.4,,,0.0
69,0.0,,0.0,,0.0,0.0,0.0,0.0,0.0,0.0,monload-611_runway,,,,,,,,2.4,,,0.0
70,0.0,,0.0,,0.0,0.0,0.0,0.0,0.0,0.0,monload-611_runway,,,,,,,,2.4,,,0.0
71,0.0,,0.0,,0.0,0.0,0.0,0.0,0.0,0.0,monload-611_runway,,,,,,,,2.4,,,0.0
72,0.0,,0.0,,0.0,0.0,0.0,0.0,0.0,0.0,monload-611_runway,,,,,,,,2.4,,,0.0
73,0.0,,0.0,,0.0,0.0,0.0,0.0,0.0,0.0,monload-611_runway,,,,,,,,2.4,,,0.0
74,0.0,,0.0,,0.0,0.0,0.0,0.0,0.0,0.0,monload-611_runway,,,,,,,,2.4,,,0.0
75,0.0,,0.0,,0.0,0.0,0.0,0.0,0.0,0.0,monload-611_runway,,,,,,,,2.4,,,0.0
76,0.0,,0.0,,0.0,0.0,0.0,0.0,0.0,0.0,monload-611_runway,,,,,,,,2.4,,,0.0
77,0.0,,0.0,,0.0,0.0,0.0,0.0,0.0,0.0,monload-611_runway,,,,,,,,2.4,,,0.0
78,0.0,,0.0,,0.0,0.0,0.0,0.0,0.0,0.0,monload-611_runway,,,,,,,,2.4,,,0.0
79,0.0,,0.0,,0.0,0.0,0.0,0.0,0.0,0.0,monload-611_runway,,,,,,,,2.4,,,0.0
80,0.0,,0.0,,0.0,0.0,0.0,0.0,0.0,0.0,monload-611_runway,,,,,,,,2.4,,,0.0
81,0.0,,0.0,,0.0,0.0,0.0,0.0,0.0,0.0,monload-611_runway,,,,,,,,2.4,,,0.0
82,0.0,,0.0,,0.0,0.0,0.0,0.0,0.0,0.0,monload-611_runway,,,,,,,,2.4,,,0.0
83,0.0,,0.0,,0.0,0.0,0.0,0.0,0.0,0.0,monload-611_runway,,,,,,,,2.4,,,0.0
84,0.0,,0.0,,0.0,0.0,0.0,0.0,0.0,0.0,monload-611_runway,,,,,,,,2.4,,,0.0
85,0.0,,0.0,,0.0,0.0,0.0,0.0,0.0,0.0,monload-611_runway,,,,,,,,2.4,,,0.0
86,0.0,,0.0,,0.0,0.0,0.0,0.0,0.0,0.0,monload-611_runway,,,,,,,,2.4,,,0.0
87,0.0,,0.0,,0.0,0.0,0.0,0.0,0.0,0.0,monload-611_runway,,,,,,,,2.4,,,0.0
88,0.0,,0.0,,0.0,0.0,0.0,0.0,0.0,0.0,monload-611_runway,,,,,,,,2.4,,,0.0
89,0.0,,0.0,,0.0,0.0,0.0,0.0,0.0,0.0,monload-611_runway,,,,,,,,2.4,,,0.0
90,0.0,,0.0,,0.0,0.0,0.0,0.0,0.0,0.0,monload-611_runway,,,,,,,,2.4,,,0.0
91,0.0,,0.0,,0.0,0.0,0.0,0.0,0.0,0.0,monload-611_runway,,,,,,,,2.4,,,0.0
92,0.0,,0.0,,0.0,0.0,0.0,0.0,0.0,0.0,monload-611_runway,,,,,,,,2.4,,,0.0
93,0.0,,0.0,,0.0,0.0,0.0,0.0,0.0,0.0,monload-611_runway,,,,,,,,2.4,,,0.0
94,0.0,,0.0,,0.0,0.0,0.0,0.0,0.0,0.0,monload-611_runway,,,,,,,,2.4,,,0.0
95,0.0,,0.0,,0.0,0.0,0.0,0.0,0.0,0.0,monload-611_runway,,,,,,,,2.4,,,0.0
96,0.0,,0.0,,0.0,0.0,0.0,0.0,0.0,0.0,monload-611_runway,,,,,,,,2.4,,,0.0
97,0.0,,0.0,,0.0,0.0,0.0,0.0,0.0,0.0,monload-611_runway,,,,,,,,2.4,,,0.0
98,0.0,,0.0,,0.0,0.0,0.0,0.0,0.0,0.0,monload-611_runway,,,,,,,,2.4,,,0.0
99,0.0,,0.0,,0.0,0.0,0.0,0.0,0.0,0.0,monload-611_runway,,,,,,,,2.4,,,0.0
100,0.0,,0.0,,0.0,0.0,0.0,0.0,0.0,0.0,monload-611_runway,,,,,,,,2.4,,,0.0
101,0.0,,0.0,,0.0,0.0,0.0,0.0,0.0,0.0,monload-611_runway,,,,,,,,2.4,,,0.0
102,0.0,,0.0,,0.0,0.0,0.0,0.0,0.0,0.0,monload-611_runway,,,,,,,,2.4,,,0.0
103,0.0,,0.0,,0.0,0.0,0.0,0.0,0.0,0.0,monload-611_runway,,,,,,,,2.4,,,0.0
104,0.0,,0.0,,0.0,0.0,0.0,0.0,0.0,0.0,monload-611_runway,,,,,,,,2.4,,,0.0
105,0.0,,0.0,,0.0,0.0,0.0,0.0,0.0,0.0,monload-611_runway,,,,,,,,2.4,,,0.0
106,0.0,,0.0,,0.0,0.0,0.0,0.0,0.0,0.0,monload-611_runway,,,,,,,,2.4,,,0.0
107,0.0,,0.0,,0.0,0.0,0.0,0.0,0.0,0.0,monload-611_runway,,,,,,,,2.4,,,0.0
108,0.0,,0.0,,0.0,0.0,0.0,0.0,0.0,0.0,monload-611_runway,,,,,,,,2.4,,,0.0
109,0.0,,0.0,,0.0,0.0,0.0,0.0,0.0,0.0,monload-611_runway,,,,,,,,2.4,,,0.0
110,0.0,,0.0,,0.0,0.0,0.0,0.0,0.0,0.0,monload-611_runway,,,,,,,,2.4,,,0.0
111,0.0,,0.0,,0.0,0.0,0.0,0.0,0.0,0.0,monload-611_runway,,,,,,,,2.4,,,0.0
112,0.0,,0.0,,0.0,0.0,0.0,0.0,0.0,0.0,monload-611_runway,,,,,,,,2.4,,,0.0
113,0.0,,0.0,,0.0,0.0,0.0,0.0,0.0,0.0,monload-611_runway,,,,,,,,2.4,,,0.0
114,0.0,,0.0,,0.0,0.0,0.0,0.0,0.0,0.0,monload-611_runway,,,,,,,,2.4,,,0.0
115,0.0,,0.0,,0.0,0.0,0.0,0.0,0.0,0.0,monload-611_runway,,,,,,,,2.4,,,0.0
116,0.0,,0.0,,0.0,0.0,0.0,0.0,0.0,0.0,monload-611_runway,,,,,,,,2.4,,,0.0
117,0.0,,0.0,,0.0,0.0,0.0,0.0,0.0,0.0,monload-611_runway,,,,,,,,2.4,,,0.0
118,0.0,,0.0,,0.0,0.0,0.0,0.0,0.0,0.0,monload-611_runway,,,,,,,,2.4,,,0.0
119,0.0,,0.0,,0.0,0.0,0.0,0.0,0.0,0.0,monload-611_runway,,,,,,,,2.4,,,0.0
120,0.0,,0.0,,0.0,0.0,0.0,0.0,0.0,0.0,monload-611_runway,,,,,,,,2.4,,,0.0
121,0.0,,0.0,,0.0,0.0,0.0,0.0,0.0,0.0,monload-611_runway,,,,,,,,2.4,,,0.0
122,0.0,,0.0,,0.0,0.0,0.0,0.0,0.0,0.0,monload-611_runway,,,,,,,,2.4,,,0.0
123,0.0,,0.0,,0.0,0.0,0.0,0.0,0.0,0.0,monload-611_runway,,,,,,,,2.4,,,0.0
124,0.0,,0.0,,0.0,0.0,0.0,0.0,0.0,0.0,monload-611_runway,,,,,,,,2.4,,,0.0
125,0.0,,0.0,,0.0,0.0,0.0,0.0,0.0,0.0,monload-611_runway,,,,,,,,2.4,,,0.0
126,0.0,,0.0,,0.0,0.0,0.0,0.0,0.0,0.0,monload-611_runway,,,,,,,,2.4,,,0.0
127,0.0,,0.0,,0.0,0.0,0.0,0.0,0.0,0.0,monload-611_runway,,,,,,,,2.4,,,0.0
128,0.0,,0.0,,0.0,0.0,0.0,0.0,0.0,0.0,monload-611_runway,,,,,,,,2.4,,,0.0
129,0.0,,0.0,,0.0,0.0,0.0,0.0,0.0,0.0,monload-611_runway,,,,,,,,2.4,,,0.0
130,0.0,,0.0,,0.0,0.0,0.0,0.0,0.0,0.0,monload-611_runway,,,,,,,,2.4,,,0.0
131,0.0,,0.0,,0.0,0.0,0.0,0.0,0.0,0.0,monload-611_runway,,,,,,,,2.4,,,0.0
132,0.0,,0.0,,0.0,0.0,0.0,0.0,0.0,0.0,monload-611_runway,,,,,,,,2.4,,,0.0
133,0.0,,0.0,,0.0,0.0,0.0,0.0,0.0,0.0,monload-611_runway,,,,,,,,2.4,,,0.0
134,0.0,,0.0,,0.0,0.0,0.0,0.0,0.0,0.0,monload-611_runway,,,,,,,,2.4,,,0.0
135,0.0,,0.0,,0.0,0.0,0.0,0.0,0.0,0.0,monload-611_runway,,,,,,,,2.4,,,0.0
136,0.0,,0.0,,0.0,0.0,0.0,0.0,0.0,0.0,monload-611_runway,,,,,,,,2.4,,,0.0
137,0.0,,0.0,,0.0,0.0,0.0,0.0,0.0,0.0,monload-611_runway,,,,,,,,2.4,,,0.0
138,0.0,,0.0,,0.0,0.0,0.0,0.0,0.0,0.0,monload-611_runway,,,,,,,,2.4,,,0.0
139,0.0,,0.0,,0.0,0.0,0.0,0.0,0.0,0.0,monload-611_runway,,,,,,,,2.4,,,0.0
140,0.0,,0.0,,0.0,0.0,0.0,0.0,0.0,0.0,monload-611_runway,,,,,,,,2.4,,,0.0
141,0.0,,0.0,,0.0,0.0,0.0,0.0,0.0,0.0,monload-611_runway,,,,,,,,2.4,,,0.0
142,0.0,,0.0,,0.0,0.0,0.0,0.0,0.0,0.0,monload-611_runway,,,,,,,,2.4,,,0.0
143,0.0,,0.0,,0.0,0.0,0.0,0.0,0.0,0.0,monload-611_runway,,,,,,,,2.4,,,0.0
144,0.0,,0.0,,0.0,0.0,0.0,0.0,0.0,0.0,monload-611_runway,,,,,,,,2.4,,,0.0
145,0.0,,0.0,,0.0,0.0,0.0,0.0,0.0,0.0,monload-611_runway,,,,,,,,2.4,,,0.0
146,0.0,,0.0,,0.0,0.0,0.0,0.0,0.0,0.0,monload-611_runway,,,,,,,,2.4,,,0.0
147,0.0,,0.0,,0.0,0.0,0.0,0.0,0.0,0.0,monload-611_runway,,,,,,,,2.4,,,0.0
148,0.0,,0.0,,0.0,0.0,0.0,0.0,0.0,0.0,monload-611_runway,,,,,,,,2.4,,,0.0
149,0.0,,0.0,,0.0,0.0,0.0,0.0,0.0,0.0,monload-611_runway,,,,,,,,2.4,,,0.0
150,0.0,,0.0,,0.0,0.0,0.0,0.0,0.0,0.0,monload-611_runway,,,,,,,,2.4,,,0.0
151,0.0,,0.0,,0.0,0.0,0.0,0.0,0.0,0.0,monload-611_runway,,,,,,,,2.4,,,0.0
152,0.0,,0.0,,0.0,0.0,0.0,0.0,0.0,0.0,monload-611_runway,,,,,,,,2.4,,,0.0
153,0.0,,0.0,,0.0,0.0,0.0,0.0,0.0,0.0,monload-611_runway,,,,,,,,2.4,,,0.0
154,0.0,,0.0,,0.0,0.0,0.0,0.0,0.0,0.0,monload-611_runway,,,,,,,,2.4,,,0.0
155,0.0,,0.0,,0.0,0.0,0.0,0.0,0.0,0.0,monload-611_runway,,,,,,,,2.4,,,0.0
156,0.0,,0.0,,0.0,0.0,0.0,0.0,0.0,0.0,monload-611_runway,,,,,,,,2.4,,,0.0
157,0.0,,0.0,,0.0,0.0,0.0,0.0,0.0,0.0,monload-611_runway,,,,,,,,2.4,,,0.0
158,0.0,,0.0,,0.0,0.0,0.0,0.0,0.0,0.0,monload-611_runway,,,,,,,,2.4,,,0.0
159,0.0,,0.0,,0.0,0.0,0.0,0.0,0.0,0.0,monload-611_runway,,,,,,,,2.4,,,0.0
160,0.0,,0.0,,0.0,0.0,0.0,0.0,0.0,0.0,monload-611_runway,,,,,,,,2.4,,,0.0
161,0.0,,0.0,,0.0,0.0,0.0,0.0,0.0,0.0,monload-611_runway,,,,,,,,2.4,,,0.0
162,0.0,,0.0,,0.0,0.0,0.0,0.0,0.0,0.0,monload-611_runway,,,,,,,,2.4,,,0.0
163,0.0,,0.0,,0.0,0.0,0.0,0.0,0.0,0.0,monload-611_runway,,,,,,,,2.4,,,0.0
164,0.0,,0.0,,0.0,0.0,0.0,0.0,0.0,0.0,monload-611_runway,,,,,,,,2.4,,,0.0
165,0.0,,0.0,,0.0,0.0,0.0,0.0,0.0,0.0,monload-611_runway,,,,,,,,2.4,,,0.0
166,0.0,,0.0,,0.0,0.0,0.0,0.0,0.0,0.0,monload-611_runway,,,,,,,,2.4,,,0.0
167,0.0,,0.0,,0.0,0.0,0.0,0.0,0.0,0.0,monload-611_runway,,,,,,,,2.4,,,0.0
168,0.0,,0.0,,0.0,0.0,0.0,0.0,0.0,0.0,monload-611_runway,,,,,,,,2.4,,,0.0
169,0.0,,0.0,,0.0,0.0,0.0,0.0,0.0,0.0,monload-611_runway,,,,,,,,2.4,,,0.0
170,0.0,,0.0,,0.0,0.0,0.0,0.0,0.0,0.0,monload-611_runway,,,,,,,,2.4,,,0.0
171,0.0,,0.0,,0.0,0.0,0.0,0.0,0.0,0.0,monload-611_runway,,,,,,,,2.4,,,0.0
172,0.0,,0.0,,0.0,0.0,0.0,0.0,0.0,0.0,monload-611_runway,,,,,,,,2.4,,,0.0
173,0.0,,0.0,,0.0,0.0,0.0,0.0,0.0,0.0,monload-611_runway,,,,,,,,2.4,,,0.0
174,0.0,,0.0,,0.0,0.0,0.0,0.0,0.0,0.0,monload-611_runway,,,,,,,,2.4,,,0.0
175,0.0,,0.0,,0.0,0.0,0.0,0.0,0.0,0.0,monload-611_runway,,,,,,,,2.4,,,0.0
176,0.0,,0.0,,0.0,0.0,0.0,0.0,0.0,0.0,monload-611_runway,,,,,,,,2.4,,,0.0
177,0.0,,0.0,,0.0,0.0,0.0,0.0,0.0,0.0,monload-611_runway,,,,,,,,2.4,,,0.0
178,0.0,,0.0,,0.0,0.0,0.0,0.0,0.0,0.0,monload-611_runway,,,,,,,,2.4,,,0.0
179,0.0,,0.0,,0.0,0.0,0.0,0.0,0.0,0.0,monload-611_runway,,,,,,,,2.4,,,0.0
180,0.0,,110.429,,0.0,38.1499,110.429,38.1499,-69.5706,2388.95,monload-611_runway,,,,,,,,2.4,,,0.9953958333333333
181,0.0,,112.119,,0.0,38.4204,112.12100000000001,38.4204,-67.8793,2442.03,monload-611_runway,,,,,,,,2.4,,,1.0175125
182,0.0,,112.568,,0.0,39.8211,112.56700000000001,39.8211,-67.433,2463.73,monload-611_runway,,,,,,,,2.4,,,1.0265541666666667
183,0.0,,111.681,,0.0,41.1387,111.682,41.1387,-68.3177,2421.16,monload-611_runway,,,,,,,,2.4,,,1.0088166666666667
184,0.0,,110.57700000000001,,0.0,40.2542,110.57799999999999,40.2542,-69.4218,2366.86,monload-611_runway,,,,,,,,2.4,,,0.9861916666666667
185,0.0,,110.40100000000001,,0.0,39.4232,110.40299999999999,39.4232,-69.5972,2357.7,monload-611_runway,,,,,,,,2.4,,,0.9823749999999999
186,0.0,,109.416,,0.0,41.61,109.415,41.61,-70.5851,2322.85,monload-611_runway,,,,,,,,2.4,,,0.9678541666666667
187,0.0,,109.149,,0.0,50.661,109.149,50.661,-70.8508,2309.72,monload-611_runway,,,,,,,,2.4,,,0.9623833333333333
188,0.0,,109.492,,0.0,50.93600000000001,109.486,50.93600000000001,-70.5138,2326.84,monload-611_runway,,,,,,,,2.4,,,0.9695166666666667
189,0.0,,109.72399999999999,,0.0,52.3523,109.721,52.3523,-70.2792,2338.09,monload-611_runway,,,,,,,,2.4,,,0.9742041666666668
190,0.0,,109.734,,0.0,50.5692,109.734,50.5692,-70.2657,2338.24,monload-611_runway,,,,,,,,2.4,,,0.9742666666666666
191,0.0,,110.414,,0.0,39.6945,110.413,39.6945,-69.5871,2370.62,monload-611_runway,,,,,,,,2.4,,,0.9877583333333333
192,0.0,,110.738,,0.0,26.4536,110.73299999999999,26.4536,-69.2669,2385.33,monload-611_runway,,,,,,,,2.4,,,0.9938874999999999
193,0.0,,110.935,,0.0,21.0984,110.931,21.0984,-69.0686,2394.62,monload-611_runway,,,,,,,,2.4,,,0.9977583333333333
194,0.0,,110.975,,0.0,19.0118,110.97,19.0118,-69.0298,2396.51,monload-611_runway,,,,,,,,2.4,,,0.9985458333333335
195,0.0,,110.993,,0.0,17.1605,110.991,17.1605,-69.0089,2397.28,monload-611_runway,,,,,,,,2.4,,,0.9988666666666668
196,0.0,,110.969,,0.0,16.8089,110.97200000000001,16.8089,-69.0276,2396.12,monload-611_runway,,,,,,,,2.4,,,0.9983833333333333
197,0.0,,110.169,,0.0,17.2796,110.171,17.2796,-69.8292,2358.71,monload-611_runway,,,,,,,,2.4,,,0.9827958333333333
198,0.0,,109.96,,0.0,20.6862,109.964,20.6862,-70.0364,2348.68,monload-611_runway,,,,,,,,2.4,,,0.9786166666666666
199,0.0,,108.035,,0.0,33.13,108.039,33.13,-71.9613,2271.55,monload-611_runway,,,,,,,,2.4,,,0.9464791666666668
200,0.0,,107.311,,0.0,35.623000000000005,107.31200000000001,35.623000000000005,-72.6878,2236.46,monload-611_runway,,,,,,,,2.4,,,0.9318583333333333
201,0.0,,108.633,,0.0,33.1764,108.62899999999999,33.1764,-71.3712,2307.8,monload-611_runway,,,,,,,,2.4,,,0.9615833333333335
202,0.0,,110.698,,0.0,35.1894,110.699,35.1894,-69.3007,2399.53,monload-611_runway,,,,,,,,2.4,,,0.9998041666666667
203,0.0,,108.633,,0.0,30.9635,108.634,30.9635,-71.3657,2294.7,monload-611_runway,,,,,,,,2.4,,,0.9561249999999999
204,0.0,,110.993,,0.0,34.0175,110.99,34.0175,-69.0096,2414.66,monload-611_runway,,,,,,,,2.4,,,1.0061083333333334
205,0.0,,109.92399999999999,,0.0,36.5232,109.925,36.5232,-70.0749,2360.37,monload-611_runway,,,,,,,,2.4,,,0.9834875
206,0.0,,107.662,,0.0,37.6069,107.662,37.6069,-72.3379,2259.46,monload-611_runway,,,,,,,,2.4,,,0.9414416666666667
207,0.0,,108.04700000000001,,0.0,38.9807,108.04700000000001,38.9807,-71.9533,2280.59,monload-611_runway,,,,,,,,2.4,,,0.9502458333333333
208,0.0,,108.00399999999999,,0.0,36.5511,108.006,36.5511,-71.994,2278.17,monload-611_runway,,,,,,,,2.4,,,0.9492375000000001
209,0.0,,107.251,,0.0,35.5121,107.251,35.5121,-72.7487,2237.62,monload-611_runway,,,,,,,,2.4,,,0.9323416666666666
210,0.0,,106.963,,0.0,39.6653,106.964,39.6653,-73.0363,2220.0,monload-611_runway,,,,,,,,2.4,,,0.925
211,0.0,,107.867,,0.0,46.1692,107.867,46.1692,-72.1327,2262.98,monload-611_runway,,,,,,,,2.4,,,0.9429083333333333
212,0.0,,107.807,,0.0,47.9486,107.806,47.9486,-72.1941,2259.99,monload-611_runway,,,,,,,,2.4,,,0.9416625
213,0.0,,108.45200000000001,,0.0,52.3358,108.446,52.3358,-71.5536,2291.3,monload-611_runway,,,,,,,,2.4,,,0.9547083333333334
214,0.0,,108.831,,0.0,49.8536,108.829,49.8536,-71.1705,2309.93,monload-611_runway,,,,,,,,2.4,,,0.9624708333333333
