hour,t(sec),V1,VAngle1,V2,VAngle2,I1,IAngle1,I2,IAngle2,V3,Name,VAngle3,I3,IAngle3,V4,VAngle4,I4,IAngle4,kv,V1(PU),V2(PU),V3(PU)
1,0.0,,114.43799999999999,,0.0,20.2518,114.439,20.2518,-65.5613,2356.24,monload-611_runway,,,,,,,,2.4,,,0.9817666666666666
2,0.0,,114.412,,0.0,21.49,114.414,21.49,-65.5862,2355.3,monload-611_runway,,,,,,,,2.4,,,0.9813750000000001
3,0.0,,114.443,,0.0,18.735,114.44,18.735,-65.5599,2356.52,monload-611_runway,,,,,,,,2.4,,,0.9818833333333333
4,0.0,,114.449,,0.0,18.1696,114.448,18.1696,-65.5517,2356.78,monload-611_runway,,,,,,,,2.4,,,0.9819916666666667
5,0.0,,114.25399999999999,,0.0,18.3433,114.256,18.3433,-65.7439,2348.97,monload-611_runway,,,,,,,,2.4,,,0.9787374999999999
6,0.0,,114.14399999999999,,0.0,19.8621,114.145,19.8621,-65.855,2344.37,monload-611_runway,,,,,,,,2.4,,,0.9768208333333332
7,0.0,,113.36200000000001,,0.0,29.8483,113.363,29.8483,-66.6367,2312.87,monload-611_runway,,,,,,,,2.4,,,0.9636958333333333
8,0.0,,113.39200000000001,,0.0,31.8618,113.389,31.8618,-66.6108,2314.1,monload-611_runway,,,,,,,,2.4,,,0.9642083333333333
9,0.0,,112.90700000000001,,0.0,44.0268,112.905,44.0268,-67.0945,2309.01,monload-611_runway,,,,,,,,2.4,,,0.9620875000000001
10,0.0,,113.14200000000001,,0.0,37.8158,113.13799999999999,37.8158,-66.8615,2318.77,monload-611_runway,,,,,,,,2.4,,,0.9661541666666666
11,0.0,,113.41799999999999,,0.0,26.7204,113.414,26.7204,-66.5863,2330.06,monload-611_runway,,,,,,,,2.4,,,0.9708583333333333
12,0.0,,113.436,,0.0,25.0426,113.436,25.0426,-66.5643,2330.86,monload-611_runway,,,,,,,,2.4,,,0.9711916666666667
13,0.0,,113.46799999999999,,0.0,24.9564,113.46700000000001,24.9564,-66.5329,2332.01,monload-611_runway,,,,,,,,2.4,,,0.9716708333333334
14,0.0,,113.515,,0.0,24.9959,113.514,24.9959,-66.4859,2333.99,monload-611_runway,,,,,,,,2.4,,,0.9724958333333332
15,0.0,,113.507,,0.0,24.9268,113.507,24.9268,-66.4933,2333.72,monload-611_runway,,,,,,,,2.4,,,0.9723833333333333
16,0.0,,113.479,,0.0,24.7866,113.48299999999999,24.7866,-66.5173,2332.56,monload-611_runway,,,,,,,,2.4,,,0.9719
17,0.0,,113.416,,0.0,25.989,113.417,25.989,-66.5827,2329.65,monload-611_runway,,,,,,,,2.4,,,0.9706875
18,0.0,,113.26899999999999,,0.0,31.4301,113.271,31.4301,-66.7288,2323.22,monload-611_runway,,,,,,,,2.4,,,0.9680083333333332
19,0.0,,113.055,,0.0,43.1551,113.05799999999999,43.1551,-66.9422,2314.34,monload-611_runway,,,,,,,,2.4,,,0.9643083333333334
20,0.0,,113.051,,0.0,45.3034,113.051,45.3034,-66.9488,2314.34,monload-611_runway,,,,,,,,2.4,,,0.9643083333333334
21,0.0,,113.19,,0.0,47.8087,113.18700000000001,47.8087,-66.8126,2320.06,monload-611_runway,,,,,,,,2.4,,,0.9666916666666666
22,0.0,,113.34700000000001,,0.0,46.4444,113.345,46.4444,-66.6551,2326.63,monload-611_runway,,,,,,,,2.4,,,0.9694291666666667
23,0.0,,113.859,,0.0,35.6973,113.852,35.6973,-66.1485,2347.72,monload-611_runway,,,,,,,,2.4,,,0.9782166666666666
24,0.0,,114.236,,0.0,22.9122,114.23100000000001,22.9122,-65.7691,2363.18,monload-611_runway,,,,,,,,2.4,,,0.9846583333333333
25,0.0,,114.37100000000001,,0.0,18.6667,114.369,18.6667,-65.6309,2368.53,monload-611_runway,,,,,,,,2.4,,,0.9868875
26,0.0,,114.383,,0.0,17.8494,114.383,17.8494,-65.6173,2369.04,monload-611_runway,,,,,,,,2.4,,,0.9871
27,0.0,,114.40299999999999,,0.0,16.9263,114.40299999999999,16.9263,-65.5975,2369.89,monload-611_runway,,,,,,,,2.4,,,0.9874541666666666
28,0.0,,114.41,,0.0,17.0116,114.41,17.0116,-65.5901,2370.06,monload-611_runway,,,,,,,,2.4,,,0.987525
29,0.0,,113.7,,0.0,17.6802,113.70100000000001,17.6802,-66.2991,2341.42,monload-611_runway,,,,,,,,2.4,,,0.9755916666666667
30,0.0,,113.43,,0.0,21.26,113.434,21.26,-66.5665,2330.61,monload-611_runway,,,,,,,,2.4,,,0.9710875000000001
31,0.0,,111.738,,0.0,32.8921,111.729,32.8921,-68.2715,2261.27,monload-611_runway,,,,,,,,2.4,,,0.9421958333333333
32,0.0,,111.148,,0.0,34.15,111.15,34.15,-68.8496,2236.51,monload-611_runway,,,,,,,,2.4,,,0.9318791666666667
33,0.0,,111.105,,0.0,30.1337,111.105,30.1337,-68.895,2234.96,monload-611_runway,,,,,,,,2.4,,,0.9312333333333334
34,0.0,,110.962,,0.0,30.5678,110.961,30.5678,-69.0386,2243.2,monload-611_runway,,,,,,,,2.4,,,0.9346666666666666
35,0.0,,111.027,,0.0,24.7406,111.029,24.7406,-68.971,2246.08,monload-611_runway,,,,,,,,2.4,,,0.9358666666666666
36,0.0,,110.87700000000001,,0.0,25.5175,110.87700000000001,25.5175,-69.1226,2239.53,monload-611_runway,,,,,,,,2.4,,,0.9331375000000001
37,0.0,,110.971,,0.0,25.969,110.971,25.969,-69.0295,2243.8,monload-611_runway,,,,,,,,2.4,,,0.9349166666666667
38,0.0,,110.865,,0.0,24.8969,110.865,24.8969,-69.1346,2239.29,monload-611_runway,,,,,,,,2.4,,,0.9330375
39,0.0,,110.88600000000001,,0.0,24.0596,110.88600000000001,24.0596,-69.1143,2240.46,monload-611_runway,,,,,,,,2.4,,,0.933525
40,0.0,,110.85700000000001,,0.0,24.2783,110.85700000000001,24.2783,-69.1429,2239.01,monload-611_runway,,,,,,,,2.4,,,0.9329208333333334
41,0.0,,110.728,,0.0,25.3075,110.72200000000001,25.3075,-69.2778,2233.24,monload-611_runway,,,,,,,,2.4,,,0.9305166666666665
42,0.0,,110.573,,0.0,30.8654,110.573,30.8654,-69.42699999999999,2225.57,monload-611_runway,,,,,,,,2.4,,,0.9273208333333334
43,0.0,,111.584,,0.0,38.5873,111.585,38.5873,-68.4154,2268.23,monload-611_runway,,,,,,,,2.4,,,0.9450958333333334
44,0.0,,111.568,,0.0,40.9457,111.568,40.9457,-68.432,2267.81,monload-611_runway,,,,,,,,2.4,,,0.9449208333333333
45,0.0,,112.277,,0.0,45.1231,112.275,45.1231,-67.7246,2297.33,monload-611_runway,,,,,,,,2.4,,,0.9572208333333333
46,0.0,,112.66,,0.0,42.3023,112.65799999999999,42.3023,-67.3415,2313.45,monload-611_runway,,,,,,,,2.4,,,0.9639374999999999
47,0.0,,113.61399999999999,,0.0,30.8497,113.611,30.8497,-66.3888,2352.6,monload-611_runway,,,,,,,,2.4,,,0.98025
48,0.0,,113.943,,0.0,21.1497,113.936,21.1497,-66.0637,2366.11,monload-611_runway,,,,,,,,2.4,,,0.9858791666666668
49,0.0,,114.07799999999999,,0.0,18.8942,114.075,18.8942,-65.9251,2371.59,monload-611_runway,,,,,,,,2.4,,,0.9881625
50,0.0,,114.118,,0.0,18.3946,114.116,18.3946,-65.8835,2373.28,monload-611_runway,,,,,,,,2.4,,,0.9888666666666668
51,0.0,,114.175,,0.0,17.8874,114.17399999999999,17.8874,-65.8257,2375.5,monload-611_runway,,,,,,,,2.4,,,0.9897916666666666
52,0.0,,114.167,,0.0,18.4384,114.167,18.4384,-65.8327,2375.23,monload-611_runway,,,,,,,,2.4,,,0.9896791666666667
53,0.0,,113.45100000000001,,0.0,19.6598,113.45299999999999,19.6598,-66.5465,2345.85,monload-611_runway,,,,,,,,2.4,,,0.9774375
54,0.0,,113.15899999999999,,0.0,23.9779,113.166,23.9779,-66.8336,2333.87,monload-611_runway,,,,,,,,2.4,,,0.9724458333333333
55,0.0,,111.48,,0.0,35.4624,111.48299999999999,35.4624,-68.5166,2264.37,monload-611_runway,,,,,,,,2.4,,,0.9434874999999999
56,0.0,,110.911,,0.0,35.3162,110.911,35.3162,-69.0889,2240.26,monload-611_runway,,,,,,,,2.4,,,0.9334416666666667
57,0.0,,110.90700000000001,,0.0,30.9817,110.90700000000001,30.9817,-69.0933,2240.59,monload-611_runway,,,,,,,,2.4,,,0.9335791666666667
58,0.0,,110.81299999999999,,0.0,30.6323,110.81299999999999,30.6323,-69.187,2237.08,monload-611_runway,,,,,,,,2.4,,,0.9321166666666666
59,0.0,,110.97399999999999,,0.0,24.3697,110.979,24.3697,-69.0207,2244.01,monload-611_runway,,,,,,,,2.4,,,0.9350041666666667
60,0.0,,110.986,,0.0,25.479,110.986,25.479,-69.0142,2244.13,monload-611_runway,,,,,,,,2.4,,,0.9350541666666667
61,0.0,,111.131,,0.0,26.7282,111.131,26.7282,-68.8687,2250.36,monload-611_runway,,,,,,,,2.4,,,0.9376500000000001
62,0.0,,110.946,,0.0,27.1039,110.94,27.1039,-69.0602,2242.55,monload-611_runway,,,,,,,,2.4,,,0.9343958333333334
63,0.0,,110.917,,0.0,27.4403,110.915,27.4403,-69.0847,2241.22,monload-611_runway,,,,,,,,2.4,,,0.9338416666666666
64,0.0,,110.87200000000001,,0.0,27.5485,110.87,27.5485,-69.1304,2239.17,monload-611_runway,,,,,,,,2.4,,,0.9329875000000001
65,0.0,,110.745,,0.0,27.9039,110.745,27.9039,-69.255,2233.47,monload-611_runway,,,,,,,,2.4,,,0.9306125
66,0.0,,110.68799999999999,,0.0,31.8516,110.68799999999999,31.8516,-69.3123,2230.4,monload-611_runway,,,,,,,,2.4,,,0.9293333333333333
67,0.0,,111.806,,0.0,38.681999999999995,111.806,38.681999999999995,-68.1942,2277.44,monload-611_runway,,,,,,,,2.4,,,0.9489333333333334
68,0.0,,111.80799999999999,,0.0,40.8245,111.80799999999999,40.8245,-68.1925,2277.55,monload-611_runway,,,,,,,,2.4,,,0.9489791666666667
69,0.0,,112.54799999999999,,0.0,44.806000000000004,112.545,44.806000000000004,-67.4551,2308.3,monload-611_runway,,,,,,,,2.4,,,0.9617916666666667
70,0.0,,112.887,,0.0,41.9513,112.87899999999999,41.9513,-67.1209,2322.47,monload-611_runway,,,,,,,,2.4,,,0.9676958333333332
71,0.0,,113.80799999999999,,0.0,30.874000000000002,113.805,30.874000000000002,-66.1946,2360.2,monload-611_runway,,,,,,,,2.4,,,0.9834166666666666
72,0.0,,114.14200000000001,,0.0,21.1947,114.134,21.1947,-65.8656,2373.82,monload-611_runway,,,,,,,,2.4,,,0.9890916666666667
73,0.0,,114.285,,0.0,18.5785,114.29,18.5785,-65.7105,2365.02,monload-611_runway,,,,,,,,2.4,,,0.985425
74,0.0,,114.31200000000001,,0.0,17.7129,114.31,17.7129,-65.6905,2366.07,monload-611_runway,,,,,,,,2.4,,,0.9858625000000001
75,0.0,,114.34200000000001,,0.0,16.7422,114.339,16.7422,-65.6613,2367.23,monload-611_runway,,,,,,,,2.4,,,0.9863458333333334
76,0.0,,114.338,,0.0,16.8093,114.338,16.8093,-65.6617,2367.09,monload-611_runway,,,,,,,,2.4,,,0.9862875000000001
77,0.0,,113.62299999999999,,0.0,17.5128,113.624,17.5128,-66.3757,2338.32,monload-611_runway,,,,,,,,2.4,,,0.9743
78,0.0,,113.449,,0.0,20.9229,113.45200000000001,20.9229,-66.5485,2331.11,monload-611_runway,,,,,,,,2.4,,,0.9712958333333334
79,0.0,,111.73100000000001,,0.0,32.4188,111.714,32.4188,-68.2858,2260.55,monload-611_runway,,,,,,,,2.4,,,0.9418958333333334
80,0.0,,111.102,,0.0,34.2531,111.10700000000001,34.2531,-68.8931,2234.45,monload-611_runway,,,,,,,,2.4,,,0.9310208333333333
81,0.0,,111.046,,0.0,30.1408,111.04700000000001,30.1408,-68.9535,2232.42,monload-611_runway,,,,,,,,2.4,,,0.9301750000000001
82,0.0,,110.939,,0.0,29.5804,110.939,29.5804,-69.0615,2242.22,monload-611_runway,,,,,,,,2.4,,,0.9342583333333333
83,0.0,,111.05,,0.0,22.7293,111.05,22.7293,-68.9501,2247.18,monload-611_runway,,,,,,,,2.4,,,0.936325
84,0.0,,110.959,,0.0,23.221,110.959,23.221,-69.0409,2243.4,monload-611_runway,,,,,,,,2.4,,,0.9347500000000001
85,0.0,,111.051,,0.0,24.3582,111.05,24.3582,-68.9495,2247.27,monload-611_runway,,,,,,,,2.4,,,0.9363625
86,0.0,,110.84100000000001,,0.0,25.5601,110.84200000000001,25.5601,-69.1585,2238.47,monload-611_runway,,,,,,,,2.4,,,0.9326958333333333
87,0.0,,110.75200000000001,,0.0,25.8489,110.75299999999999,25.8489,-69.2475,2234.6,monload-611_runway,,,,,,,,2.4,,,0.9310833333333333
88,0.0,,110.67399999999999,,0.0,25.7369,110.67399999999999,25.7369,-69.3259,2231.06,monload-611_runway,,,,,,,,2.4,,,0.9296083333333333
89,0.0,,110.514,,0.0,26.8453,110.514,26.8453,-69.4859,2223.73,monload-611_runway,,,,,,,,2.4,,,0.9265541666666667
90,0.0,,110.323,,0.0,32.8013,110.323,32.8013,-69.6765,2214.73,monload-611_runway,,,,,,,,2.4,,,0.9228041666666666
91,0.0,,111.369,,0.0,41.0579,111.369,41.0579,-68.6311,2258.91,monload-611_runway,,,,,,,,2.4,,,0.9412124999999999
92,0.0,,111.37200000000001,,0.0,44.1145,111.37200000000001,44.1145,-68.6278,2259.13,monload-611_runway,,,,,,,,2.4,,,0.9413041666666667
93,0.0,,112.042,,0.0,49.2734,112.035,49.2734,-67.9646,2287.23,monload-611_runway,,,,,,,,2.4,,,0.9530125
94,0.0,,112.41,,0.0,46.4184,112.40899999999999,46.4184,-67.5915,2302.85,monload-611_runway,,,,,,,,2.4,,,0.9595208333333333
95,0.0,,113.35799999999999,,0.0,34.3923,113.355,34.3923,-66.6452,2341.98,monload-611_runway,,,,,,,,2.4,,,0.975825
96,0.0,,113.704,,0.0,24.0131,113.696,24.0131,-66.3036,2356.31,monload-611_runway,,,,,,,,2.4,,,0.9817958333333333
97,0.0,,113.89,,0.0,21.7964,113.88600000000001,21.7964,-66.11399999999999,2363.96,monload-611_runway,,,,,,,,2.4,,,0.9849833333333333
98,0.0,,113.93700000000001,,0.0,20.8093,113.929,20.8093,-66.0711,2365.86,monload-611_runway,,,,,,,,2.4,,,0.9857750000000001
99,0.0,,113.978,,0.0,19.5335,113.971,19.5335,-66.0287,2367.55,monload-611_runway,,,,,,,,2.4,,,0.9864791666666668
100,0.0,,114.03,,0.0,19.3539,114.029,19.3539,-65.9709,2369.7,monload-611_runway,,,,,,,,2.4,,,0.9873749999999999
101,0.0,,113.397,,0.0,19.795,113.399,19.795,-66.6013,2343.9,monload-611_runway,,,,,,,,2.4,,,0.9766250000000001
102,0.0,,113.137,,0.0,23.6849,113.14299999999999,23.6849,-66.8566,2333.11,monload-611_runway,,,,,,,,2.4,,,0.9721291666666667
103,0.0,,111.32700000000001,,0.0,38.0291,111.325,38.0291,-68.6755,2257.91,monload-611_runway,,,,,,,,2.4,,,0.9407958333333333
104,0.0,,110.65700000000001,,0.0,41.7084,110.65799999999999,41.7084,-69.3419,2229.7,monload-611_runway,,,,,,,,2.4,,,0.9290416666666665
105,0.0,,110.541,,0.0,38.7523,110.541,38.7523,-69.4586,2224.99,monload-611_runway,,,,,,,,2.4,,,0.9270791666666666
106,0.0,,110.21,,0.0,41.0997,110.211,41.0997,-69.7893,2210.86,monload-611_runway,,,,,,,,2.4,,,0.9211916666666667
107,0.0,,110.155,,0.0,35.5557,110.155,35.5557,-69.8446,2208.39,monload-611_runway,,,,,,,,2.4,,,0.9201625
108,0.0,,110.27600000000001,,0.0,33.8537,110.27600000000001,33.8537,-69.7238,2213.8,monload-611_runway,,,,,,,,2.4,,,0.9224166666666668
109,0.0,,110.479,,0.0,34.3886,110.479,34.3886,-69.5213,2222.39,monload-611_runway,,,,,,,,2.4,,,0.9259958333333332
110,0.0,,110.3,,0.0,35.0561,110.289,35.0561,-69.7113,2214.7,monload-611_runway,,,,,,,,2.4,,,0.9227916666666666
111,0.0,,110.26799999999999,,0.0,35.4285,110.26799999999999,35.4285,-69.7321,2213.32,monload-611_runway,,,,,,,,2.4,,,0.9222166666666667
112,0.0,,110.291,,0.0,34.75,110.291,34.75,-69.7095,2214.1,monload-611_runway,,,,,,,,2.4,,,0.9225416666666666
113,0.0,,110.251,,0.0,36.1455,110.251,36.1455,-69.7487,2211.82,monload-611_runway,,,,,,,,2.4,,,0.9215916666666667
114,0.0,,110.255,,0.0,41.0062,110.255,41.0062,-69.7451,2211.26,monload-611_runway,,,,,,,,2.4,,,0.9213583333333334
115,0.0,,111.454,,0.0,47.8941,111.454,47.8941,-68.5457,2262.1,monload-611_runway,,,,,,,,2.4,,,0.9425416666666666
116,0.0,,111.485,,0.0,50.4957,111.485,50.4957,-68.5148,2263.58,monload-611_runway,,,,,,,,2.4,,,0.9431583333333333
117,0.0,,112.18,,0.0,55.1034,112.179,55.1034,-67.8212,2292.6,monload-611_runway,,,,,,,,2.4,,,0.9552499999999999
118,0.0,,112.55799999999999,,0.0,52.4571,112.556,52.4571,-67.4438,2308.55,monload-611_runway,,,,,,,,2.4,,,0.9618958333333334
119,0.0,,113.536,,0.0,40.733000000000004,113.53399999999999,40.733000000000004,-66.4661,2348.88,monload-611_runway,,,,,,,,2.4,,,0.9787
120,0.0,,113.93,,0.0,29.5798,113.92200000000001,29.5798,-66.0782,2365.14,monload-611_runway,,,,,,,,2.4,,,0.985475
121,0.0,,114.186,,0.0,25.8806,114.18,25.8806,-65.8195,2375.73,monload-611_runway,,,,,,,,2.4,,,0.9898875
122,0.0,,114.18799999999999,,0.0,24.5759,114.19200000000001,24.5759,-65.8076,2361.08,monload-611_runway,,,,,,,,2.4,,,0.9837833333333333
123,0.0,,114.23299999999999,,0.0,22.9971,114.229,22.9971,-65.7709,2362.91,monload-611_runway,,,,,,,,2.4,,,0.9845458333333332
124,0.0,,114.251,,0.0,22.3842,114.25,22.3842,-65.7505,2363.67,monload-611_runway,,,,,,,,2.4,,,0.9848625000000001
125,0.0,,113.53,,0.0,22.8134,113.531,22.8134,-66.469,2334.58,monload-611_runway,,,,,,,,2.4,,,0.9727416666666666
126,0.0,,113.314,,0.0,26.7316,113.31700000000001,26.7316,-66.6829,2325.64,monload-611_runway,,,,,,,,2.4,,,0.9690166666666666
127,0.0,,111.536,,0.0,40.7756,111.538,40.7756,-68.4622,2252.39,monload-611_runway,,,,,,,,2.4,,,0.9384958333333333
128,0.0,,110.831,,0.0,44.638999999999996,110.83,44.638999999999996,-69.1696,2236.76,monload-611_runway,,,,,,,,2.4,,,0.9319833333333334
129,0.0,,110.52799999999999,,0.0,42.9104,110.52799999999999,42.9104,-69.4717,2223.78,monload-611_runway,,,,,,,,2.4,,,0.926575
130,0.0,,110.336,,0.0,43.0383,110.336,43.0383,-69.6635,2215.77,monload-611_runway,,,,,,,,2.4,,,0.9232375
131,0.0,,110.325,,0.0,37.1679,110.325,37.1679,-69.6753,2215.22,monload-611_runway,,,,,,,,2.4,,,0.9230083333333332
132,0.0,,110.23200000000001,,0.0,37.8017,110.23200000000001,37.8017,-69.7683,2211.0,monload-611_runway,,,,,,,,2.4,,,0.92125
133,0.0,,110.352,,0.0,38.5749,110.352,38.5749,-69.648,2216.07,monload-611_runway,,,,,,,,2.4,,,0.9233625000000001
134,0.0,,110.163,,0.0,38.9778,110.164,38.9778,-69.8364,2208.05,monload-611_runway,,,,,,,,2.4,,,0.9200208333333334
135,0.0,,110.181,,0.0,38.7003,110.18299999999999,38.7003,-69.8174,2208.88,monload-611_runway,,,,,,,,2.4,,,0.9203666666666667
136,0.0,,110.227,,0.0,37.508,110.226,37.508,-69.7735,2210.71,monload-611_runway,,,,,,,,2.4,,,0.9211291666666667
137,0.0,,110.213,,0.0,36.6286,110.212,36.6286,-69.7876,2209.85,monload-611_runway,,,,,,,,2.4,,,0.9207708333333333
138,0.0,,110.193,,0.0,41.4778,110.193,41.4778,-69.807,2208.39,monload-611_runway,,,,,,,,2.4,,,0.9201625
139,0.0,,111.28,,0.0,49.3841,111.279,49.3841,-68.7206,2254.37,monload-611_runway,,,,,,,,2.4,,,0.9393208333333333
140,0.0,,111.302,,0.0,52.0798,111.302,52.0798,-68.6977,2255.47,monload-611_runway,,,,,,,,2.4,,,0.9397791666666666
141,0.0,,111.935,,0.0,57.1881,111.932,57.1881,-68.0685,2281.99,monload-611_runway,,,,,,,,2.4,,,0.9508291666666666
142,0.0,,112.54899999999999,,0.0,51.6617,112.54700000000001,51.6617,-67.453,2308.15,monload-611_runway,,,,,,,,2.4,,,0.9617291666666667
143,0.0,,113.698,,0.0,37.0848,113.695,37.0848,-66.3055,2355.64,monload-611_runway,,,,,,,,2.4,,,0.9815166666666666
144,0.0,,114.085,,0.0,25.3175,114.07600000000001,25.3175,-65.9236,2371.61,monload-611_runway,,,,,,,,2.4,,,0.9881708333333333
145,0.0,,114.212,,0.0,23.1146,114.21600000000001,23.1146,-65.7837,2362.11,monload-611_runway,,,,,,,,2.4,,,0.9842125
146,0.0,,114.2,,0.0,22.7156,114.20100000000001,22.7156,-65.7986,2361.68,monload-611_runway,,,,,,,,2.4,,,0.9840333333333333
147,0.0,,114.265,,0.0,19.4987,114.259,19.4987,-65.7411,2364.26,monload-611_runway,,,,,,,,2.4,,,0.9851083333333335
148,0.0,,114.279,,0.0,19.1538,114.27799999999999,19.1538,-65.7224,2364.83,monload-611_runway,,,,,,,,2.4,,,0.9853458333333333
149,0.0,,114.089,,0.0,19.44,114.09100000000001,19.44,-65.9093,2357.13,monload-611_runway,,,,,,,,2.4,,,0.9821375
150,0.0,,113.977,,0.0,20.7921,113.978,20.7921,-66.0221,2352.41,monload-611_runway,,,,,,,,2.4,,,0.9801708333333333
151,0.0,,113.197,,0.0,30.6613,113.198,30.6613,-66.80199999999999,2320.8,monload-611_runway,,,,,,,,2.4,,,0.9670000000000001
152,0.0,,112.556,,0.0,32.5578,112.557,32.5578,-67.4428,2294.69,monload-611_runway,,,,,,,,2.4,,,0.9561208333333333
153,0.0,,112.369,,0.0,45.5458,112.37200000000001,45.5458,-67.6282,2287.28,monload-611_runway,,,,,,,,2.4,,,0.9530333333333334
154,0.0,,111.95100000000001,,0.0,40.4337,111.95,40.4337,-68.0502,2270.13,monload-611_runway,,,,,,,,2.4,,,0.9458875
155,0.0,,112.07700000000001,,0.0,31.7521,112.07700000000001,31.7521,-67.9235,2275.53,monload-611_runway,,,,,,,,2.4,,,0.9481375000000001
156,0.0,,112.02600000000001,,0.0,31.2462,112.02600000000001,31.2462,-67.9736,2273.35,monload-611_runway,,,,,,,,2.4,,,0.9472291666666667
157,0.0,,112.14399999999999,,0.0,31.998,112.14399999999999,31.998,-67.8564,2277.96,monload-611_runway,,,,,,,,2.4,,,0.94915
158,0.0,,112.20299999999999,,0.0,31.7662,112.206,31.7662,-67.7937,2280.47,monload-611_runway,,,,,,,,2.4,,,0.9501958333333332
159,0.0,,112.19,,0.0,32.0334,112.189,32.0334,-67.8114,2279.77,monload-611_runway,,,,,,,,2.4,,,0.9499041666666667
160,0.0,,112.51299999999999,,0.0,33.0122,112.51299999999999,33.0122,-67.4873,2292.73,monload-611_runway,,,,,,,,2.4,,,0.9553041666666666
161,0.0,,112.376,,0.0,33.2851,112.37799999999999,33.2851,-67.6216,2286.71,monload-611_runway,,,,,,,,2.4,,,0.9527958333333334
162,0.0,,112.361,,0.0,36.5459,112.361,36.5459,-67.639,2285.88,monload-611_runway,,,,,,,,2.4,,,0.95245
163,0.0,,112.24700000000001,,0.0,47.5561,112.24799999999999,47.5561,-67.7519,2281.11,monload-611_runway,,,,,,,,2.4,,,0.9504625000000001
164,0.0,,112.274,,0.0,49.2997,112.271,49.2997,-67.7288,2282.29,monload-611_runway,,,,,,,,2.4,,,0.9509541666666667
165,0.0,,112.898,,0.0,51.8892,112.897,51.8892,-67.1028,2307.88,monload-611_runway,,,,,,,,2.4,,,0.9616166666666667
166,0.0,,113.039,,0.0,51.0972,113.037,51.0972,-66.9632,2313.91,monload-611_runway,,,,,,,,2.4,,,0.9641291666666666
