hour,t(sec),V1,VAngle1,V2,VAngle2,I1,IAngle1,I2,IAngle2,V3,Name,VAngle3,I3,IAngle3,V4,VAngle4,I4,IAngle4,kv,V1(PU),V2(PU),V3(PU)
1,0.0,,111.15299999999999,,0.0,20.2518,111.156,20.2518,-68.8442,2404.16,monload-611_runway,,,,,,,,2.4,,,1.0017333333333334
2,0.0,,111.197,,0.0,21.49,111.19200000000001,21.49,-68.8079,2406.51,monload-611_runway,,,,,,,,2.4,,,1.0027125000000001
3,0.0,,111.16799999999999,,0.0,18.735,111.17200000000001,18.735,-68.8282,2404.97,monload-611_runway,,,,,,,,2.4,,,1.0020708333333332
4,0.0,,111.17299999999999,,0.0,18.1696,111.17299999999999,18.1696,-68.827,2405.19,monload-611_runway,,,,,,,,2.4,,,1.0021625
5,0.0,,110.95700000000001,,0.0,18.3433,110.959,18.3433,-69.0411,2395.08,monload-611_runway,,,,,,,,2.4,,,0.99795
6,0.0,,110.84,,0.0,19.8621,110.84100000000001,19.8621,-69.1594,2389.45,monload-611_runway,,,,,,,,2.4,,,0.9956041666666666
7,0.0,,110.12100000000001,,0.0,29.8483,110.12200000000001,29.8483,-69.8783,2356.27,monload-611_runway,,,,,,,,2.4,,,0.9817791666666666
8,0.0,,110.27799999999999,,0.0,31.8618,110.27600000000001,31.8618,-69.7235,2363.67,monload-611_runway,,,,,,,,2.4,,,0.9848625000000001
9,0.0,,109.837,,0.0,44.0268,109.837,44.0268,-70.1632,2343.81,monload-611_runway,,,,,,,,2.4,,,0.9765874999999999
10,0.0,,110.352,,0.0,37.8158,110.352,37.8158,-69.6484,2368.98,monload-611_runway,,,,,,,,2.4,,,0.987075
11,0.0,,110.958,,0.0,26.7204,110.95700000000001,26.7204,-69.0433,2398.09,monload-611_runway,,,,,,,,2.4,,,0.9992041666666668
12,0.0,,112.742,,0.0,25.0426,112.74700000000001,25.0426,-67.2534,2469.62,monload-611_runway,,,,,,,,2.4,,,1.0290083333333333
13,0.0,,110.73200000000001,,0.0,24.9564,110.73299999999999,24.9564,-69.2666,2371.83,monload-611_runway,,,,,,,,2.4,,,0.9882624999999999
14,0.0,,111.514,,0.0,24.9959,111.51299999999999,24.9959,-68.4871,2409.97,monload-611_runway,,,,,,,,2.4,,,1.0041541666666667
15,0.0,,112.596,,0.0,24.9268,112.595,24.9268,-67.4049,2462.36,monload-611_runway,,,,,,,,2.4,,,1.0259833333333335
16,0.0,,113.116,,0.0,24.7866,113.115,24.7866,-66.8848,2487.21,monload-611_runway,,,,,,,,2.4,,,1.0363375
17,0.0,,112.094,,0.0,25.989,112.095,25.989,-67.9049,2438.13,monload-611_runway,,,,,,,,2.4,,,1.0158875
18,0.0,,110.509,,0.0,31.4301,110.51,31.4301,-69.4903,2361.05,monload-611_runway,,,,,,,,2.4,,,0.9837708333333334
19,0.0,,110.066,,0.0,43.1551,110.069,43.1551,-69.9306,2340.05,monload-611_runway,,,,,,,,2.4,,,0.9750208333333334
20,0.0,,111.245,,0.0,45.3034,111.245,45.3034,-68.7553,2398.48,monload-611_runway,,,,,,,,2.4,,,0.9993666666666666
21,0.0,,112.54700000000001,,0.0,47.8087,112.546,47.8087,-67.4545,2461.23,monload-611_runway,,,,,,,,2.4,,,1.0255125
22,0.0,,111.738,,0.0,46.4444,111.73899999999999,46.4444,-68.2612,2421.77,monload-611_runway,,,,,,,,2.4,,,1.0090708333333334
23,0.0,,114.325,,0.0,35.8008,114.325,35.8008,-65.6746,2527.3,monload-611_runway,,,,,,,,2.4,,,1.0530416666666667
24,0.0,,117.2,,0.0,24.002,117.2,24.002,-62.7999,2639.87,monload-611_runway,,,,,,,,2.4,,,1.0999458333333332
25,0.0,,114.541,,0.0,18.6667,114.542,18.6667,-65.458,2519.47,monload-611_runway,,,,,,,,2.4,,,1.0497791666666665
26,0.0,,114.75399999999999,,0.0,17.9149,114.75399999999999,17.9149,-65.2461,2529.26,monload-611_runway,,,,,,,,2.4,,,1.0538583333333333
27,0.0,,115.711,,0.0,17.2819,115.712,17.2819,-64.2884,2572.96,monload-611_runway,,,,,,,,2.4,,,1.0720666666666667
28,0.0,,114.213,,0.0,17.0116,114.213,17.0116,-65.7865,2504.28,monload-611_runway,,,,,,,,2.4,,,1.04345
29,0.0,,111.714,,0.0,17.6802,111.71,17.6802,-68.2904,2404.59,monload-611_runway,,,,,,,,2.4,,,1.0019125
30,0.0,,115.65,,0.0,21.7181,115.65,21.7181,-64.3499,2574.29,monload-611_runway,,,,,,,,2.4,,,1.0726208333333334
31,0.0,,113.439,,0.0,33.1809,113.439,33.1809,-66.5612,2480.12,monload-611_runway,,,,,,,,2.4,,,1.0333833333333333
32,0.0,,109.096,,0.0,34.8528,109.095,34.8528,-70.9053,2315.92,monload-611_runway,,,,,,,,2.4,,,0.9649666666666668
33,0.0,,110.111,,0.0,30.7756,110.109,30.7756,-69.8906,2368.35,monload-611_runway,,,,,,,,2.4,,,0.9868125
34,0.0,,111.28299999999999,,0.0,31.0977,111.281,31.0977,-68.7193,2428.16,monload-611_runway,,,,,,,,2.4,,,1.0117333333333334
35,0.0,,111.507,,0.0,25.135,111.505,25.135,-68.4945,2438.94,monload-611_runway,,,,,,,,2.4,,,1.016225
36,0.0,,109.742,,0.0,26.0047,109.745,26.0047,-70.2555,2351.51,monload-611_runway,,,,,,,,2.4,,,0.9797958333333334
37,0.0,,114.17399999999999,,0.0,26.5813,114.17399999999999,26.5813,-65.8259,2536.18,monload-611_runway,,,,,,,,2.4,,,1.0567416666666667
38,0.0,,111.821,,0.0,25.3752,111.822,25.3752,-68.1783,2425.14,monload-611_runway,,,,,,,,2.4,,,1.010475
39,0.0,,115.57,,0.0,25.1506,115.571,25.1506,-64.429,2586.05,monload-611_runway,,,,,,,,2.4,,,1.0775208333333335
40,0.0,,113.225,,0.0,24.748,113.226,24.748,-66.7739,2476.43,monload-611_runway,,,,,,,,2.4,,,1.0318458333333334
41,0.0,,112.725,,0.0,25.8685,112.726,25.8685,-67.2743,2453.39,monload-611_runway,,,,,,,,2.4,,,1.0222458333333333
42,0.0,,108.458,,0.0,31.6633,108.456,31.6633,-71.5444,2285.24,monload-611_runway,,,,,,,,2.4,,,0.9521833333333333
43,0.0,,111.147,,0.0,38.7986,111.145,38.7986,-68.8551,2415.32,monload-611_runway,,,,,,,,2.4,,,1.0063833333333334
44,0.0,,113.956,,0.0,41.1781,113.956,41.1781,-66.0445,2519.67,monload-611_runway,,,,,,,,2.4,,,1.0498625
45,0.0,,114.054,,0.0,45.1442,114.055,45.1442,-65.9454,2521.15,monload-611_runway,,,,,,,,2.4,,,1.0504791666666666
46,0.0,,115.20100000000001,,0.0,42.9276,115.20100000000001,42.9276,-64.7989,2557.25,monload-611_runway,,,,,,,,2.4,,,1.0655208333333333
47,0.0,,116.486,,0.0,31.969,116.486,31.969,-63.513999999999996,2611.43,monload-611_runway,,,,,,,,2.4,,,1.0880958333333333
48,0.0,,116.345,,0.0,21.8508,116.345,21.8508,-63.655,2603.52,monload-611_runway,,,,,,,,2.4,,,1.0848
49,0.0,,115.381,,0.0,19.1907,115.381,19.1907,-64.6193,2559.55,monload-611_runway,,,,,,,,2.4,,,1.0664791666666666
50,0.0,,117.13,,0.0,19.2567,117.12899999999999,19.2567,-62.8715,2638.06,monload-611_runway,,,,,,,,2.4,,,1.0991916666666666
51,0.0,,115.521,,0.0,18.2107,115.521,18.2107,-64.479,2565.55,monload-611_runway,,,,,,,,2.4,,,1.0689791666666668
52,0.0,,116.749,,0.0,19.1767,116.749,19.1767,-63.2512,2620.89,monload-611_runway,,,,,,,,2.4,,,1.0920375
53,0.0,,111.104,,0.0,19.6598,111.09899999999999,19.6598,-68.9009,2391.05,monload-611_runway,,,,,,,,2.4,,,0.9962708333333334
54,0.0,,112.86200000000001,,0.0,23.9779,112.85700000000001,23.9779,-67.1433,2477.35,monload-611_runway,,,,,,,,2.4,,,1.0322291666666665
55,0.0,,111.635,,0.0,35.7182,111.639,35.7182,-68.3608,2425.72,monload-611_runway,,,,,,,,2.4,,,1.0107166666666665
56,0.0,,107.805,,0.0,35.7098,107.805,35.7098,-72.1954,2263.89,monload-611_runway,,,,,,,,2.4,,,0.9432875
57,0.0,,110.75299999999999,,0.0,31.5574,110.755,31.5574,-69.2448,2401.43,monload-611_runway,,,,,,,,2.4,,,1.0005958333333334
58,0.0,,113.698,,0.0,31.2533,113.697,31.2533,-66.3028,2514.96,monload-611_runway,,,,,,,,2.4,,,1.0479
59,0.0,,114.00200000000001,,0.0,24.8638,114.00200000000001,24.8638,-65.9981,2528.36,monload-611_runway,,,,,,,,2.4,,,1.0534833333333333
60,0.0,,110.476,,0.0,25.9092,110.47399999999999,25.9092,-69.5259,2373.11,monload-611_runway,,,,,,,,2.4,,,0.9887958333333334
61,0.0,,112.609,,0.0,27.1001,112.60700000000001,27.1001,-67.3934,2476.33,monload-611_runway,,,,,,,,2.4,,,1.0318041666666666
62,0.0,,112.36200000000001,,0.0,27.5835,112.363,27.5835,-67.6365,2465.85,monload-611_runway,,,,,,,,2.4,,,1.0274375
63,0.0,,111.415,,0.0,27.9419,111.42,27.9419,-68.5801,2419.87,monload-611_runway,,,,,,,,2.4,,,1.0082791666666666
64,0.0,,110.645,,0.0,28.0794,110.649,28.0794,-69.3509,2382.07,monload-611_runway,,,,,,,,2.4,,,0.9925291666666667
65,0.0,,109.41,,0.0,28.5183,109.41,28.5183,-70.59,2320.45,monload-611_runway,,,,,,,,2.4,,,0.9668541666666666
66,0.0,,108.199,,0.0,32.4632,108.198,32.4632,-71.8017,2270.92,monload-611_runway,,,,,,,,2.4,,,0.9462166666666667
67,0.0,,110.522,,0.0,38.728,110.521,38.728,-69.4794,2383.14,monload-611_runway,,,,,,,,2.4,,,0.9929749999999999
68,0.0,,110.03399999999999,,0.0,40.8709,110.036,40.8709,-69.9635,2358.79,monload-611_runway,,,,,,,,2.4,,,0.9828291666666666
69,0.0,,111.539,,0.0,44.806000000000004,111.53200000000001,44.806000000000004,-68.4681,2430.81,monload-611_runway,,,,,,,,2.4,,,1.0128375
70,0.0,,110.71799999999999,,0.0,41.9513,110.721,41.9513,-69.2793,2389.16,monload-611_runway,,,,,,,,2.4,,,0.9954833333333333
71,0.0,,112.602,,0.0,30.874000000000002,112.60600000000001,30.874000000000002,-67.3945,2462.4,monload-611_runway,,,,,,,,2.4,,,1.026
72,0.0,,111.646,,0.0,21.1947,111.646,21.1947,-68.3539,2414.83,monload-611_runway,,,,,,,,2.4,,,1.0061791666666666
73,0.0,,112.292,,0.0,18.5785,112.288,18.5785,-67.7124,2445.67,monload-611_runway,,,,,,,,2.4,,,1.0190291666666667
74,0.0,,111.87100000000001,,0.0,17.7129,111.87299999999999,17.7129,-68.1267,2425.2,monload-611_runway,,,,,,,,2.4,,,1.0105
75,0.0,,111.436,,0.0,16.7422,111.43799999999999,16.7422,-68.5619,2403.88,monload-611_runway,,,,,,,,2.4,,,1.0016166666666668
76,0.0,,111.376,,0.0,16.8093,111.37799999999999,16.8093,-68.6218,2400.94,monload-611_runway,,,,,,,,2.4,,,1.0003916666666668
77,0.0,,110.448,,0.0,17.5128,110.449,17.5128,-69.5513,2357.78,monload-611_runway,,,,,,,,2.4,,,0.9824083333333334
78,0.0,,110.182,,0.0,20.9229,110.18299999999999,20.9229,-69.8165,2344.99,monload-611_runway,,,,,,,,2.4,,,0.9770791666666666
79,0.0,,108.302,,0.0,32.7171,108.3,32.7171,-71.6997,2285.79,monload-611_runway,,,,,,,,2.4,,,0.9524125
80,0.0,,107.48899999999999,,0.0,34.4419,107.48899999999999,34.4419,-72.5114,2245.91,monload-611_runway,,,,,,,,2.4,,,0.9357958333333333
81,0.0,,109.01700000000001,,0.0,30.82,109.015,30.82,-70.9848,2327.4,monload-611_runway,,,,,,,,2.4,,,0.96975
82,0.0,,111.311,,0.0,30.1071,111.31200000000001,30.1071,-68.6876,2429.4,monload-611_runway,,,,,,,,2.4,,,1.01225
83,0.0,,113.566,,0.0,23.08,113.56700000000001,23.08,-66.4327,2506.6,monload-611_runway,,,,,,,,2.4,,,1.0444166666666665
84,0.0,,114.72200000000001,,0.0,24.0183,114.721,24.0183,-65.2786,2562.36,monload-611_runway,,,,,,,,2.4,,,1.06765
85,0.0,,115.374,,0.0,25.2732,115.374,25.2732,-64.6259,2575.01,monload-611_runway,,,,,,,,2.4,,,1.0729208333333333
86,0.0,,114.83,,0.0,26.3859,114.831,26.3859,-65.1685,2551.43,monload-611_runway,,,,,,,,2.4,,,1.0630958333333334
87,0.0,,113.634,,0.0,26.4039,113.635,26.4039,-66.3654,2496.01,monload-611_runway,,,,,,,,2.4,,,1.0400041666666668
88,0.0,,111.64299999999999,,0.0,26.3335,111.641,26.3335,-68.3588,2417.44,monload-611_runway,,,,,,,,2.4,,,1.0072666666666668
89,0.0,,108.839,,0.0,27.5633,108.835,27.5633,-71.1649,2307.24,monload-611_runway,,,,,,,,2.4,,,0.9613499999999999
90,0.0,,106.93,,0.0,32.8663,106.93,32.8663,-73.0704,2218.88,monload-611_runway,,,,,,,,2.4,,,0.9245333333333334
91,0.0,,107.708,,0.0,40.986000000000004,107.708,40.986000000000004,-72.2921,2255.15,monload-611_runway,,,,,,,,2.4,,,0.9396458333333334
92,0.0,,107.921,,0.0,44.2679,107.92,44.2679,-72.0795,2266.56,monload-611_runway,,,,,,,,2.4,,,0.9444
93,0.0,,109.14399999999999,,0.0,49.2734,109.139,49.2734,-70.8611,2327.17,monload-611_runway,,,,,,,,2.4,,,0.9696541666666667
94,0.0,,110.171,,0.0,46.4184,110.165,46.4184,-69.8355,2378.35,monload-611_runway,,,,,,,,2.4,,,0.9909791666666666
95,0.0,,111.45200000000001,,0.0,34.3923,111.456,34.3923,-68.5437,2423.42,monload-611_runway,,,,,,,,2.4,,,1.0097583333333333
96,0.0,,111.95,,0.0,24.0131,111.944,24.0131,-68.0559,2446.58,monload-611_runway,,,,,,,,2.4,,,1.0194083333333332
97,0.0,,111.44200000000001,,0.0,21.7964,111.443,21.7964,-68.5574,2421.14,monload-611_runway,,,,,,,,2.4,,,1.0088083333333333
98,0.0,,111.334,,0.0,20.8093,111.335,20.8093,-68.6647,2415.68,monload-611_runway,,,,,,,,2.4,,,1.0065333333333333
99,0.0,,111.429,,0.0,19.5335,111.428,19.5335,-68.5721,2420.18,monload-611_runway,,,,,,,,2.4,,,1.0084083333333334
100,0.0,,112.296,,0.0,19.3539,112.3,19.3539,-67.7004,2446.82,monload-611_runway,,,,,,,,2.4,,,1.0195083333333335
101,0.0,,111.449,,0.0,19.795,111.45,19.795,-68.5502,2408.02,monload-611_runway,,,,,,,,2.4,,,1.0033416666666666
102,0.0,,111.355,,0.0,23.6849,111.35600000000001,23.6849,-68.6442,2404.28,monload-611_runway,,,,,,,,2.4,,,1.0017833333333335
103,0.0,,108.995,,0.0,38.4226,108.993,38.4226,-71.0071,2309.02,monload-611_runway,,,,,,,,2.4,,,0.9620916666666667
104,0.0,,107.82600000000001,,0.0,42.4383,107.82600000000001,42.4383,-72.1744,2266.61,monload-611_runway,,,,,,,,2.4,,,0.9444208333333334
105,0.0,,109.18799999999999,,0.0,39.7651,109.186,39.7651,-70.8139,2338.97,monload-611_runway,,,,,,,,2.4,,,0.9745708333333333
106,0.0,,111.04899999999999,,0.0,42.458999999999996,111.051,42.458999999999996,-68.9492,2420.58,monload-611_runway,,,,,,,,2.4,,,1.008575
107,0.0,,112.727,,0.0,36.7749,112.729,36.7749,-67.2711,2486.96,monload-611_runway,,,,,,,,2.4,,,1.0362333333333333
108,0.0,,114.259,,0.0,35.2598,114.259,35.2598,-65.7413,2544.24,monload-611_runway,,,,,,,,2.4,,,1.0600999999999998
109,0.0,,115.156,,0.0,36.0022,115.15700000000001,36.0022,-64.8431,2567.87,monload-611_runway,,,,,,,,2.4,,,1.0699458333333334
110,0.0,,114.79799999999999,,0.0,36.6195,114.79899999999999,36.6195,-65.20100000000001,2552.67,monload-611_runway,,,,,,,,2.4,,,1.0636125
111,0.0,,114.76100000000001,,0.0,37.0092,114.76100000000001,37.0092,-65.23899999999999,2551.18,monload-611_runway,,,,,,,,2.4,,,1.0629916666666666
112,0.0,,112.48299999999999,,0.0,35.8436,112.484,35.8436,-67.5161,2443.83,monload-611_runway,,,,,,,,2.4,,,1.0182625
113,0.0,,109.34,,0.0,37.3236,109.336,37.3236,-70.6642,2319.13,monload-611_runway,,,,,,,,2.4,,,0.9663041666666667
114,0.0,,107.07700000000001,,0.0,41.3086,107.07600000000001,41.3086,-72.9237,2226.7,monload-611_runway,,,,,,,,2.4,,,0.9277916666666666
115,0.0,,108.214,,0.0,48.2942,108.213,48.2942,-71.7866,2281.22,monload-611_runway,,,,,,,,2.4,,,0.9505083333333333
116,0.0,,108.745,,0.0,50.8826,108.742,50.8826,-71.2577,2308.69,monload-611_runway,,,,,,,,2.4,,,0.9619541666666667
117,0.0,,109.225,,0.0,55.1034,109.223,55.1034,-70.7767,2330.45,monload-611_runway,,,,,,,,2.4,,,0.9710208333333332
118,0.0,,109.77,,0.0,52.4571,109.76799999999999,52.4571,-70.2323,2357.14,monload-611_runway,,,,,,,,2.4,,,0.9821416666666666
119,0.0,,110.355,,0.0,40.733000000000004,110.354,40.733000000000004,-69.6463,2383.06,monload-611_runway,,,,,,,,2.4,,,0.9929416666666666
120,0.0,,110.675,,0.0,29.5798,110.666,29.5798,-69.3336,2397.83,monload-611_runway,,,,,,,,2.4,,,0.9990958333333333
121,0.0,,110.95200000000001,,0.0,25.8806,110.955,25.8806,-69.045,2395.72,monload-611_runway,,,,,,,,2.4,,,0.9982166666666665
122,0.0,,110.881,,0.0,24.5759,110.881,24.5759,-69.1185,2392.08,monload-611_runway,,,,,,,,2.4,,,0.9966999999999999
123,0.0,,111.009,,0.0,22.9971,111.007,22.9971,-68.9926,2398.25,monload-611_runway,,,,,,,,2.4,,,0.9992708333333333
124,0.0,,110.96799999999999,,0.0,22.3842,110.97200000000001,22.3842,-69.0276,2396.22,monload-611_runway,,,,,,,,2.4,,,0.9984249999999999
125,0.0,,110.11399999999999,,0.0,22.8134,110.115,22.8134,-69.8848,2356.15,monload-611_runway,,,,,,,,2.4,,,0.9817291666666667
126,0.0,,109.88600000000001,,0.0,26.7316,109.88799999999999,26.7316,-70.1122,2345.28,monload-611_runway,,,,,,,,2.4,,,0.9772000000000001
127,0.0,,107.84299999999999,,0.0,40.9687,107.848,40.9687,-72.1524,2262.28,monload-611_runway,,,,,,,,2.4,,,0.9426166666666668
128,0.0,,107.056,,0.0,44.3684,107.05799999999999,44.3684,-72.9422,2223.94,monload-611_runway,,,,,,,,2.4,,,0.9266416666666667
129,0.0,,107.84899999999999,,0.0,43.8289,107.85,43.8289,-72.1504,2268.84,monload-611_runway,,,,,,,,2.4,,,0.94535
130,0.0,,109.82600000000001,,0.0,44.3574,109.82700000000001,44.3574,-70.1734,2372.47,monload-611_runway,,,,,,,,2.4,,,0.9885291666666666
131,0.0,,112.148,,0.0,38.3172,112.152,38.3172,-67.848,2457.91,monload-611_runway,,,,,,,,2.4,,,1.0241291666666665
132,0.0,,111.204,,0.0,39.0492,111.208,39.0492,-68.7922,2412.12,monload-611_runway,,,,,,,,2.4,,,1.00505
133,0.0,,112.26899999999999,,0.0,39.7514,112.264,39.7514,-67.7358,2462.86,monload-611_runway,,,,,,,,2.4,,,1.0261916666666666
134,0.0,,112.15299999999999,,0.0,40.3209,112.156,40.3209,-67.8443,2458.88,monload-611_runway,,,,,,,,2.4,,,1.0245333333333333
135,0.0,,112.22200000000001,,0.0,40.0177,112.221,40.0177,-67.7795,2462.2,monload-611_runway,,,,,,,,2.4,,,1.0259166666666666
136,0.0,,110.46600000000001,,0.0,38.751,110.46799999999999,38.751,-69.5324,2375.68,monload-611_runway,,,,,,,,2.4,,,0.9898666666666666
137,0.0,,108.12899999999999,,0.0,37.7031,108.12799999999999,37.7031,-71.8718,2271.17,monload-611_runway,,,,,,,,2.4,,,0.9463208333333334
138,0.0,,106.648,,0.0,41.6607,106.647,41.6607,-73.3525,2217.61,monload-611_runway,,,,,,,,2.4,,,0.9240041666666667
139,0.0,,107.51700000000001,,0.0,49.4938,107.51700000000001,49.4938,-72.4831,2259.1,monload-611_runway,,,,,,,,2.4,,,0.9412916666666666
140,0.0,,107.696,,0.0,52.4028,107.696,52.4028,-72.3045,2268.71,monload-611_runway,,,,,,,,2.4,,,0.9452958333333333
141,0.0,,108.36,,0.0,57.1881,108.35799999999999,57.1881,-71.6419,2300.89,monload-611_runway,,,,,,,,2.4,,,0.9587041666666666
142,0.0,,109.25399999999999,,0.0,51.6617,109.255,51.6617,-70.7451,2330.82,monload-611_runway,,,,,,,,2.4,,,0.9711750000000001
143,0.0,,110.435,,0.0,37.0848,110.43299999999999,37.0848,-69.5668,2386.68,monload-611_runway,,,,,,,,2.4,,,0.99445
144,0.0,,111.132,,0.0,25.3175,111.13600000000001,25.3175,-68.8642,2404.95,monload-611_runway,,,,,,,,2.4,,,1.0020624999999999
145,0.0,,111.13600000000001,,0.0,23.1146,111.137,23.1146,-68.863,2404.67,monload-611_runway,,,,,,,,2.4,,,1.0019458333333333
146,0.0,,111.189,,0.0,22.7156,111.18299999999999,22.7156,-68.8165,2407.37,monload-611_runway,,,,,,,,2.4,,,1.0030708333333334
147,0.0,,111.12799999999999,,0.0,19.4987,111.12899999999999,19.4987,-68.8714,2404.08,monload-611_runway,,,,,,,,2.4,,,1.0017
148,0.0,,111.008,,0.0,19.1538,111.009,19.1538,-68.9911,2398.09,monload-611_runway,,,,,,,,2.4,,,0.9992041666666668
149,0.0,,110.905,,0.0,19.44,110.906,19.44,-69.0944,2393.57,monload-611_runway,,,,,,,,2.4,,,0.9973208333333334
150,0.0,,110.561,,0.0,20.7921,110.564,20.7921,-69.4361,2376.68,monload-611_runway,,,,,,,,2.4,,,0.9902833333333333
151,0.0,,109.865,,0.0,30.6613,109.866,30.6613,-70.1341,2344.77,monload-611_runway,,,,,,,,2.4,,,0.9769875
152,0.0,,109.13799999999999,,0.0,32.5578,109.139,32.5578,-70.8612,2310.16,monload-611_runway,,,,,,,,2.4,,,0.9625666666666666
153,0.0,,110.641,,0.0,45.5458,110.637,45.5458,-69.3626,2386.89,monload-611_runway,,,,,,,,2.4,,,0.9945375
154,0.0,,110.036,,0.0,40.6198,110.038,40.6198,-69.9624,2358.76,monload-611_runway,,,,,,,,2.4,,,0.9828166666666668
155,0.0,,114.84899999999999,,0.0,32.3145,114.84899999999999,32.3145,-65.1509,2559.34,monload-611_runway,,,,,,,,2.4,,,1.0663916666666666
156,0.0,,115.70700000000001,,0.0,32.1197,115.70700000000001,32.1197,-64.2927,2582.46,monload-611_runway,,,,,,,,2.4,,,1.076025
157,0.0,,115.125,,0.0,32.4658,115.124,32.4658,-64.8756,2554.44,monload-611_runway,,,,,,,,2.4,,,1.0643500000000001
158,0.0,,114.928,,0.0,32.0826,114.929,32.0826,-65.0711,2545.1,monload-611_runway,,,,,,,,2.4,,,1.0604583333333333
159,0.0,,113.85799999999999,,0.0,32.0361,113.85700000000001,32.0361,-66.1426,2495.48,monload-611_runway,,,,,,,,2.4,,,1.0397833333333333
160,0.0,,111.596,,0.0,33.0122,111.595,33.0122,-68.4049,2402.43,monload-611_runway,,,,,,,,2.4,,,1.0010124999999999
161,0.0,,110.47399999999999,,0.0,33.2851,110.473,33.2851,-69.527,2362.52,monload-611_runway,,,,,,,,2.4,,,0.9843833333333333
162,0.0,,109.352,,0.0,36.5459,109.351,36.5459,-70.6492,2320.92,monload-611_runway,,,,,,,,2.4,,,0.9670500000000001
163,0.0,,109.554,,0.0,47.5561,109.55,47.5561,-70.4505,2331.92,monload-611_runway,,,,,,,,2.4,,,0.9716333333333333
164,0.0,,108.984,,0.0,49.2997,108.985,49.2997,-71.0147,2302.98,monload-611_runway,,,,,,,,2.4,,,0.959575
165,0.0,,109.52799999999999,,0.0,51.8892,109.527,51.8892,-70.4725,2328.37,monload-611_runway,,,,,,,,2.4,,,0.9701541666666667
166,0.0,,109.588,,0.0,51.0972,109.588,51.0972,-70.4123,2331.21,monload-611_runway,,,,,,,,2.4,,,0.9713375
167,0.0,,110.412,,0.0,40.8171,110.411,40.8171,-69.5893,2370.91,monload-611_runway,,,,,,,,2.4,,,0.9878791666666666
