hour,t(sec),V1,VAngle1,V2,VAngle2,I1,IAngle1,I2,IAngle2,V3,Name,VAngle3,I3,IAngle3,V4,VAngle4,I4,IAngle4,kv,V1(PU),V2(PU),V3(PU)
1,0.0,,116.624,,0.0,20.2518,116.624,20.2518,-63.3758,2444.46,monload-611_runway,,,,,,,,2.4,,,1.0185250000000001
2,0.0,,116.6,,0.0,21.49,116.6,21.49,-63.4004,2443.63,monload-611_runway,,,,,,,,2.4,,,1.0181791666666666
3,0.0,,116.631,,0.0,18.735,116.63,18.735,-63.3702,2444.83,monload-611_runway,,,,,,,,2.4,,,1.0186791666666666
4,0.0,,115.151,,0.0,18.1696,115.152,18.1696,-64.848,2384.12,monload-611_runway,,,,,,,,2.4,,,0.9933833333333333
5,0.0,,114.961,,0.0,18.3433,114.962,18.3433,-65.0378,2376.57,monload-611_runway,,,,,,,,2.4,,,0.9902375000000001
6,0.0,,114.852,,0.0,19.8621,114.853,19.8621,-65.1468,2372.09,monload-611_runway,,,,,,,,2.4,,,0.9883708333333334
7,0.0,,114.087,,0.0,29.8483,114.086,29.8483,-65.9135,2341.59,monload-611_runway,,,,,,,,2.4,,,0.9756625000000001
8,0.0,,114.116,,0.0,31.8618,114.113,31.8618,-65.887,2342.83,monload-611_runway,,,,,,,,2.4,,,0.9761791666666666
9,0.0,,113.726,,0.0,44.0268,113.73,44.0268,-66.27,2327.76,monload-611_runway,,,,,,,,2.4,,,0.9699000000000001
10,0.0,,112.682,,0.0,37.8158,112.681,37.8158,-67.319,2296.64,monload-611_runway,,,,,,,,2.4,,,0.9569333333333333
11,0.0,,113.148,,0.0,26.7204,113.146,26.7204,-66.8535,2316.26,monload-611_runway,,,,,,,,2.4,,,0.9651083333333335
12,0.0,,114.458,,0.0,25.0426,114.454,25.0426,-65.5459,2372.66,monload-611_runway,,,,,,,,2.4,,,0.9886083333333333
13,0.0,,113.014,,0.0,24.9564,113.019,24.9564,-66.9808,2310.16,monload-611_runway,,,,,,,,2.4,,,0.9625666666666666
14,0.0,,113.652,,0.0,24.9959,113.649,24.9959,-66.3505,2337.82,monload-611_runway,,,,,,,,2.4,,,0.9740916666666667
15,0.0,,114.152,,0.0,24.9268,114.15,24.9268,-65.8498,2359.39,monload-611_runway,,,,,,,,2.4,,,0.9830791666666666
16,0.0,,114.241,,0.0,24.7866,114.239,24.7866,-65.7613,2363.22,monload-611_runway,,,,,,,,2.4,,,0.984675
17,0.0,,114.931,,0.0,25.989,114.926,25.989,-65.0741,2392.05,monload-611_runway,,,,,,,,2.4,,,0.9966875000000001
18,0.0,,115.553,,0.0,31.4301,115.554,31.4301,-64.4459,2417.72,monload-611_runway,,,,,,,,2.4,,,1.0073833333333333
19,0.0,,115.291,,0.0,43.1551,115.292,43.1551,-64.708,2407.09,monload-611_runway,,,,,,,,2.4,,,1.0029541666666668
20,0.0,,115.29,,0.0,45.3034,115.289,45.3034,-64.7108,2407.06,monload-611_runway,,,,,,,,2.4,,,1.0029416666666666
21,0.0,,115.417,,0.0,47.8087,115.416,47.8087,-64.5835,2412.03,monload-611_runway,,,,,,,,2.4,,,1.0050125
22,0.0,,115.564,,0.0,46.4444,115.564,46.4444,-64.4362,2418.02,monload-611_runway,,,,,,,,2.4,,,1.0075083333333332
23,0.0,,116.051,,0.0,35.6973,116.05,35.6973,-63.9497,2437.24,monload-611_runway,,,,,,,,2.4,,,1.0155166666666666
24,0.0,,116.401,,0.0,22.9122,116.402,22.9122,-63.5981,2435.7,monload-611_runway,,,,,,,,2.4,,,1.014875
25,0.0,,115.036,,0.0,18.6667,115.037,18.6667,-64.963,2379.48,monload-611_runway,,,,,,,,2.4,,,0.99145
26,0.0,,115.048,,0.0,17.8494,115.048,17.8494,-64.9523,2379.97,monload-611_runway,,,,,,,,2.4,,,0.9916541666666666
27,0.0,,115.07,,0.0,16.9263,115.068,16.9263,-64.9317,2380.79,monload-611_runway,,,,,,,,2.4,,,0.9919958333333333
28,0.0,,115.074,,0.0,17.0116,115.074,17.0116,-64.926,2380.96,monload-611_runway,,,,,,,,2.4,,,0.9920666666666667
29,0.0,,114.37,,0.0,17.6802,114.37,17.6802,-65.6298,2353.13,monload-611_runway,,,,,,,,2.4,,,0.9804708333333334
30,0.0,,114.109,,0.0,21.26,114.112,21.26,-65.8884,2342.61,monload-611_runway,,,,,,,,2.4,,,0.9760875000000001
31,0.0,,112.413,,0.0,33.1809,112.409,33.1809,-67.591,2288.54,monload-611_runway,,,,,,,,2.4,,,0.9535583333333333
32,0.0,,111.769,,0.0,34.562,111.767,34.562,-68.2332,2262.03,monload-611_runway,,,,,,,,2.4,,,0.9425125000000001
33,0.0,,112.038,,0.0,30.6969,112.038,30.6969,-67.962,2274.48,monload-611_runway,,,,,,,,2.4,,,0.9477
34,0.0,,112.438,,0.0,31.0977,112.437,31.0977,-67.5633,2292.77,monload-611_runway,,,,,,,,2.4,,,0.9553208333333333
35,0.0,,111.404,,0.0,24.7514,111.404,24.7514,-68.5959,2247.04,monload-611_runway,,,,,,,,2.4,,,0.9362666666666667
36,0.0,,113.057,,0.0,26.0047,113.06,26.0047,-66.9397,2319.52,monload-611_runway,,,,,,,,2.4,,,0.9664666666666667
37,0.0,,112.77,,0.0,26.4116,112.772,26.4116,-67.2283,2307.98,monload-611_runway,,,,,,,,2.4,,,0.9616583333333334
38,0.0,,114.031,,0.0,25.3752,114.032,25.3752,-65.9675,2361.21,monload-611_runway,,,,,,,,2.4,,,0.9838375
39,0.0,,113.576,,0.0,24.5082,113.574,24.5082,-66.4261,2343.07,monload-611_runway,,,,,,,,2.4,,,0.9762791666666667
40,0.0,,112.288,,0.0,24.748,112.289,24.748,-67.7106,2287.47,monload-611_runway,,,,,,,,2.4,,,0.9531124999999999
41,0.0,,111.118,,0.0,25.327,111.118,25.327,-68.8817,2234.75,monload-611_runway,,,,,,,,2.4,,,0.9311458333333333
42,0.0,,112.731,,0.0,31.6633,112.73,31.6633,-67.2704,2305.54,monload-611_runway,,,,,,,,2.4,,,0.9606416666666666
43,0.0,,113.838,,0.0,38.7986,113.836,38.7986,-66.1637,2349.71,monload-611_runway,,,,,,,,2.4,,,0.9790458333333334
44,0.0,,113.826,,0.0,41.1781,113.826,41.1781,-66.1736,2349.24,monload-611_runway,,,,,,,,2.4,,,0.9788499999999999
45,0.0,,114.527,,0.0,45.1231,114.522,45.1231,-65.4782,2377.13,monload-611_runway,,,,,,,,2.4,,,0.9904708333333334
46,0.0,,113.341,,0.0,42.3023,113.343,42.3023,-66.6573,2326.12,monload-611_runway,,,,,,,,2.4,,,0.9692166666666666
47,0.0,,114.283,,0.0,30.8497,114.282,30.8497,-65.7183,2364.15,monload-611_runway,,,,,,,,2.4,,,0.9850625000000001
48,0.0,,114.609,,0.0,21.1497,114.606,21.1497,-65.3942,2377.35,monload-611_runway,,,,,,,,2.4,,,0.9905625
49,0.0,,114.74,,0.0,18.8942,114.739,18.8942,-65.2611,2382.7,monload-611_runway,,,,,,,,2.4,,,0.9927916666666666
50,0.0,,114.782,,0.0,18.3946,114.777,18.3946,-65.2231,2384.33,monload-611_runway,,,,,,,,2.4,,,0.9934708333333333
51,0.0,,114.836,,0.0,17.8874,114.83,17.8874,-65.17,2386.48,monload-611_runway,,,,,,,,2.4,,,0.9943666666666666
52,0.0,,114.83,,0.0,18.4384,114.831,18.4384,-65.1689,2386.23,monload-611_runway,,,,,,,,2.4,,,0.9942625
53,0.0,,114.115,,0.0,19.6598,114.116,19.6598,-65.8837,2357.69,monload-611_runway,,,,,,,,2.4,,,0.9823708333333333
54,0.0,,113.83,,0.0,23.9779,113.834,23.9779,-66.1664,2346.02,monload-611_runway,,,,,,,,2.4,,,0.9775083333333333
55,0.0,,112.115,,0.0,35.6547,112.114,35.6547,-67.8856,2276.16,monload-611_runway,,,,,,,,2.4,,,0.9483999999999999
56,0.0,,111.533,,0.0,35.5133,111.536,35.5133,-68.4641,2252.14,monload-611_runway,,,,,,,,2.4,,,0.9383916666666666
57,0.0,,111.086,,0.0,31.0727,111.091,31.0727,-68.909,2246.63,monload-611_runway,,,,,,,,2.4,,,0.9360958333333333
58,0.0,,112.329,,0.0,31.2533,112.325,31.2533,-67.6747,2303.29,monload-611_runway,,,,,,,,2.4,,,0.9597041666666667
59,0.0,,113.429,,0.0,24.7817,113.423,24.7817,-66.5774,2350.86,monload-611_runway,,,,,,,,2.4,,,0.9795250000000001
60,0.0,,111.449,,0.0,25.7075,111.449,25.7075,-68.5515,2263.18,monload-611_runway,,,,,,,,2.4,,,0.9429916666666666
61,0.0,,112.737,,0.0,27.1001,112.731,27.1001,-67.2689,2320.04,monload-611_runway,,,,,,,,2.4,,,0.9666833333333333
62,0.0,,112.494,,0.0,27.5835,112.496,27.5835,-67.5041,2310.05,monload-611_runway,,,,,,,,2.4,,,0.9625208333333334
63,0.0,,111.953,,0.0,27.9419,111.957,27.9419,-68.043,2286.21,monload-611_runway,,,,,,,,2.4,,,0.9525875
64,0.0,,113.287,,0.0,28.0794,113.283,28.0794,-66.7169,2344.06,monload-611_runway,,,,,,,,2.4,,,0.9766916666666666
65,0.0,,113.853,,0.0,28.5183,113.857,28.5183,-66.1435,2367.97,monload-611_runway,,,,,,,,2.4,,,0.9866541666666666
66,0.0,,112.895,,0.0,32.6003,112.897,32.6003,-67.1029,2326.47,monload-611_runway,,,,,,,,2.4,,,0.9693624999999999
67,0.0,,114.082,,0.0,38.728,114.085,38.728,-65.9148,2359.42,monload-611_runway,,,,,,,,2.4,,,0.9830916666666667
68,0.0,,114.082,,0.0,40.8709,114.082,40.8709,-65.9176,2359.48,monload-611_runway,,,,,,,,2.4,,,0.9831166666666666
69,0.0,,114.773,,0.0,44.806,114.768,44.806,-65.2316,2386.83,monload-611_runway,,,,,,,,2.4,,,0.9945125
70,0.0,,115.092,,0.0,41.9513,115.09,41.9513,-64.9098,2399.63,monload-611_runway,,,,,,,,2.4,,,0.9998458333333334
71,0.0,,115.96,,0.0,30.874,115.955,30.874,-64.0448,2433.72,monload-611_runway,,,,,,,,2.4,,,1.01405
72,0.0,,114.798,,0.0,21.1947,114.798,21.1947,-65.2017,2384.84,monload-611_runway,,,,,,,,2.4,,,0.9936833333333334
73,0.0,,114.983,,0.0,18.5785,114.982,18.5785,-65.0183,2392.34,monload-611_runway,,,,,,,,2.4,,,0.9968083333333334
74,0.0,,115.009,,0.0,17.7129,115.007,17.7129,-64.9929,2393.4,monload-611_runway,,,,,,,,2.4,,,0.9972500000000001
75,0.0,,115.037,,0.0,16.7422,115.035,16.7422,-64.9648,2394.53,monload-611_runway,,,,,,,,2.4,,,0.9977208333333334
76,0.0,,115.034,,0.0,16.8093,115.034,16.8093,-64.9659,2394.39,monload-611_runway,,,,,,,,2.4,,,0.9976624999999999
77,0.0,,114.337,,0.0,17.5128,114.337,17.5128,-65.6628,2366.67,monload-611_runway,,,,,,,,2.4,,,0.9861125000000001
78,0.0,,114.166,,0.0,20.9229,114.167,20.9229,-65.8329,2359.64,monload-611_runway,,,,,,,,2.4,,,0.9831833333333333
79,0.0,,112.392,,0.0,32.7171,112.396,32.7171,-67.604,2287.73,monload-611_runway,,,,,,,,2.4,,,0.9532208333333333
80,0.0,,111.718,,0.0,34.6663,111.717,34.6663,-68.283,2259.97,monload-611_runway,,,,,,,,2.4,,,0.9416541666666666
81,0.0,,113.281,,0.0,30.82,113.279,30.82,-66.7208,2328.94,monload-611_runway,,,,,,,,2.4,,,0.9703916666666667
82,0.0,,113.756,,0.0,30.1071,113.755,30.1071,-66.2451,2350.41,monload-611_runway,,,,,,,,2.4,,,0.9793375
83,0.0,,115.584,,0.0,23.08,115.586,23.08,-64.4139,2426.15,monload-611_runway,,,,,,,,2.4,,,1.0108958333333333
84,0.0,,116.464,,0.0,23.6213,116.467,23.6213,-63.5332,2446.83,monload-611_runway,,,,,,,,2.4,,,1.0195125
85,0.0,,116.967,,0.0,24.733,116.963,24.733,-63.0367,2466.54,monload-611_runway,,,,,,,,2.4,,,1.027725
86,0.0,,116.533,,0.0,26.0612,116.536,26.0612,-63.4636,2450.01,monload-611_runway,,,,,,,,2.4,,,1.0208375
87,0.0,,115.591,,0.0,26.4039,115.592,26.4039,-64.4077,2412.41,monload-611_runway,,,,,,,,2.4,,,1.0051708333333333
88,0.0,,114.044,,0.0,26.3335,114.046,26.3335,-65.9538,2348.92,monload-611_runway,,,,,,,,2.4,,,0.9787166666666667
89,0.0,,113.351,,0.0,27.5633,113.353,27.5633,-66.6472,2319.26,monload-611_runway,,,,,,,,2.4,,,0.9663583333333334
90,0.0,,112.717,,0.0,33.8235,112.715,33.8235,-67.2852,2291.61,monload-611_runway,,,,,,,,2.4,,,0.9548375
91,0.0,,113.532,,0.0,41.4629,113.531,41.4629,-66.469,2322.91,monload-611_runway,,,,,,,,2.4,,,0.9678791666666666
92,0.0,,113.537,,0.0,44.545,113.536,44.545,-66.4642,2323.15,monload-611_runway,,,,,,,,2.4,,,0.9679791666666667
93,0.0,,114.263,,0.0,49.2734,114.258,49.2734,-65.7421,2351.98,monload-611_runway,,,,,,,,2.4,,,0.9799916666666667
94,0.0,,114.614,,0.0,46.4184,114.611,46.4184,-65.3886,2366.06,monload-611_runway,,,,,,,,2.4,,,0.9858583333333333
95,0.0,,115.515,,0.0,34.3923,115.51,34.3923,-64.4903,2401.54,monload-611_runway,,,,,,,,2.4,,,1.0006416666666667
96,0.0,,115.85,,0.0,24.0131,115.848,24.0131,-64.1518,2414.79,monload-611_runway,,,,,,,,2.4,,,1.0061625
97,0.0,,114.51,,0.0,21.7964,114.511,21.7964,-65.4891,2358.89,monload-611_runway,,,,,,,,2.4,,,0.9828708333333332
98,0.0,,114.556,,0.0,20.8093,114.552,20.8093,-65.4483,2360.74,monload-611_runway,,,,,,,,2.4,,,0.9836416666666665
99,0.0,,114.597,,0.0,19.5335,114.593,19.5335,-65.4065,2362.38,monload-611_runway,,,,,,,,2.4,,,0.984325
100,0.0,,114.65,,0.0,19.3539,114.645,19.3539,-65.3547,2364.48,monload-611_runway,,,,,,,,2.4,,,0.9852
101,0.0,,114.015,,0.0,19.795,114.016,19.795,-65.9838,2339.24,monload-611_runway,,,,,,,,2.4,,,0.9746833333333332
102,0.0,,113.754,,0.0,23.6849,113.754,23.6849,-66.2463,2328.63,monload-611_runway,,,,,,,,2.4,,,0.9702625
103,0.0,,111.952,,0.0,38.2376,111.952,38.2376,-68.0478,2269.6,monload-611_runway,,,,,,,,2.4,,,0.9456666666666667
104,0.0,,111.28,,0.0,41.9466,111.282,41.9466,-68.718,2241.72,monload-611_runway,,,,,,,,2.4,,,0.9340499999999999
105,0.0,,112.802,,0.0,39.7651,112.8,39.7651,-67.1996,2309.9,monload-611_runway,,,,,,,,2.4,,,0.9624583333333334
106,0.0,,113.052,,0.0,42.459,113.058,42.459,-66.9425,2322.25,monload-611_runway,,,,,,,,2.4,,,0.9676041666666667
107,0.0,,114.735,,0.0,36.7749,114.738,36.7749,-65.2621,2392.82,monload-611_runway,,,,,,,,2.4,,,0.9970083333333334
108,0.0,,115.884,,0.0,34.924,115.887,34.924,-64.1128,2424.61,monload-611_runway,,,,,,,,2.4,,,1.0102541666666667
109,0.0,,116.509,,0.0,35.3309,116.504,35.3309,-63.4962,2449.07,monload-611_runway,,,,,,,,2.4,,,1.0204458333333335
110,0.0,,116.03,,0.0,36.1511,116.034,36.1511,-63.9657,2430.35,monload-611_runway,,,,,,,,2.4,,,1.0126458333333332
111,0.0,,115.094,,0.0,36.557,115.095,36.557,-64.905,2392.48,monload-611_runway,,,,,,,,2.4,,,0.9968666666666667
112,0.0,,113.611,,0.0,35.8436,113.613,35.8436,-66.3867,2331.04,monload-611_runway,,,,,,,,2.4,,,0.9712666666666666
113,0.0,,113.031,,0.0,37.3236,113.033,37.3236,-66.9668,2305.54,monload-611_runway,,,,,,,,2.4,,,0.9606416666666666
114,0.0,,112.682,,0.0,42.3539,112.681,42.3539,-67.319,2303.81,monload-611_runway,,,,,,,,2.4,,,0.9599208333333333
115,0.0,,113.674,,0.0,48.2942,113.672,48.2942,-66.3276,2342.68,monload-611_runway,,,,,,,,2.4,,,0.9761166666666666
116,0.0,,113.711,,0.0,50.8826,113.706,50.8826,-66.2943,2344.29,monload-611_runway,,,,,,,,2.4,,,0.9767875
117,0.0,,114.418,,0.0,55.1034,114.414,55.1034,-65.5861,2372.47,monload-611_runway,,,,,,,,2.4,,,0.9885291666666666
118,0.0,,114.775,,0.0,52.4571,114.776,52.4571,-65.2236,2386.86,monload-611_runway,,,,,,,,2.4,,,0.9945250000000001
119,0.0,,115.696,,0.0,40.733,115.692,40.733,-64.3076,2423.3,monload-611_runway,,,,,,,,2.4,,,1.0097083333333334
120,0.0,,116.074,,0.0,29.5798,116.076,29.5798,-63.9239,2438.34,monload-611_runway,,,,,,,,2.4,,,1.015975
121,0.0,,114.841,,0.0,25.8806,114.842,25.8806,-65.158,2386.72,monload-611_runway,,,,,,,,2.4,,,0.9944666666666666
122,0.0,,114.886,,0.0,24.5759,114.882,24.5759,-65.1176,2388.53,monload-611_runway,,,,,,,,2.4,,,0.9952208333333334
123,0.0,,114.931,,0.0,22.9971,114.928,22.9971,-65.0721,2390.35,monload-611_runway,,,,,,,,2.4,,,0.9959791666666666
124,0.0,,114.949,,0.0,22.3842,114.948,22.3842,-65.0523,2391.09,monload-611_runway,,,,,,,,2.4,,,0.9962875000000001
125,0.0,,114.244,,0.0,22.8134,114.244,22.8134,-65.7558,2363.04,monload-611_runway,,,,,,,,2.4,,,0.9846
126,0.0,,114.033,,0.0,26.7316,114.035,26.7316,-65.9653,2354.35,monload-611_runway,,,,,,,,2.4,,,0.9809791666666666
127,0.0,,112.162,,0.0,41.2682,112.16,41.2682,-67.8401,2278.14,monload-611_runway,,,,,,,,2.4,,,0.949225
128,0.0,,111.451,,0.0,44.8874,111.456,44.8874,-68.5437,2248.7,monload-611_runway,,,,,,,,2.4,,,0.9369583333333332
129,0.0,,112.38,,0.0,44.0571,112.377,44.0571,-67.6234,2291.02,monload-611_runway,,,,,,,,2.4,,,0.9545916666666666
130,0.0,,112.508,,0.0,44.3574,112.506,44.3574,-67.494,2298.02,monload-611_runway,,,,,,,,2.4,,,0.9575083333333333
131,0.0,,114.546,,0.0,38.3172,114.549,38.3172,-65.4506,2384.08,monload-611_runway,,,,,,,,2.4,,,0.9933666666666666
132,0.0,,113.84,,0.0,39.0492,113.842,39.0492,-66.1585,2354.72,monload-611_runway,,,,,,,,2.4,,,0.9811333333333333
133,0.0,,114.646,,0.0,39.7514,114.645,39.7514,-65.3554,2387.88,monload-611_runway,,,,,,,,2.4,,,0.99495
134,0.0,,114.586,,0.0,40.3209,114.587,40.3209,-65.4129,2385.92,monload-611_runway,,,,,,,,2.4,,,0.9941333333333333
135,0.0,,114.632,,0.0,40.0177,114.626,40.0177,-65.3744,2387.84,monload-611_runway,,,,,,,,2.4,,,0.9949333333333334
136,0.0,,113.264,,0.0,38.751,113.269,38.751,-66.7315,2330.4,monload-611_runway,,,,,,,,2.4,,,0.9710000000000001
137,0.0,,112.868,,0.0,37.858,112.869,37.858,-67.1309,2312.74,monload-611_runway,,,,,,,,2.4,,,0.9636416666666666
138,0.0,,112.559,,0.0,42.9001,112.558,42.9001,-67.4421,2298.49,monload-611_runway,,,,,,,,2.4,,,0.9577041666666666
139,0.0,,113.464,,0.0,49.9773,113.463,49.9773,-66.5371,2333.87,monload-611_runway,,,,,,,,2.4,,,0.9724458333333333
140,0.0,,113.492,,0.0,52.678,113.488,52.678,-66.5121,2335.1,monload-611_runway,,,,,,,,2.4,,,0.9729583333333333
141,0.0,,114.185,,0.0,57.1881,114.18,57.1881,-65.8199,2362.75,monload-611_runway,,,,,,,,2.4,,,0.9844791666666667
142,0.0,,114.765,,0.0,51.6617,114.762,51.6617,-65.2381,2386.44,monload-611_runway,,,,,,,,2.4,,,0.9943500000000001
143,0.0,,115.85,,0.0,37.0848,115.844,37.0848,-64.1557,2429.5,monload-611_runway,,,,,,,,2.4,,,1.0122916666666666
144,0.0,,116.208,,0.0,25.3175,116.208,25.3175,-63.7917,2428.41,monload-611_runway,,,,,,,,2.4,,,1.0118375
145,0.0,,114.873,,0.0,23.1146,114.874,23.1146,-65.1261,2373.2,monload-611_runway,,,,,,,,2.4,,,0.9888333333333332
146,0.0,,114.862,,0.0,22.7156,114.863,22.7156,-65.1371,2372.81,monload-611_runway,,,,,,,,2.4,,,0.9886708333333333
147,0.0,,114.926,,0.0,19.4987,114.921,19.4987,-65.0786,2375.34,monload-611_runway,,,,,,,,2.4,,,0.9897250000000001
148,0.0,,114.94,,0.0,19.1538,114.939,19.1538,-65.0612,2375.88,monload-611_runway,,,,,,,,2.4,,,0.98995
149,0.0,,114.752,,0.0,19.44,114.753,19.44,-65.247,2368.39,monload-611_runway,,,,,,,,2.4,,,0.9868291666666666
150,0.0,,114.64,,0.0,20.7921,114.641,20.7921,-65.3589,2363.78,monload-611_runway,,,,,,,,2.4,,,0.9849083333333334
151,0.0,,113.869,,0.0,30.6613,113.87,30.6613,-66.1303,2333.03,monload-611_runway,,,,,,,,2.4,,,0.9720958333333334
152,0.0,,113.237,,0.0,32.5578,113.238,32.5578,-66.7623,2307.76,monload-611_runway,,,,,,,,2.4,,,0.9615666666666668
153,0.0,,112.894,,0.0,45.5458,112.893,45.5458,-67.1073,2294.08,monload-611_runway,,,,,,,,2.4,,,0.9558666666666666
154,0.0,,112.491,,0.0,40.6198,112.49,40.6198,-67.5099,2292.13,monload-611_runway,,,,,,,,2.4,,,0.9550541666666668
155,0.0,,116.434,,0.0,31.8176,116.437,31.8176,-63.5634,2442.5,monload-611_runway,,,,,,,,2.4,,,1.0177083333333334
156,0.0,,117.146,,0.0,31.3428,117.146,31.3428,-62.8543,2470.86,monload-611_runway,,,,,,,,2.4,,,1.029525
157,0.0,,116.644,,0.0,32.0281,116.646,32.0281,-63.354,2450.46,monload-611_runway,,,,,,,,2.4,,,1.021025
158,0.0,,116.481,,0.0,31.7662,116.483,31.7662,-63.5175,2443.94,monload-611_runway,,,,,,,,2.4,,,1.0183083333333334
159,0.0,,115.652,,0.0,32.0361,115.652,32.0361,-64.3477,2410.41,monload-611_runway,,,,,,,,2.4,,,1.0043374999999999
160,0.0,,115.401,,0.0,33.0122,115.403,33.0122,-64.5971,2398.77,monload-611_runway,,,,,,,,2.4,,,0.9994875
161,0.0,,114.236,,0.0,33.2851,114.237,33.2851,-65.7634,2350.13,monload-611_runway,,,,,,,,2.4,,,0.9792208333333334
162,0.0,,114.75,,0.0,36.5459,114.745,36.5459,-65.2549,2371.37,monload-611_runway,,,,,,,,2.4,,,0.9880708333333333
163,0.0,,114.514,,0.0,47.5561,114.515,47.5561,-65.4849,2361.6,monload-611_runway,,,,,,,,2.4,,,0.984
164,0.0,,114.54,,0.0,49.2997,114.539,49.2997,-65.4608,2362.65,monload-611_runway,,,,,,,,2.4,,,0.9844375000000001
165,0.0,,115.116,,0.0,51.8892,115.113,51.8892,-64.8867,2385.18,monload-611_runway,,,,,,,,2.4,,,0.993825
166,0.0,,115.25,,0.0,51.0972,115.249,51.0972,-64.7505,2390.7,monload-611_runway,,,,,,,,2.4,,,0.9961249999999999
167,0.0,,115.766,,0.0,40.8171,115.764,40.8171,-64.2357,2411.1,monload-611_runway,,,,,,,,2.4,,,1.0046249999999999
168,0.0,,116.17,,0.0,27.8677,116.169,27.8677,-63.831,2427.01,monload-611_runway,,,,,,,,2.4,,,1.0112541666666668
169,0.0,,114.98,,0.0,23.6005,114.981,23.6005,-65.0189,2377.38,monload-611_runway,,,,,,,,2.4,,,0.9905750000000001
170,0.0,,115.007,,0.0,23.0303,115.005,23.0303,-64.9952,2378.45,monload-611_runway,,,,,,,,2.4,,,0.9910208333333332
171,0.0,,115.09,,0.0,19.8099,115.084,19.8099,-64.9157,2381.74,monload-611_runway,,,,,,,,2.4,,,0.9923916666666666
172,0.0,,115.096,,0.0,19.6465,115.096,19.6465,-64.9041,2381.98,monload-611_runway,,,,,,,,2.4,,,0.9924916666666667
173,0.0,,114.886,,0.0,20.1694,114.887,20.1694,-65.1127,2373.64,monload-611_runway,,,,,,,,2.4,,,0.9890166666666667
174,0.0,,114.758,,0.0,21.5583,114.759,21.5583,-65.2408,2368.4,monload-611_runway,,,,,,,,2.4,,,0.9868333333333333
175,0.0,,113.976,,0.0,31.2002,113.976,31.2002,-66.0241,2337.2,monload-611_runway,,,,,,,,2.4,,,0.9738333333333332
176,0.0,,114.005,,0.0,33.3904,114.002,33.3904,-65.9985,2338.37,monload-611_runway,,,,,,,,2.4,,,0.9743208333333333
177,0.0,,113.131,,0.0,49.5935,113.13,49.5935,-66.8702,2303.28,monload-611_runway,,,,,,,,2.4,,,0.9597000000000001
178,0.0,,115.046,,0.0,48.4258,115.042,48.4258,-64.9577,2384.34,monload-611_runway,,,,,,,,2.4,,,0.9934750000000001
179,0.0,,115.677,,0.0,39.6712,115.678,39.6712,-64.3221,2409.15,monload-611_runway,,,,,,,,2.4,,,1.0038125
