hour,t(sec),P1(kW),Q1(kvar),P2(kW),Q2(kvar),P3(kW),Name,Q3(kvar),P4(kW),Q4(kvar)
1,0.0,0.782501,2.44024e-07,,0.0,,mongenerator-battery_634_existing,,,
2,0.0,0.7816069999999999,-1.48394e-05,,0.0,,mongenerator-battery_634_existing,,,
3,0.0,0.7812399999999999,-6.9362e-06,,0.0,,mongenerator-battery_634_existing,,,
4,0.0,0.781101,-2.48814e-06,,0.0,,mongenerator-battery_634_existing,,,
5,0.0,0.7791560000000001,-1.15279e-06,,0.0,,mongenerator-battery_634_existing,,,
6,0.0,0.7788189999999999,-2.19645e-07,,0.0,,mongenerator-battery_634_existing,,,
7,0.0,0.770738,-1.75529e-07,,0.0,,mongenerator-battery_634_existing,,,
8,0.0,0.771277,1.7162e-05,,0.0,,mongenerator-battery_634_existing,,,
9,0.0,0.76894,-1.7841900000000001e-06,,0.0,,mongenerator-battery_634_existing,,,
10,0.0,0.779048,1.80985e-07,,0.0,,mongenerator-battery_634_existing,,,
11,0.0,0.775327,-4.621e-06,,0.0,,mongenerator-battery_634_existing,,,
12,0.0,0.7979569999999999,1.38296e-05,,0.0,,mongenerator-battery_634_existing,,,
13,0.0,0.76267,-2.44503e-06,,0.0,,mongenerator-battery_634_existing,,,
14,0.0,0.775089,1.39109e-05,,0.0,,mongenerator-battery_634_existing,,,
15,0.0,0.7867529999999999,9.8726e-06,,0.0,,mongenerator-battery_634_existing,,,
16,0.0,0.789732,2.3328999999999997e-06,,0.0,,mongenerator-battery_634_existing,,,
17,0.0,0.7721720000000001,-7.88608e-07,,0.0,,mongenerator-battery_634_existing,,,
18,0.0,0.760459,-6.498950000000001e-07,,0.0,,mongenerator-battery_634_existing,,,
19,0.0,0.7585430000000001,-2.73554e-06,,0.0,,mongenerator-battery_634_existing,,,
20,0.0,0.761261,3.81724e-06,,0.0,,mongenerator-battery_634_existing,,,
21,0.0,0.7642909999999999,3.6184e-06,,0.0,,mongenerator-battery_634_existing,,,
22,0.0,0.769275,5.03499e-06,,0.0,,mongenerator-battery_634_existing,,,
23,0.0,0.781563,6.70596e-06,,0.0,,mongenerator-battery_634_existing,,,
24,0.0,0.776963,-3.7807e-06,,0.0,,mongenerator-battery_634_existing,,,
25,0.0,0.781612,2.6401099999999998e-06,,0.0,,mongenerator-battery_634_existing,,,
26,0.0,0.783424,3.26934e-05,,0.0,,mongenerator-battery_634_existing,,,
27,0.0,0.784025,1.0123e-05,,0.0,,mongenerator-battery_634_existing,,,
28,0.0,0.7843640000000001,5.8467499999999995e-06,,0.0,,mongenerator-battery_634_existing,,,
29,0.0,0.781837,9.65734e-08,,0.0,,mongenerator-battery_634_existing,,,
30,0.0,0.781246,-1.8072399999999997e-07,,0.0,,mongenerator-battery_634_existing,,,
31,0.0,0.768938,1.00689e-09,,0.0,,mongenerator-battery_634_existing,,,
32,0.0,0.768628,-5.53636e-07,,0.0,,mongenerator-battery_634_existing,,,
33,0.0,0.760621,-1.13048e-05,,0.0,,mongenerator-battery_634_existing,,,
34,0.0,0.7645649999999999,-2.87284e-07,,0.0,,mongenerator-battery_634_existing,,,
35,0.0,0.774043,3.34781e-09,,0.0,,mongenerator-battery_634_existing,,,
36,0.0,0.740112,-6.6581799999999995e-06,,0.0,,mongenerator-battery_634_existing,,,
37,0.0,0.803291,-3.5172100000000002e-06,,0.0,,mongenerator-battery_634_existing,,,
38,0.0,0.763881,2.76462e-07,,0.0,,mongenerator-battery_634_existing,,,
39,0.0,0.821211,1.6364e-07,,0.0,,mongenerator-battery_634_existing,,,
40,0.0,0.797402,3.5967300000000003e-09,,0.0,,mongenerator-battery_634_existing,,,
41,0.0,0.771088,4.94198e-08,,0.0,,mongenerator-battery_634_existing,,,
42,0.0,0.744089,8.00012e-07,,0.0,,mongenerator-battery_634_existing,,,
43,0.0,0.745762,4.74171e-06,,0.0,,mongenerator-battery_634_existing,,,
44,0.0,0.7485310000000001,8.06367e-06,,0.0,,mongenerator-battery_634_existing,,,
45,0.0,0.756423,6.95959e-07,,0.0,,mongenerator-battery_634_existing,,,
46,0.0,0.770675,2.62667e-05,,0.0,,mongenerator-battery_634_existing,,,
47,0.0,0.783027,-4.83656e-07,,0.0,,mongenerator-battery_634_existing,,,
48,0.0,0.778036,-8.885130000000001e-06,,0.0,,mongenerator-battery_634_existing,,,
49,0.0,0.783366,7.9082e-06,,0.0,,mongenerator-battery_634_existing,,,
50,0.0,0.784673,5.44537e-05,,0.0,,mongenerator-battery_634_existing,,,
51,0.0,0.784788,3.978949999999999e-06,,0.0,,mongenerator-battery_634_existing,,,
52,0.0,0.784855,2.86577e-06,,0.0,,mongenerator-battery_634_existing,,,
53,0.0,0.779561,3.91942e-07,,0.0,,mongenerator-battery_634_existing,,,
54,0.0,0.77894,-5.63501e-07,,0.0,,mongenerator-battery_634_existing,,,
55,0.0,0.766486,-2.83852e-08,,0.0,,mongenerator-battery_634_existing,,,
56,0.0,0.767687,1.37367e-06,,0.0,,mongenerator-battery_634_existing,,,
57,0.0,0.776754,-1.7335e-07,,0.0,,mongenerator-battery_634_existing,,,
58,0.0,0.79999,-3.7279699999999997e-06,,0.0,,mongenerator-battery_634_existing,,,
59,0.0,0.8190390000000001,2.3319700000000002e-07,,0.0,,mongenerator-battery_634_existing,,,
60,0.0,0.26248299999999997,1.0576399999999999e-07,,0.0,,mongenerator-battery_634_existing,,,
61,0.0,0.263063,5.89675e-07,,0.0,,mongenerator-battery_634_existing,,,
62,0.0,0.26306999999999997,7.205939999999999e-09,,0.0,,mongenerator-battery_634_existing,,,
63,0.0,0.26288,-1.26621e-07,,0.0,,mongenerator-battery_634_existing,,,
64,0.0,0.26276900000000003,-5.04915e-08,,0.0,,mongenerator-battery_634_existing,,,
65,0.0,0.262376,1.2221399999999999e-07,,0.0,,mongenerator-battery_634_existing,,,
66,0.0,0.261955,4.78835e-07,,0.0,,mongenerator-battery_634_existing,,,
67,0.0,0.261959,-4.55433e-09,,0.0,,mongenerator-battery_634_existing,,,
68,0.0,0.262061,-9.165739999999999e-08,,0.0,,mongenerator-battery_634_existing,,,
69,0.0,0.262212,-8.80433e-08,,0.0,,mongenerator-battery_634_existing,,,
70,0.0,0.262574,6.92135e-08,,0.0,,mongenerator-battery_634_existing,,,
71,0.0,0.262863,2.32578e-07,,0.0,,mongenerator-battery_634_existing,,,
72,0.0,0.262696,-7.511319999999999e-08,,0.0,,mongenerator-battery_634_existing,,,
73,0.0,0.262835,1.03381e-07,,0.0,,mongenerator-battery_634_existing,,,
74,0.0,0.262871,2.98587e-08,,0.0,,mongenerator-battery_634_existing,,,
75,0.0,0.262865,-4.96383e-09,,0.0,,mongenerator-battery_634_existing,,,
76,0.0,0.262858,-5.1306099999999995e-09,,0.0,,mongenerator-battery_634_existing,,,
77,0.0,0.262819,-2.81251e-08,,0.0,,mongenerator-battery_634_existing,,,
78,0.0,0.262814,-3.5605e-09,,0.0,,mongenerator-battery_634_existing,,,
79,0.0,0.262545,-3.45095e-08,,0.0,,mongenerator-battery_634_existing,,,
80,0.0,0.262574,5.45216e-09,,0.0,,mongenerator-battery_634_existing,,,
81,0.0,0.262886,2.24072e-07,,0.0,,mongenerator-battery_634_existing,,,
82,0.0,0.263623,1.5497399999999998e-06,,0.0,,mongenerator-battery_634_existing,,,
83,0.0,0.264376,2.68394e-06,,0.0,,mongenerator-battery_634_existing,,,
84,0.0,0.264656,1.1415500000000001e-06,,0.0,,mongenerator-battery_634_existing,,,
85,0.0,0.26487,9.645640000000001e-07,,0.0,,mongenerator-battery_634_existing,,,
86,0.0,0.264772,-4.21297e-07,,0.0,,mongenerator-battery_634_existing,,,
87,0.0,0.264414,-1.29388e-06,,0.0,,mongenerator-battery_634_existing,,,
88,0.0,0.263805,-1.48412e-06,,0.0,,mongenerator-battery_634_existing,,,
89,0.0,0.262881,-5.917519999999999e-07,,0.0,,mongenerator-battery_634_existing,,,
90,0.0,0.26195799999999997,1.07717e-06,,0.0,,mongenerator-battery_634_existing,,,
91,0.0,0.261783,2.61796e-07,,0.0,,mongenerator-battery_634_existing,,,
92,0.0,0.261828,-6.32771e-08,,0.0,,mongenerator-battery_634_existing,,,
93,0.0,0.261968,-1.54203e-07,,0.0,,mongenerator-battery_634_existing,,,
94,0.0,0.262368,-9.97081e-08,,0.0,,mongenerator-battery_634_existing,,,
95,0.0,0.262681,1.30976e-07,,0.0,,mongenerator-battery_634_existing,,,
96,0.0,0.26253000000000004,-1.46954e-08,,0.0,,mongenerator-battery_634_existing,,,
97,0.0,0.26262800000000003,2.9845200000000004e-08,,0.0,,mongenerator-battery_634_existing,,,
98,0.0,0.262676,1.95126e-08,,0.0,,mongenerator-battery_634_existing,,,
99,0.0,0.262675,-1.89878e-10,,0.0,,mongenerator-battery_634_existing,,,
100,0.0,0.262675,-9.27645e-11,,0.0,,mongenerator-battery_634_existing,,,
101,0.0,0.262635,-1.2878399999999998e-08,,0.0,,mongenerator-battery_634_existing,,,
102,0.0,0.262635,-8.76973e-11,,0.0,,mongenerator-battery_634_existing,,,
103,0.0,0.262359,7.403919999999999e-08,,0.0,,mongenerator-battery_634_existing,,,
104,0.0,0.262342,5.039170000000001e-09,,0.0,,mongenerator-battery_634_existing,,,
105,0.0,0.26271500000000003,1.25959e-07,,0.0,,mongenerator-battery_634_existing,,,
106,0.0,0.26345799999999997,1.28713e-06,,0.0,,mongenerator-battery_634_existing,,,
107,0.0,0.264202,2.36229e-06,,0.0,,mongenerator-battery_634_existing,,,
108,0.0,0.26457800000000004,1.4608600000000002e-06,,0.0,,mongenerator-battery_634_existing,,,
109,0.0,0.264772,8.284000000000001e-07,,0.0,,mongenerator-battery_634_existing,,,
110,0.0,0.26463400000000004,-5.50594e-07,,0.0,,mongenerator-battery_634_existing,,,
111,0.0,0.264275,-1.18545e-06,,0.0,,mongenerator-battery_634_existing,,,
112,0.0,0.263662,-1.3041599999999999e-06,,0.0,,mongenerator-battery_634_existing,,,
113,0.0,0.262719,-1.0623599999999999e-13,,0.0,,mongenerator-battery_634_existing,,,
114,0.0,0.2618,1.65788e-06,,0.0,,mongenerator-battery_634_existing,,,
115,0.0,0.261662,2.85816e-07,,0.0,,mongenerator-battery_634_existing,,,
116,0.0,0.261712,-9.719480000000001e-08,,0.0,,mongenerator-battery_634_existing,,,
117,0.0,0.261855,-2.35699e-07,,0.0,,mongenerator-battery_634_existing,,,
118,0.0,0.262302,-3.09811e-07,,0.0,,mongenerator-battery_634_existing,,,
119,0.0,0.26264699999999996,1.54333e-08,,0.0,,mongenerator-battery_634_existing,,,
120,0.0,0.262509,3.4669699999999996e-08,,0.0,,mongenerator-battery_634_existing,,,
121,0.0,0.262602,-4.87656e-09,,0.0,,mongenerator-battery_634_existing,,,
122,0.0,0.262648,2.2159999999999998e-09,,0.0,,mongenerator-battery_634_existing,,,
123,0.0,0.262654,3.10417e-10,,0.0,,mongenerator-battery_634_existing,,,
124,0.0,0.262656,1.60982e-10,,0.0,,mongenerator-battery_634_existing,,,
125,0.0,0.262519,3.11614e-08,,0.0,,mongenerator-battery_634_existing,,,
126,0.0,0.262519,8.69329e-11,,0.0,,mongenerator-battery_634_existing,,,
127,0.0,0.262227,2.49108e-07,,0.0,,mongenerator-battery_634_existing,,,
128,0.0,0.26225,-1.85762e-08,,0.0,,mongenerator-battery_634_existing,,,
129,0.0,0.26250300000000004,-9.70127e-08,,0.0,,mongenerator-battery_634_existing,,,
130,0.0,0.26311599999999996,4.64553e-07,,0.0,,mongenerator-battery_634_existing,,,
131,0.0,0.263989,2.14003e-06,,0.0,,mongenerator-battery_634_existing,,,
132,0.0,0.263637,-6.14975e-07,,0.0,,mongenerator-battery_634_existing,,,
133,0.0,0.26391,6.215319999999999e-07,,0.0,,mongenerator-battery_634_existing,,,
134,0.0,0.263972,1.49301e-07,,0.0,,mongenerator-battery_634_existing,,,
135,0.0,0.26403000000000004,1.45511e-07,,0.0,,mongenerator-battery_634_existing,,,
136,0.0,0.26345599999999997,-8.104600000000001e-07,,0.0,,mongenerator-battery_634_existing,,,
137,0.0,0.26260500000000003,2.02988e-07,,0.0,,mongenerator-battery_634_existing,,,
138,0.0,0.261754,1.61803e-06,,0.0,,mongenerator-battery_634_existing,,,
139,0.0,0.26163600000000004,2.496e-07,,0.0,,mongenerator-battery_634_existing,,,
140,0.0,0.261732,-1.8251400000000002e-07,,0.0,,mongenerator-battery_634_existing,,,
141,0.0,0.261867,-2.19073e-07,,0.0,,mongenerator-battery_634_existing,,,
142,0.0,0.262358,-2.81576e-07,,0.0,,mongenerator-battery_634_existing,,,
143,0.0,0.262687,4.307119999999999e-08,,0.0,,mongenerator-battery_634_existing,,,
144,0.0,0.262547,2.3895e-08,,0.0,,mongenerator-battery_634_existing,,,
145,0.0,0.262666,1.0198499999999999e-08,,0.0,,mongenerator-battery_634_existing,,,
146,0.0,0.262712,8.47082e-09,,0.0,,mongenerator-battery_634_existing,,,
147,0.0,0.26271300000000003,1.75224e-10,,0.0,,mongenerator-battery_634_existing,,,
148,0.0,0.262714,1.05246e-10,,0.0,,mongenerator-battery_634_existing,,,
149,0.0,0.262677,-3.98573e-09,,0.0,,mongenerator-battery_634_existing,,,
150,0.0,0.26268,3.04379e-10,,0.0,,mongenerator-battery_634_existing,,,
151,0.0,0.262492,5.344930000000001e-08,,0.0,,mongenerator-battery_634_existing,,,
152,0.0,0.262491,2.7973e-10,,0.0,,mongenerator-battery_634_existing,,,
153,0.0,0.262801,7.705239999999999e-08,,0.0,,mongenerator-battery_634_existing,,,
154,0.0,0.262606,3.18593e-08,,0.0,,mongenerator-battery_634_existing,,,
155,0.0,0.26410100000000003,4.04084e-06,,0.0,,mongenerator-battery_634_existing,,,
156,0.0,0.264315,6.642130000000001e-07,,0.0,,mongenerator-battery_634_existing,,,
157,0.0,0.264085,-6.115399999999999e-07,,0.0,,mongenerator-battery_634_existing,,,
158,0.0,0.26398299999999997,-2.5176200000000003e-07,,0.0,,mongenerator-battery_634_existing,,,
159,0.0,0.26364499999999996,-6.11025e-07,,0.0,,mongenerator-battery_634_existing,,,
160,0.0,0.262706,1.19771e-08,,0.0,,mongenerator-battery_634_existing,,,
161,0.0,0.262237,4.36804e-07,,0.0,,mongenerator-battery_634_existing,,,
162,0.0,0.261745,9.322410000000001e-07,,0.0,,mongenerator-battery_634_existing,,,
163,0.0,0.261841,-1.6128499999999998e-07,,0.0,,mongenerator-battery_634_existing,,,
164,0.0,0.26207800000000003,-2.77726e-07,,0.0,,mongenerator-battery_634_existing,,,
165,0.0,0.26214899999999997,-7.24912e-08,,0.0,,mongenerator-battery_634_existing,,,
166,0.0,0.262459,-1.10411e-07,,0.0,,mongenerator-battery_634_existing,,,
167,0.0,0.262692,3.26101e-08,,0.0,,mongenerator-battery_634_existing,,,
168,0.0,0.262546,2.49398e-08,,0.0,,mongenerator-battery_634_existing,,,
169,0.0,0.262652,5.84974e-09,,0.0,,mongenerator-battery_634_existing,,,
170,0.0,0.262702,7.99857e-09,,0.0,,mongenerator-battery_634_existing,,,
171,0.0,0.262702,1.10497e-10,,0.0,,mongenerator-battery_634_existing,,,
172,0.0,0.262701,-2.05907e-10,,0.0,,mongenerator-battery_634_existing,,,
173,0.0,0.26266100000000003,-2.98125e-09,,0.0,,mongenerator-battery_634_existing,,,
174,0.0,0.262664,1.84058e-10,,0.0,,mongenerator-battery_634_existing,,,
175,0.0,0.26248,5.7491e-08,,0.0,,mongenerator-battery_634_existing,,,
176,0.0,0.262479,1.30275e-10,,0.0,,mongenerator-battery_634_existing,,,
177,0.0,0.262967,2.92985e-07,,0.0,,mongenerator-battery_634_existing,,,
178,0.0,0.26393099999999997,2.39685e-06,,0.0,,mongenerator-battery_634_existing,,,
179,0.0,0.262536,3.75009e-07,,0.0,,mongenerator-battery_634_existing,,,
180,0.0,0.778151,-9.16949e-07,,0.0,,mongenerator-battery_634_existing,,,
181,0.0,0.804071,1.73597e-07,,0.0,,mongenerator-battery_634_existing,,,
182,0.0,0.812373,2.52763e-06,,0.0,,mongenerator-battery_634_existing,,,
183,0.0,0.801144,-4.9057e-06,,0.0,,mongenerator-battery_634_existing,,,
184,0.0,0.782512,-1.5222699999999999e-05,,0.0,,mongenerator-battery_634_existing,,,
185,0.0,0.7661560000000001,-6.43583e-07,,0.0,,mongenerator-battery_634_existing,,,
186,0.0,0.755704,-4.71607e-07,,0.0,,mongenerator-battery_634_existing,,,
187,0.0,0.754296,-2.4763999999999997e-06,,0.0,,mongenerator-battery_634_existing,,,
188,0.0,0.7580640000000001,5.61837e-06,,0.0,,mongenerator-battery_634_existing,,,
189,0.0,0.7619859999999999,4.94697e-06,,0.0,,mongenerator-battery_634_existing,,,
190,0.0,0.767547,5.55549e-06,,0.0,,mongenerator-battery_634_existing,,,
191,0.0,0.7805449999999999,6.061569999999999e-06,,0.0,,mongenerator-battery_634_existing,,,
192,0.0,0.776559,-2.50101e-06,,0.0,,mongenerator-battery_634_existing,,,
193,0.0,0.781663,2.31525e-06,,0.0,,mongenerator-battery_634_existing,,,
194,0.0,0.7843,2.64391e-05,,0.0,,mongenerator-battery_634_existing,,,
195,0.0,0.785273,9.97346e-06,,0.0,,mongenerator-battery_634_existing,,,
196,0.0,0.78576,5.3845199999999996e-06,,0.0,,mongenerator-battery_634_existing,,,
197,0.0,0.783255,-8.180370000000001e-07,,0.0,,mongenerator-battery_634_existing,,,
198,0.0,0.7827350000000001,-2.51984e-07,,0.0,,mongenerator-battery_634_existing,,,
199,0.0,0.76961,5.43971e-08,,0.0,,mongenerator-battery_634_existing,,,
200,0.0,0.768764,-1.3757399999999999e-06,,0.0,,mongenerator-battery_634_existing,,,
201,0.0,0.784103,-8.74599e-07,,0.0,,mongenerator-battery_634_existing,,,
202,0.0,0.8149529999999999,1.88674e-07,,0.0,,mongenerator-battery_634_existing,,,
203,0.0,0.779463,-2.9695e-07,,0.0,,mongenerator-battery_634_existing,,,
204,0.0,0.8166640000000001,7.13587e-06,,0.0,,mongenerator-battery_634_existing,,,
205,0.0,0.799028,-7.50706e-06,,0.0,,mongenerator-battery_634_existing,,,
206,0.0,0.760917,-5.90964e-07,,0.0,,mongenerator-battery_634_existing,,,
207,0.0,0.768896,1.04606e-05,,0.0,,mongenerator-battery_634_existing,,,
208,0.0,0.763758,-7.72408e-06,,0.0,,mongenerator-battery_634_existing,,,
209,0.0,0.748502,1.25735e-06,,0.0,,mongenerator-battery_634_existing,,,
210,0.0,0.740737,-2.7209e-05,,0.0,,mongenerator-battery_634_existing,,,
211,0.0,0.738029,-9.31934e-06,,0.0,,mongenerator-battery_634_existing,,,
212,0.0,0.740945,9.85556e-06,,0.0,,mongenerator-battery_634_existing,,,
213,0.0,0.748239,1.3779900000000001e-06,,0.0,,mongenerator-battery_634_existing,,,
214,0.0,0.7644770000000001,3.21377e-05,,0.0,,mongenerator-battery_634_existing,,,
215,0.0,0.777796,1.19879e-07,,0.0,,mongenerator-battery_634_existing,,,
216,0.0,0.7733899999999999,-7.265219999999999e-06,,0.0,,mongenerator-battery_634_existing,,,
217,0.0,0.777347,6.02777e-06,,0.0,,mongenerator-battery_634_existing,,,
218,0.0,0.779251,2.72185e-06,,0.0,,mongenerator-battery_634_existing,,,
219,0.0,0.7794939999999999,2.91527e-07,,0.0,,mongenerator-battery_634_existing,,,
220,0.0,0.779509,8.28345e-07,,0.0,,mongenerator-battery_634_existing,,,
221,0.0,0.773196,-9.67445e-08,,0.0,,mongenerator-battery_634_existing,,,
222,0.0,0.7726069999999999,-9.9942e-07,,0.0,,mongenerator-battery_634_existing,,,
223,0.0,0.759001,-1.2424700000000002e-06,,0.0,,mongenerator-battery_634_existing,,,
224,0.0,0.758336,-3.1376099999999997e-06,,0.0,,mongenerator-battery_634_existing,,,
225,0.0,0.758015,3.47476e-06,,0.0,,mongenerator-battery_634_existing,,,
226,0.0,0.769447,3.43444e-07,,0.0,,mongenerator-battery_634_existing,,,
227,0.0,0.7911229999999999,-6.408249999999999e-07,,0.0,,mongenerator-battery_634_existing,,,
228,0.0,0.829586,5.4365500000000005e-08,,0.0,,mongenerator-battery_634_existing,,,
229,0.0,0.789665,1.26974e-07,,0.0,,mongenerator-battery_634_existing,,,
230,0.0,0.806149,4.75355e-06,,0.0,,mongenerator-battery_634_existing,,,
231,0.0,0.808281,-2.44977e-06,,0.0,,mongenerator-battery_634_existing,,,
232,0.0,0.79483,-6.68419e-06,,0.0,,mongenerator-battery_634_existing,,,
233,0.0,0.766231,1.92115e-07,,0.0,,mongenerator-battery_634_existing,,,
234,0.0,0.736649,1.04352e-06,,0.0,,mongenerator-battery_634_existing,,,
235,0.0,0.735957,-3.91081e-06,,0.0,,mongenerator-battery_634_existing,,,
236,0.0,0.7400680000000001,1.53961e-05,,0.0,,mongenerator-battery_634_existing,,,
237,0.0,0.74743,1.1328200000000001e-06,,0.0,,mongenerator-battery_634_existing,,,
238,0.0,0.764662,1.33559e-06,,0.0,,mongenerator-battery_634_existing,,,
239,0.0,0.777842,-3.97317e-07,,0.0,,mongenerator-battery_634_existing,,,
240,0.0,0.773705,-9.237510000000002e-06,,0.0,,mongenerator-battery_634_existing,,,
241,0.0,0.777877,5.071410000000001e-07,,0.0,,mongenerator-battery_634_existing,,,
242,0.0,0.780137,1.5006700000000001e-06,,0.0,,mongenerator-battery_634_existing,,,
243,0.0,0.7804770000000001,1.27289e-07,,0.0,,mongenerator-battery_634_existing,,,
244,0.0,0.78074,5.69799e-06,,0.0,,mongenerator-battery_634_existing,,,
245,0.0,0.778183,7.945160000000001e-08,,0.0,,mongenerator-battery_634_existing,,,
246,0.0,0.7777149999999999,-1.95837e-07,,0.0,,mongenerator-battery_634_existing,,,
247,0.0,0.764563,1.0153499999999999e-07,,0.0,,mongenerator-battery_634_existing,,,
248,0.0,0.762983,-3.40222e-06,,0.0,,mongenerator-battery_634_existing,,,
249,0.0,0.786108,-1.08309e-07,,0.0,,mongenerator-battery_634_existing,,,
250,0.0,0.8240379999999999,9.51693e-08,,0.0,,mongenerator-battery_634_existing,,,
251,0.0,0.857468,-1.28798e-06,,0.0,,mongenerator-battery_634_existing,,,
252,0.0,0.872657,-8.15111e-07,,0.0,,mongenerator-battery_634_existing,,,
253,0.0,0.8697360000000001,-4.6060900000000005e-05,,0.0,,mongenerator-battery_634_existing,,,
254,0.0,0.8620450000000001,-4.00196e-06,,0.0,,mongenerator-battery_634_existing,,,
255,0.0,0.8450780000000001,-2.8929300000000003e-06,,0.0,,mongenerator-battery_634_existing,,,
256,0.0,0.817717,-2.54327e-06,,0.0,,mongenerator-battery_634_existing,,,
257,0.0,0.778369,-8.18417e-07,,0.0,,mongenerator-battery_634_existing,,,
258,0.0,0.744929,3.98136e-05,,0.0,,mongenerator-battery_634_existing,,,
259,0.0,0.73536,-3.7759099999999996e-05,,0.0,,mongenerator-battery_634_existing,,,
