hour,t(sec),P1(kW),Q1(kvar),P2(kW),Q2(kvar),P3(kW),Name,Q3(kvar),P4(kW),Q4(kvar)
1,0.0,0.824248,4.65569e-08,,0.0,,mongenerator-battery_634_existing,,,
2,0.0,0.8243280000000001,-2.7156299999999996e-10,,0.0,,mongenerator-battery_634_existing,,,
3,0.0,0.8243229999999999,3.2510300000000005e-09,,0.0,,mongenerator-battery_634_existing,,,
4,0.0,0.8243229999999999,6.00023e-09,,0.0,,mongenerator-battery_634_existing,,,
5,0.0,0.824141,-6.64965e-07,,0.0,,mongenerator-battery_634_existing,,,
6,0.0,0.823946,-7.55315e-07,,0.0,,mongenerator-battery_634_existing,,,
7,0.0,0.8234540000000001,-1.5984200000000001e-06,,0.0,,mongenerator-battery_634_existing,,,
8,0.0,0.8238190000000001,2.08234e-06,,0.0,,mongenerator-battery_634_existing,,,
9,0.0,0.8238209999999999,-1.7121400000000003e-08,,0.0,,mongenerator-battery_634_existing,,,
10,0.0,0.823966,7.59665e-07,,0.0,,mongenerator-battery_634_existing,,,
11,0.0,0.8240790000000001,1.10896e-06,,0.0,,mongenerator-battery_634_existing,,,
12,0.0,0.8240629999999999,3.00592e-06,,0.0,,mongenerator-battery_634_existing,,,
13,0.0,0.824083,-3.32667e-06,,0.0,,mongenerator-battery_634_existing,,,
14,0.0,0.8241280000000001,1.5385900000000001e-06,,0.0,,mongenerator-battery_634_existing,,,
15,0.0,0.824126,1.20036e-06,,0.0,,mongenerator-battery_634_existing,,,
16,0.0,0.8240620000000001,-1.42414e-08,,0.0,,mongenerator-battery_634_existing,,,
17,0.0,0.823795,-3.2693099999999996e-06,,0.0,,mongenerator-battery_634_existing,,,
18,0.0,0.823293,-2.7577699999999997e-06,,0.0,,mongenerator-battery_634_existing,,,
19,0.0,0.822991,-1.27344e-06,,0.0,,mongenerator-battery_634_existing,,,
20,0.0,0.823049,1.6747699999999998e-07,,0.0,,mongenerator-battery_634_existing,,,
21,0.0,0.823176,3.4097900000000005e-07,,0.0,,mongenerator-battery_634_existing,,,
22,0.0,0.823421,8.24554e-07,,0.0,,mongenerator-battery_634_existing,,,
23,0.0,0.8237690000000001,1.23943e-06,,0.0,,mongenerator-battery_634_existing,,,
24,0.0,0.8239850000000001,8.530740000000001e-07,,0.0,,mongenerator-battery_634_existing,,,
25,0.0,0.824101,4.58063e-07,,0.0,,mongenerator-battery_634_existing,,,
26,0.0,0.82409,-4.5362200000000004e-08,,0.0,,mongenerator-battery_634_existing,,,
27,0.0,0.8240780000000001,-4.89874e-08,,0.0,,mongenerator-battery_634_existing,,,
28,0.0,0.824066,-5.3143900000000004e-08,,0.0,,mongenerator-battery_634_existing,,,
29,0.0,0.8235790000000001,-1.5000899999999998e-06,,0.0,,mongenerator-battery_634_existing,,,
30,0.0,0.823299,-8.884120000000001e-07,,0.0,,mongenerator-battery_634_existing,,,
31,0.0,0.822225,-2.30329e-06,,0.0,,mongenerator-battery_634_existing,,,
32,0.0,0.821816,-1.14027e-06,,0.0,,mongenerator-battery_634_existing,,,
33,0.0,0.821522,1.02449e-06,,0.0,,mongenerator-battery_634_existing,,,
34,0.0,0.821382,-3.24327e-06,,0.0,,mongenerator-battery_634_existing,,,
35,0.0,0.82147,1.3122700000000001e-06,,0.0,,mongenerator-battery_634_existing,,,
36,0.0,0.812331,-1.4347e-06,,0.0,,mongenerator-battery_634_existing,,,
37,0.0,0.8215110000000001,3.76837e-05,,0.0,,mongenerator-battery_634_existing,,,
38,0.0,0.821398,-1.35034e-07,,0.0,,mongenerator-battery_634_existing,,,
39,0.0,0.8259920000000001,2.1738e-05,,0.0,,mongenerator-battery_634_existing,,,
40,0.0,0.8213790000000001,-2.15506e-05,,0.0,,mongenerator-battery_634_existing,,,
41,0.0,0.8210370000000001,2.20535e-07,,0.0,,mongenerator-battery_634_existing,,,
42,0.0,0.816666,-1.887e-05,,0.0,,mongenerator-battery_634_existing,,,
43,0.0,0.817307,2.5820499999999997e-06,,0.0,,mongenerator-battery_634_existing,,,
44,0.0,0.8198620000000001,1.1096199999999999e-05,,0.0,,mongenerator-battery_634_existing,,,
45,0.0,0.8225180000000001,1.0874000000000001e-05,,0.0,,mongenerator-battery_634_existing,,,
46,0.0,0.8228690000000001,9.424110000000001e-07,,0.0,,mongenerator-battery_634_existing,,,
47,0.0,0.823464,1.8985499999999998e-06,,0.0,,mongenerator-battery_634_existing,,,
48,0.0,0.8236889999999999,8.02063e-07,,0.0,,mongenerator-battery_634_existing,,,
49,0.0,0.823823,4.63545e-07,,0.0,,mongenerator-battery_634_existing,,,
50,0.0,0.823837,4.0620199999999993e-08,,0.0,,mongenerator-battery_634_existing,,,
51,0.0,0.823837,-1.7835900000000003e-08,,0.0,,mongenerator-battery_634_existing,,,
52,0.0,0.823836,-4.14231e-09,,0.0,,mongenerator-battery_634_existing,,,
53,0.0,0.8233309999999999,-1.4788499999999998e-06,,0.0,,mongenerator-battery_634_existing,,,
54,0.0,0.8230629999999999,-7.728399999999999e-07,,0.0,,mongenerator-battery_634_existing,,,
55,0.0,0.821995,-2.11328e-06,,0.0,,mongenerator-battery_634_existing,,,
56,0.0,0.821606,-9.30757e-07,,0.0,,mongenerator-battery_634_existing,,,
57,0.0,0.821384,-3.02168e-07,,0.0,,mongenerator-battery_634_existing,,,
58,0.0,0.8212649999999999,-2.4352100000000003e-07,,0.0,,mongenerator-battery_634_existing,,,
59,0.0,0.8262799999999999,2.31124e-05,,0.0,,mongenerator-battery_634_existing,,,
60,0.0,0.8213889999999999,-2.3012e-05,,0.0,,mongenerator-battery_634_existing,,,
61,0.0,0.8215600000000001,2.77751e-07,,0.0,,mongenerator-battery_634_existing,,,
62,0.0,0.821304,-1.3251200000000002e-07,,0.0,,mongenerator-battery_634_existing,,,
63,0.0,0.821262,-1.7496400000000002e-08,,0.0,,mongenerator-battery_634_existing,,,
64,0.0,0.82116,4.31698e-08,,0.0,,mongenerator-battery_634_existing,,,
65,0.0,0.820886,1.47027e-07,,0.0,,mongenerator-battery_634_existing,,,
66,0.0,0.818488,-1.07049e-05,,0.0,,mongenerator-battery_634_existing,,,
67,0.0,0.819565,3.78918e-06,,0.0,,mongenerator-battery_634_existing,,,
68,0.0,0.822206,1.1575299999999999e-05,,0.0,,mongenerator-battery_634_existing,,,
69,0.0,0.822675,1.06104e-06,,0.0,,mongenerator-battery_634_existing,,,
70,0.0,0.822991,9.021689999999999e-07,,0.0,,mongenerator-battery_634_existing,,,
71,0.0,0.823583,1.94753e-06,,0.0,,mongenerator-battery_634_existing,,,
72,0.0,0.823842,9.682940000000002e-07,,0.0,,mongenerator-battery_634_existing,,,
73,0.0,0.8240299999999999,6.87425e-07,,0.0,,mongenerator-battery_634_existing,,,
74,0.0,0.824047,6.3799e-08,,0.0,,mongenerator-battery_634_existing,,,
75,0.0,0.8240649999999999,7.21205e-08,,0.0,,mongenerator-battery_634_existing,,,
76,0.0,0.824066,8.58483e-09,,0.0,,mongenerator-battery_634_existing,,,
77,0.0,0.823576,-1.50849e-06,,0.0,,mongenerator-battery_634_existing,,,
78,0.0,0.823378,-6.48481e-07,,0.0,,mongenerator-battery_634_existing,,,
79,0.0,0.8222860000000001,-2.4057e-06,,0.0,,mongenerator-battery_634_existing,,,
80,0.0,0.8218620000000001,-8.93379e-07,,0.0,,mongenerator-battery_634_existing,,,
81,0.0,0.816639,-2.31324e-05,,0.0,,mongenerator-battery_634_existing,,,
82,0.0,0.8272879999999999,5.41909e-05,,0.0,,mongenerator-battery_634_existing,,,
83,0.0,0.8534700000000001,-7.68052e-06,,0.0,,mongenerator-battery_634_existing,,,
84,0.0,0.8718739999999999,-1.43947e-06,,0.0,,mongenerator-battery_634_existing,,,
85,0.0,0.883948,1.5574299999999999e-06,,0.0,,mongenerator-battery_634_existing,,,
86,0.0,0.8769540000000001,2.07284e-06,,0.0,,mongenerator-battery_634_existing,,,
87,0.0,0.8571340000000001,-8.31919e-06,,0.0,,mongenerator-battery_634_existing,,,
88,0.0,0.822751,-4.50304e-07,,0.0,,mongenerator-battery_634_existing,,,
89,0.0,0.81045,-7.74662e-07,,0.0,,mongenerator-battery_634_existing,,,
90,0.0,0.806872,2.48501e-05,,0.0,,mongenerator-battery_634_existing,,,
91,0.0,0.80277,2.4349099999999997e-05,,0.0,,mongenerator-battery_634_existing,,,
92,0.0,0.804349,-9.66755e-06,,0.0,,mongenerator-battery_634_existing,,,
93,0.0,0.8096979999999999,-3.1473e-05,,0.0,,mongenerator-battery_634_existing,,,
94,0.0,0.812387,-1.47385e-05,,0.0,,mongenerator-battery_634_existing,,,
95,0.0,0.813012,-2.12453e-06,,0.0,,mongenerator-battery_634_existing,,,
96,0.0,0.8132739999999999,-4.2061500000000004e-07,,0.0,,mongenerator-battery_634_existing,,,
97,0.0,0.813475,-5.28684e-07,,0.0,,mongenerator-battery_634_existing,,,
98,0.0,0.8135100000000001,-8.366710000000001e-08,,0.0,,mongenerator-battery_634_existing,,,
99,0.0,0.813528,-3.09043e-08,,0.0,,mongenerator-battery_634_existing,,,
100,0.0,0.813561,-1.6325600000000002e-07,,0.0,,mongenerator-battery_634_existing,,,
101,0.0,0.813136,2.23833e-06,,0.0,,mongenerator-battery_634_existing,,,
102,0.0,0.812888,7.22337e-07,,0.0,,mongenerator-battery_634_existing,,,
103,0.0,0.811728,6.1403599999999994e-06,,0.0,,mongenerator-battery_634_existing,,,
104,0.0,0.7950510000000001,-6.31714e-06,,0.0,,mongenerator-battery_634_existing,,,
105,0.0,0.791491,2.1755700000000002e-05,,0.0,,mongenerator-battery_634_existing,,,
106,0.0,0.8053640000000001,1.0415799999999998e-06,,0.0,,mongenerator-battery_634_existing,,,
107,0.0,0.841168,9.56669e-08,,0.0,,mongenerator-battery_634_existing,,,
108,0.0,0.864818,5.17023e-07,,0.0,,mongenerator-battery_634_existing,,,
109,0.0,0.876698,5.3295500000000005e-05,,0.0,,mongenerator-battery_634_existing,,,
110,0.0,0.8672770000000001,-1.7290400000000002e-07,,0.0,,mongenerator-battery_634_existing,,,
111,0.0,0.8466670000000001,-2.18978e-07,,0.0,,mongenerator-battery_634_existing,,,
112,0.0,0.8164680000000001,1.46057e-06,,0.0,,mongenerator-battery_634_existing,,,
113,0.0,0.809697,3.97763e-05,,0.0,,mongenerator-battery_634_existing,,,
114,0.0,0.800855,-2.1319e-06,,0.0,,mongenerator-battery_634_existing,,,
115,0.0,0.798259,1.69827e-05,,0.0,,mongenerator-battery_634_existing,,,
116,0.0,0.800086,-1.06951e-05,,0.0,,mongenerator-battery_634_existing,,,
117,0.0,0.8055869999999999,-3.18242e-05,,0.0,,mongenerator-battery_634_existing,,,
118,0.0,0.812268,-3.76594e-05,,0.0,,mongenerator-battery_634_existing,,,
119,0.0,0.812996,-2.36017e-06,,0.0,,mongenerator-battery_634_existing,,,
120,0.0,0.8133279999999999,-5.61194e-07,,0.0,,mongenerator-battery_634_existing,,,
121,0.0,0.813624,-6.73672e-07,,0.0,,mongenerator-battery_634_existing,,,
122,0.0,0.813661,-5.31068e-08,,0.0,,mongenerator-battery_634_existing,,,
123,0.0,0.813684,-2.2749599999999997e-08,,0.0,,mongenerator-battery_634_existing,,,
124,0.0,0.813715,-2.3671700000000002e-08,,0.0,,mongenerator-battery_634_existing,,,
125,0.0,0.813238,2.49384e-06,,0.0,,mongenerator-battery_634_existing,,,
126,0.0,0.813,5.617580000000001e-07,,0.0,,mongenerator-battery_634_existing,,,
127,0.0,0.811814,6.125520000000001e-06,,0.0,,mongenerator-battery_634_existing,,,
128,0.0,0.811308,9.98491e-07,,0.0,,mongenerator-battery_634_existing,,,
129,0.0,0.8021199999999999,-1.74733e-06,,0.0,,mongenerator-battery_634_existing,,,
130,0.0,0.795027,-1.8390099999999997e-06,,0.0,,mongenerator-battery_634_existing,,,
131,0.0,0.8298049999999999,-1.22512e-07,,0.0,,mongenerator-battery_634_existing,,,
132,0.0,0.811135,-7.92809e-07,,0.0,,mongenerator-battery_634_existing,,,
133,0.0,0.8276379999999999,-1.0473599999999999e-07,,0.0,,mongenerator-battery_634_existing,,,
134,0.0,0.828583,-3.1965800000000003e-06,,0.0,,mongenerator-battery_634_existing,,,
135,0.0,0.8311149999999999,3.15346e-07,,0.0,,mongenerator-battery_634_existing,,,
136,0.0,0.809724,-5.19651e-07,,0.0,,mongenerator-battery_634_existing,,,
137,0.0,0.8094680000000001,1.62067e-06,,0.0,,mongenerator-battery_634_existing,,,
138,0.0,0.7991060000000001,-2.8231e-06,,0.0,,mongenerator-battery_634_existing,,,
139,0.0,0.796982,1.46905e-05,,0.0,,mongenerator-battery_634_existing,,,
140,0.0,0.8004020000000001,-2.0400199999999998e-05,,0.0,,mongenerator-battery_634_existing,,,
141,0.0,0.805611,-3.0580900000000004e-05,,0.0,,mongenerator-battery_634_existing,,,
142,0.0,0.812234,-3.63537e-05,,0.0,,mongenerator-battery_634_existing,,,
143,0.0,0.813208,-2.84265e-06,,0.0,,mongenerator-battery_634_existing,,,
144,0.0,0.813507,-4.24833e-07,,0.0,,mongenerator-battery_634_existing,,,
145,0.0,0.813703,-4.37639e-07,,0.0,,mongenerator-battery_634_existing,,,
146,0.0,0.813714,5.46641e-08,,0.0,,mongenerator-battery_634_existing,,,
147,0.0,0.813719,6.78206e-08,,0.0,,mongenerator-battery_634_existing,,,
148,0.0,0.813725,-1.44811e-08,,0.0,,mongenerator-battery_634_existing,,,
149,0.0,0.81355,6.59662e-07,,0.0,,mongenerator-battery_634_existing,,,
150,0.0,0.8133520000000001,3.9881100000000004e-07,,0.0,,mongenerator-battery_634_existing,,,
151,0.0,0.812861,1.7354300000000001e-06,,0.0,,mongenerator-battery_634_existing,,,
152,0.0,0.8127260000000001,2.24568e-06,,0.0,,mongenerator-battery_634_existing,,,
153,0.0,0.812916,-7.95948e-07,,0.0,,mongenerator-battery_634_existing,,,
154,0.0,0.790517,-8.8215e-06,,0.0,,mongenerator-battery_634_existing,,,
155,0.0,0.8568549999999999,1.9654099999999999e-07,,0.0,,mongenerator-battery_634_existing,,,
156,0.0,0.870389,1.2978e-07,,0.0,,mongenerator-battery_634_existing,,,
157,0.0,0.8588530000000001,1.93744e-06,,0.0,,mongenerator-battery_634_existing,,,
158,0.0,0.8538889999999999,2.16638e-06,,0.0,,mongenerator-battery_634_existing,,,
159,0.0,0.83444,4.16989e-07,,0.0,,mongenerator-battery_634_existing,,,
160,0.0,0.812612,1.6959900000000002e-08,,0.0,,mongenerator-battery_634_existing,,,
161,0.0,0.812465,6.08524e-06,,0.0,,mongenerator-battery_634_existing,,,
162,0.0,0.801793,-1.23475e-05,,0.0,,mongenerator-battery_634_existing,,,
163,0.0,0.8052189999999999,-9.67627e-05,,0.0,,mongenerator-battery_634_existing,,,
164,0.0,0.812372,-0.000202585,,0.0,,mongenerator-battery_634_existing,,,
165,0.0,0.8125020000000001,-1.15146e-05,,0.0,,mongenerator-battery_634_existing,,,
166,0.0,0.812764,-1.16524e-05,,0.0,,mongenerator-battery_634_existing,,,
167,0.0,0.813208,-1.95777e-05,,0.0,,mongenerator-battery_634_existing,,,
168,0.0,0.8135100000000001,-1.23463e-05,,0.0,,mongenerator-battery_634_existing,,,
169,0.0,0.813776,-1.18159e-05,,0.0,,mongenerator-battery_634_existing,,,
170,0.0,0.81381,-1.3135399999999998e-06,,0.0,,mongenerator-battery_634_existing,,,
171,0.0,0.8138270000000001,-6.07621e-07,,0.0,,mongenerator-battery_634_existing,,,
172,0.0,0.8138340000000001,-2.3479399999999998e-07,,0.0,,mongenerator-battery_634_existing,,,
173,0.0,0.813649,8.789910000000001e-06,,0.0,,mongenerator-battery_634_existing,,,
174,0.0,0.813441,8.99414e-06,,0.0,,mongenerator-battery_634_existing,,,
175,0.0,0.812938,2.36781e-05,,0.0,,mongenerator-battery_634_existing,,,
176,0.0,0.813284,-1.3438599999999999e-05,,0.0,,mongenerator-battery_634_existing,,,
177,0.0,0.8079430000000001,-3.6348199999999996e-06,,0.0,,mongenerator-battery_634_existing,,,
178,0.0,0.8384780000000001,7.282099999999999e-07,,0.0,,mongenerator-battery_634_existing,,,
179,0.0,0.8124520000000001,-2.1997e-06,,0.0,,mongenerator-battery_634_existing,,,
180,0.0,0.81237,5.8688699999999994e-06,,0.0,,mongenerator-battery_634_existing,,,
181,0.0,0.812172,-1.4879499999999999e-06,,0.0,,mongenerator-battery_634_existing,,,
182,0.0,0.812329,1.25779e-06,,0.0,,mongenerator-battery_634_existing,,,
183,0.0,0.811974,-5.485520000000001e-07,,0.0,,mongenerator-battery_634_existing,,,
184,0.0,0.811921,-1.36124e-06,,0.0,,mongenerator-battery_634_existing,,,
185,0.0,0.811856,-1.82786e-07,,0.0,,mongenerator-battery_634_existing,,,
186,0.0,0.811869,-3.1706e-06,,0.0,,mongenerator-battery_634_existing,,,
187,0.0,0.811908,-6.66536e-06,,0.0,,mongenerator-battery_634_existing,,,
188,0.0,0.812225,-1.4425e-05,,0.0,,mongenerator-battery_634_existing,,,
189,0.0,0.8124979999999999,-1.26622e-05,,0.0,,mongenerator-battery_634_existing,,,
190,0.0,0.812819,-1.40555e-05,,0.0,,mongenerator-battery_634_existing,,,
191,0.0,0.813276,-2.00639e-05,,0.0,,mongenerator-battery_634_existing,,,
192,0.0,0.813563,-1.16267e-05,,0.0,,mongenerator-battery_634_existing,,,
193,0.0,0.813721,-6.3406200000000005e-06,,0.0,,mongenerator-battery_634_existing,,,
194,0.0,0.813715,2.01463e-07,,0.0,,mongenerator-battery_634_existing,,,
195,0.0,0.813692,9.71188e-07,,0.0,,mongenerator-battery_634_existing,,,
196,0.0,0.813663,1.2896000000000001e-06,,0.0,,mongenerator-battery_634_existing,,,
197,0.0,0.813186,2.37592e-05,,0.0,,mongenerator-battery_634_existing,,,
198,0.0,0.812972,9.181710000000001e-06,,0.0,,mongenerator-battery_634_existing,,,
199,0.0,0.811863,-1.37428e-06,,0.0,,mongenerator-battery_634_existing,,,
200,0.0,0.811442,2.02002e-05,,0.0,,mongenerator-battery_634_existing,,,
201,0.0,0.811117,1.1039200000000001e-05,,0.0,,mongenerator-battery_634_existing,,,
202,0.0,0.8109649999999999,6.899210000000001e-06,,0.0,,mongenerator-battery_634_existing,,,
203,0.0,0.810692,1.1037599999999999e-05,,0.0,,mongenerator-battery_634_existing,,,
204,0.0,0.810363,1.62341e-05,,0.0,,mongenerator-battery_634_existing,,,
205,0.0,0.810312,3.8099599999999997e-06,,0.0,,mongenerator-battery_634_existing,,,
206,0.0,0.809902,1.88877e-05,,0.0,,mongenerator-battery_634_existing,,,
207,0.0,0.809683,1.0769600000000001e-05,,0.0,,mongenerator-battery_634_existing,,,
208,0.0,0.8098,-5.65067e-06,,0.0,,mongenerator-battery_634_existing,,,
209,0.0,0.806938,8.289040000000002e-05,,0.0,,mongenerator-battery_634_existing,,,
210,0.0,0.8015100000000001,-6.844119999999999e-06,,0.0,,mongenerator-battery_634_existing,,,
211,0.0,0.799882,2.80565e-05,,0.0,,mongenerator-battery_634_existing,,,
212,0.0,0.802327,-7.32082e-05,,0.0,,mongenerator-battery_634_existing,,,
213,0.0,0.808091,-0.00017292599999999998,,0.0,,mongenerator-battery_634_existing,,,
214,0.0,0.820365,-0.000353101,,0.0,,mongenerator-battery_634_existing,,,
215,0.0,0.812978,-7.927710000000001e-06,,0.0,,mongenerator-battery_634_existing,,,
216,0.0,0.813272,-1.19123e-05,,0.0,,mongenerator-battery_634_existing,,,
217,0.0,0.813525,-1.1266500000000001e-05,,0.0,,mongenerator-battery_634_existing,,,
218,0.0,0.8135899999999999,-2.89692e-06,,0.0,,mongenerator-battery_634_existing,,,
219,0.0,0.813642,-2.36262e-06,,0.0,,mongenerator-battery_634_existing,,,
220,0.0,0.813665,-1.03389e-06,,0.0,,mongenerator-battery_634_existing,,,
221,0.0,0.813184,2.42038e-05,,0.0,,mongenerator-battery_634_existing,,,
222,0.0,0.8129350000000001,1.10201e-05,,0.0,,mongenerator-battery_634_existing,,,
223,0.0,0.8117850000000001,-1.2986700000000002e-06,,0.0,,mongenerator-battery_634_existing,,,
224,0.0,0.811341,3.2309500000000004e-06,,0.0,,mongenerator-battery_634_existing,,,
225,0.0,0.810762,-5.19911e-06,,0.0,,mongenerator-battery_634_existing,,,
226,0.0,0.810296,6.33854e-07,,0.0,,mongenerator-battery_634_existing,,,
227,0.0,0.809887,2.1078600000000002e-05,,0.0,,mongenerator-battery_634_existing,,,
228,0.0,0.817186,-0.000195008,,0.0,,mongenerator-battery_634_existing,,,
229,0.0,0.809962,-5.3533e-06,,0.0,,mongenerator-battery_634_existing,,,
230,0.0,0.8097810000000001,7.95284e-06,,0.0,,mongenerator-battery_634_existing,,,
231,0.0,0.809757,1.19075e-06,,0.0,,mongenerator-battery_634_existing,,,
232,0.0,0.809818,-3.0045599999999997e-06,,0.0,,mongenerator-battery_634_existing,,,
233,0.0,0.809579,1.2098699999999998e-05,,0.0,,mongenerator-battery_634_existing,,,
234,0.0,0.79589,-2.35411e-06,,0.0,,mongenerator-battery_634_existing,,,
235,0.0,0.798712,1.99183e-06,,0.0,,mongenerator-battery_634_existing,,,
236,0.0,0.802199,-0.000102581,,0.0,,mongenerator-battery_634_existing,,,
237,0.0,0.807801,-0.000170645,,0.0,,mongenerator-battery_634_existing,,,
238,0.0,0.812193,-0.00013194700000000002,,0.0,,mongenerator-battery_634_existing,,,
239,0.0,0.8130109999999999,1.87547e-07,,0.0,,mongenerator-battery_634_existing,,,
240,0.0,0.813333,-1.3585999999999998e-05,,0.0,,mongenerator-battery_634_existing,,,
241,0.0,0.8135760000000001,-1.0394300000000001e-05,,0.0,,mongenerator-battery_634_existing,,,
242,0.0,0.813654,-3.3781900000000003e-06,,0.0,,mongenerator-battery_634_existing,,,
243,0.0,0.813701,-2.05042e-06,,0.0,,mongenerator-battery_634_existing,,,
244,0.0,0.813732,-1.48028e-06,,0.0,,mongenerator-battery_634_existing,,,
245,0.0,0.813295,2.19529e-05,,0.0,,mongenerator-battery_634_existing,,,
246,0.0,0.8130609999999999,1.02698e-05,,0.0,,mongenerator-battery_634_existing,,,
247,0.0,0.811912,-1.3387e-06,,0.0,,mongenerator-battery_634_existing,,,
248,0.0,0.811481,2.0624099999999998e-05,,0.0,,mongenerator-battery_634_existing,,,
249,0.0,0.811095,1.41925e-05,,0.0,,mongenerator-battery_634_existing,,,
250,0.0,0.813322,-1.54926e-06,,0.0,,mongenerator-battery_634_existing,,,
251,0.0,0.852123,-4.7587899999999997e-07,,0.0,,mongenerator-battery_634_existing,,,
252,0.0,0.871134,-2.0104199999999998e-07,,0.0,,mongenerator-battery_634_existing,,,
