hour,t(sec),P1(kW),Q1(kvar),P2(kW),Q2(kvar),P3(kW),Name,Q3(kvar),P4(kW),Q4(kvar)
1,0.0,0.79,4.753369999999999e-08,,0.0,,mongenerator-battery_634_existing,,,
2,0.0,0.79,2.8251900000000002e-08,,0.0,,mongenerator-battery_634_existing,,,
3,0.0,0.79,8.472370000000002e-09,,0.0,,mongenerator-battery_634_existing,,,
4,0.0,0.79,2.4155300000000002e-09,,0.0,,mongenerator-battery_634_existing,,,
5,0.0,0.79,-2.7372099999999997e-08,,0.0,,mongenerator-battery_634_existing,,,
6,0.0,0.79,-5.8773999999999994e-08,,0.0,,mongenerator-battery_634_existing,,,
7,0.0,0.79,-7.77012e-08,,0.0,,mongenerator-battery_634_existing,,,
8,0.0,0.79,1.1069699999999999e-07,,0.0,,mongenerator-battery_634_existing,,,
9,0.0,0.79,-3.28296e-07,,0.0,,mongenerator-battery_634_existing,,,
10,0.0,0.7900020000000001,8.907439999999999e-07,,0.0,,mongenerator-battery_634_existing,,,
11,0.0,0.789998,-8.88616e-07,,0.0,,mongenerator-battery_634_existing,,,
12,0.0,0.79,4.06755e-07,,0.0,,mongenerator-battery_634_existing,,,
13,0.0,0.79,-8.53715e-09,,0.0,,mongenerator-battery_634_existing,,,
14,0.0,0.789992,-3.94277e-06,,0.0,,mongenerator-battery_634_existing,,,
15,0.0,0.78999,-4.78911e-06,,0.0,,mongenerator-battery_634_existing,,,
16,0.0,0.7900020000000001,1.10612e-06,,0.0,,mongenerator-battery_634_existing,,,
17,0.0,0.789992,7.15732e-06,,0.0,,mongenerator-battery_634_existing,,,
18,0.0,0.789998,2.08911e-05,,0.0,,mongenerator-battery_634_existing,,,
19,0.0,0.79,1.81422e-06,,0.0,,mongenerator-battery_634_existing,,,
20,0.0,0.79,-9.22818e-08,,0.0,,mongenerator-battery_634_existing,,,
21,0.0,0.79,-4.4156699999999993e-08,,0.0,,mongenerator-battery_634_existing,,,
22,0.0,0.79,-4.50492e-07,,0.0,,mongenerator-battery_634_existing,,,
23,0.0,0.79,-5.31135e-07,,0.0,,mongenerator-battery_634_existing,,,
24,0.0,0.79,-4.18151e-07,,0.0,,mongenerator-battery_634_existing,,,
25,0.0,0.79,-2.57007e-07,,0.0,,mongenerator-battery_634_existing,,,
26,0.0,0.79,-8.939379999999999e-09,,0.0,,mongenerator-battery_634_existing,,,
27,0.0,0.79,2.0339299999999997e-08,,0.0,,mongenerator-battery_634_existing,,,
28,0.0,0.79,1.12762e-08,,0.0,,mongenerator-battery_634_existing,,,
29,0.0,0.79,2.1202300000000002e-07,,0.0,,mongenerator-battery_634_existing,,,
30,0.0,0.79,4.16098e-07,,0.0,,mongenerator-battery_634_existing,,,
31,0.0,0.79,1.05375e-08,,0.0,,mongenerator-battery_634_existing,,,
32,0.0,0.79,5.13574e-07,,0.0,,mongenerator-battery_634_existing,,,
33,0.0,0.79,7.3402299999999996e-09,,0.0,,mongenerator-battery_634_existing,,,
34,0.0,0.7899970000000001,1.0965799999999999e-06,,0.0,,mongenerator-battery_634_existing,,,
35,0.0,0.789996,-5.112639999999999e-07,,0.0,,mongenerator-battery_634_existing,,,
36,0.0,-79.0043,-0.00617335,,0.0,,mongenerator-battery_634_existing,,,
37,0.0,0.79,2.11815e-07,,0.0,,mongenerator-battery_634_existing,,,
38,0.0,0.79,6.978169999999999e-08,,0.0,,mongenerator-battery_634_existing,,,
39,0.0,0.79,2.8229900000000005e-06,,0.0,,mongenerator-battery_634_existing,,,
40,0.0,0.79,-3.8239400000000003e-07,,0.0,,mongenerator-battery_634_existing,,,
41,0.0,0.79,-4.0911800000000005e-08,,0.0,,mongenerator-battery_634_existing,,,
42,0.0,-78.9999,0.000200448,,0.0,,mongenerator-battery_634_existing,,,
43,0.0,-78.9998,0.000597235,,0.0,,mongenerator-battery_634_existing,,,
44,0.0,-78.9975,0.00288446,,0.0,,mongenerator-battery_634_existing,,,
45,0.0,0.789998,-1.32019e-07,,0.0,,mongenerator-battery_634_existing,,,
46,0.0,0.79,7.91019e-08,,0.0,,mongenerator-battery_634_existing,,,
47,0.0,0.79,1.16699e-07,,0.0,,mongenerator-battery_634_existing,,,
48,0.0,0.79,8.87378e-08,,0.0,,mongenerator-battery_634_existing,,,
49,0.0,0.79,4.54509e-08,,0.0,,mongenerator-battery_634_existing,,,
50,0.0,0.79,-1.5718199999999999e-09,,0.0,,mongenerator-battery_634_existing,,,
51,0.0,0.79,-7.905529999999999e-09,,0.0,,mongenerator-battery_634_existing,,,
52,0.0,0.79,-5.085850000000001e-09,,0.0,,mongenerator-battery_634_existing,,,
53,0.0,0.79,-4.21983e-08,,0.0,,mongenerator-battery_634_existing,,,
54,0.0,0.79,-7.750460000000001e-08,,0.0,,mongenerator-battery_634_existing,,,
55,0.0,0.79,-2.65381e-07,,0.0,,mongenerator-battery_634_existing,,,
56,0.0,0.79,-2.22271e-07,,0.0,,mongenerator-battery_634_existing,,,
57,0.0,0.790008,2.4584499999999998e-05,,0.0,,mongenerator-battery_634_existing,,,
58,0.0,0.79,1.15228e-06,,0.0,,mongenerator-battery_634_existing,,,
59,0.0,0.79,1.2162299999999999e-06,,0.0,,mongenerator-battery_634_existing,,,
60,0.0,0.79,-3.8144599999999996e-07,,0.0,,mongenerator-battery_634_existing,,,
61,0.0,0.79,9.02071e-07,,0.0,,mongenerator-battery_634_existing,,,
62,0.0,0.79,-3.04762e-07,,0.0,,mongenerator-battery_634_existing,,,
63,0.0,0.7899930000000001,-2.07623e-05,,0.0,,mongenerator-battery_634_existing,,,
64,0.0,0.7899970000000001,-1.06255e-05,,0.0,,mongenerator-battery_634_existing,,,
65,0.0,0.789996,-1.58531e-05,,0.0,,mongenerator-battery_634_existing,,,
66,0.0,0.7900010000000001,4.23236e-06,,0.0,,mongenerator-battery_634_existing,,,
67,0.0,0.7899970000000001,-1.53162e-06,,0.0,,mongenerator-battery_634_existing,,,
68,0.0,0.789999,5.242040000000001e-06,,0.0,,mongenerator-battery_634_existing,,,
69,0.0,0.79,-5.77113e-09,,0.0,,mongenerator-battery_634_existing,,,
70,0.0,0.79,2.03557e-07,,0.0,,mongenerator-battery_634_existing,,,
71,0.0,0.79,2.79236e-07,,0.0,,mongenerator-battery_634_existing,,,
72,0.0,0.79,2.48236e-07,,0.0,,mongenerator-battery_634_existing,,,
73,0.0,0.79,1.45617e-07,,0.0,,mongenerator-battery_634_existing,,,
74,0.0,0.79,1.48987e-08,,0.0,,mongenerator-battery_634_existing,,,
75,0.0,0.79,1.89228e-08,,0.0,,mongenerator-battery_634_existing,,,
76,0.0,0.79,2.07425e-09,,0.0,,mongenerator-battery_634_existing,,,
77,0.0,0.79,-1.02361e-07,,0.0,,mongenerator-battery_634_existing,,,
78,0.0,0.79,-1.8467e-07,,0.0,,mongenerator-battery_634_existing,,,
79,0.0,0.79,-2.35657e-07,,0.0,,mongenerator-battery_634_existing,,,
80,0.0,0.79,5.87737e-08,,0.0,,mongenerator-battery_634_existing,,,
81,0.0,0.79,7.0983e-07,,0.0,,mongenerator-battery_634_existing,,,
82,0.0,0.789998,4.55514e-06,,0.0,,mongenerator-battery_634_existing,,,
83,0.0,79.0,2.3573e-06,,0.0,,mongenerator-battery_634_existing,,,
84,0.0,79.0,1.04827e-05,,0.0,,mongenerator-battery_634_existing,,,
85,0.0,78.9999,-8.78643e-05,,0.0,,mongenerator-battery_634_existing,,,
86,0.0,78.9999,-0.000176324,,0.0,,mongenerator-battery_634_existing,,,
87,0.0,0.79,6.213709999999999e-07,,0.0,,mongenerator-battery_634_existing,,,
88,0.0,0.79,-9.301730000000001e-07,,0.0,,mongenerator-battery_634_existing,,,
89,0.0,0.790017,-6.45943e-06,,0.0,,mongenerator-battery_634_existing,,,
90,0.0,-79.0006,-0.0008156989999999999,,0.0,,mongenerator-battery_634_existing,,,
91,0.0,-79.0001,-7.496239999999999e-05,,0.0,,mongenerator-battery_634_existing,,,
92,0.0,-78.9989,0.00131528,,0.0,,mongenerator-battery_634_existing,,,
93,0.0,-78.9947,0.00402985,,0.0,,mongenerator-battery_634_existing,,,
94,0.0,0.789998,1.70472e-07,,0.0,,mongenerator-battery_634_existing,,,
95,0.0,0.79,1.24448e-07,,0.0,,mongenerator-battery_634_existing,,,
96,0.0,0.79,1.03177e-07,,0.0,,mongenerator-battery_634_existing,,,
97,0.0,0.79,6.03674e-08,,0.0,,mongenerator-battery_634_existing,,,
98,0.0,0.79,1.04639e-08,,0.0,,mongenerator-battery_634_existing,,,
99,0.0,0.79,6.1767399999999995e-09,,0.0,,mongenerator-battery_634_existing,,,
100,0.0,0.79,2.5213499999999998e-09,,0.0,,mongenerator-battery_634_existing,,,
101,0.0,0.79,-3.2950800000000004e-08,,0.0,,mongenerator-battery_634_existing,,,
102,0.0,0.79,-7.46866e-08,,0.0,,mongenerator-battery_634_existing,,,
103,0.0,0.79,-1.04968e-07,,0.0,,mongenerator-battery_634_existing,,,
104,0.0,0.790046,6.25288e-05,,0.0,,mongenerator-battery_634_existing,,,
105,0.0,0.789976,-4.4479799999999994e-05,,0.0,,mongenerator-battery_634_existing,,,
106,0.0,0.789996,-3.31125e-06,,0.0,,mongenerator-battery_634_existing,,,
107,0.0,78.9996,-0.00048971,,0.0,,mongenerator-battery_634_existing,,,
108,0.0,78.9999,-0.000102514,,0.0,,mongenerator-battery_634_existing,,,
109,0.0,78.9999,-0.00010101299999999999,,0.0,,mongenerator-battery_634_existing,,,
110,0.0,78.9999,-0.00022898,,0.0,,mongenerator-battery_634_existing,,,
111,0.0,0.79,1.04368e-07,,0.0,,mongenerator-battery_634_existing,,,
112,0.0,0.790003,1.59192e-06,,0.0,,mongenerator-battery_634_existing,,,
113,0.0,0.7900010000000001,3.24774e-07,,0.0,,mongenerator-battery_634_existing,,,
114,0.0,-79.0,1.30954e-05,,0.0,,mongenerator-battery_634_existing,,,
115,0.0,-79.0015,-0.00473758,,0.0,,mongenerator-battery_634_existing,,,
116,0.0,-78.9993,0.00149098,,0.0,,mongenerator-battery_634_existing,,,
117,0.0,-78.99600000000001,0.004187399999999999,,0.0,,mongenerator-battery_634_existing,,,
118,0.0,78.9998,-0.000255623,,0.0,,mongenerator-battery_634_existing,,,
119,0.0,0.789999,-3.28279e-08,,0.0,,mongenerator-battery_634_existing,,,
120,0.0,0.79,1.24125e-07,,0.0,,mongenerator-battery_634_existing,,,
121,0.0,0.79,9.32336e-08,,0.0,,mongenerator-battery_634_existing,,,
122,0.0,0.79,1.37707e-08,,0.0,,mongenerator-battery_634_existing,,,
123,0.0,0.79,9.44839e-09,,0.0,,mongenerator-battery_634_existing,,,
124,0.0,0.79,1.40415e-08,,0.0,,mongenerator-battery_634_existing,,,
125,0.0,0.79,-3.3560699999999996e-08,,0.0,,mongenerator-battery_634_existing,,,
126,0.0,0.79,-8.019739999999998e-08,,0.0,,mongenerator-battery_634_existing,,,
127,0.0,0.79,-1.11394e-07,,0.0,,mongenerator-battery_634_existing,,,
128,0.0,0.789994,-2.48189e-06,,0.0,,mongenerator-battery_634_existing,,,
129,0.0,0.790009,2.52988e-06,,0.0,,mongenerator-battery_634_existing,,,
130,0.0,0.789999,-5.053379999999999e-07,,0.0,,mongenerator-battery_634_existing,,,
131,0.0,78.9997,-0.000409233,,0.0,,mongenerator-battery_634_existing,,,
132,0.0,0.7900159999999999,5.01156e-06,,0.0,,mongenerator-battery_634_existing,,,
133,0.0,79.0003,0.00028960000000000005,,0.0,,mongenerator-battery_634_existing,,,
134,0.0,79.0026,0.00262216,,0.0,,mongenerator-battery_634_existing,,,
135,0.0,0.79,1.28602e-06,,0.0,,mongenerator-battery_634_existing,,,
136,0.0,0.7900010000000001,6.05678e-07,,0.0,,mongenerator-battery_634_existing,,,
137,0.0,0.7900050000000001,-2.54157e-06,,0.0,,mongenerator-battery_634_existing,,,
138,0.0,-79.0001,-0.00019261700000000002,,0.0,,mongenerator-battery_634_existing,,,
139,0.0,-79.0,-1.71323e-05,,0.0,,mongenerator-battery_634_existing,,,
140,0.0,-78.9981,0.00144026,,0.0,,mongenerator-battery_634_existing,,,
141,0.0,-78.9956,0.00200866,,0.0,,mongenerator-battery_634_existing,,,
142,0.0,0.789999,-1.30369e-07,,0.0,,mongenerator-battery_634_existing,,,
143,0.0,0.79,2.48672e-07,,0.0,,mongenerator-battery_634_existing,,,
144,0.0,0.79,1.25516e-07,,0.0,,mongenerator-battery_634_existing,,,
145,0.0,0.79,6.68135e-08,,0.0,,mongenerator-battery_634_existing,,,
146,0.0,0.79,1.11101e-08,,0.0,,mongenerator-battery_634_existing,,,
147,0.0,0.79,8.19092e-09,,0.0,,mongenerator-battery_634_existing,,,
148,0.0,0.79,2.04203e-09,,0.0,,mongenerator-battery_634_existing,,,
149,0.0,0.79,-3.64041e-08,,0.0,,mongenerator-battery_634_existing,,,
150,0.0,0.79,-7.83593e-08,,0.0,,mongenerator-battery_634_existing,,,
151,0.0,0.79,-1.0580899999999999e-07,,0.0,,mongenerator-battery_634_existing,,,
152,0.0,0.79,7.95518e-08,,0.0,,mongenerator-battery_634_existing,,,
153,0.0,0.79,4.7493000000000003e-07,,0.0,,mongenerator-battery_634_existing,,,
154,0.0,0.79,-7.646410000000001e-08,,0.0,,mongenerator-battery_634_existing,,,
155,0.0,79.0,1.4650899999999999e-05,,0.0,,mongenerator-battery_634_existing,,,
156,0.0,79.0,2.50678e-06,,0.0,,mongenerator-battery_634_existing,,,
157,0.0,79.0,-9.26206e-06,,0.0,,mongenerator-battery_634_existing,,,
158,0.0,79.0,2.15788e-05,,0.0,,mongenerator-battery_634_existing,,,
159,0.0,0.79,3.7664899999999995e-09,,0.0,,mongenerator-battery_634_existing,,,
160,0.0,0.79,-1.3880699999999998e-07,,0.0,,mongenerator-battery_634_existing,,,
161,0.0,0.7900020000000001,-1.33958e-06,,0.0,,mongenerator-battery_634_existing,,,
162,0.0,-79.0001,-0.00011250299999999999,,0.0,,mongenerator-battery_634_existing,,,
163,0.0,-78.9975,0.00217834,,0.0,,mongenerator-battery_634_existing,,,
164,0.0,79.0006,0.000829465,,0.0,,mongenerator-battery_634_existing,,,
165,0.0,79.0022,0.00349798,,0.0,,mongenerator-battery_634_existing,,,
166,0.0,78.9981,-0.00263157,,0.0,,mongenerator-battery_634_existing,,,
167,0.0,0.7900020000000001,-3.52422e-07,,0.0,,mongenerator-battery_634_existing,,,
168,0.0,0.79,1.13939e-07,,0.0,,mongenerator-battery_634_existing,,,
169,0.0,0.79,6.5299e-08,,0.0,,mongenerator-battery_634_existing,,,
170,0.0,0.79,1.12824e-08,,0.0,,mongenerator-battery_634_existing,,,
171,0.0,0.79,8.580540000000001e-09,,0.0,,mongenerator-battery_634_existing,,,
172,0.0,0.79,2.3762600000000002e-09,,0.0,,mongenerator-battery_634_existing,,,
173,0.0,0.79,-3.1052299999999995e-08,,0.0,,mongenerator-battery_634_existing,,,
174,0.0,0.79,-6.7628e-08,,0.0,,mongenerator-battery_634_existing,,,
175,0.0,0.79,-8.74975e-08,,0.0,,mongenerator-battery_634_existing,,,
176,0.0,0.79,-3.87856e-08,,0.0,,mongenerator-battery_634_existing,,,
177,0.0,0.79,-1.16942e-07,,0.0,,mongenerator-battery_634_existing,,,
178,0.0,0.7900010000000001,1.29842e-06,,0.0,,mongenerator-battery_634_existing,,,
179,0.0,0.79,-1.27516e-07,,0.0,,mongenerator-battery_634_existing,,,
180,0.0,0.789995,-2.6327999999999996e-06,,0.0,,mongenerator-battery_634_existing,,,
181,0.0,0.79,-2.76399e-07,,0.0,,mongenerator-battery_634_existing,,,
182,0.0,0.79,2.7486599999999997e-07,,0.0,,mongenerator-battery_634_existing,,,
183,0.0,0.790009,6.28744e-06,,0.0,,mongenerator-battery_634_existing,,,
184,0.0,0.789983,6.91387e-06,,0.0,,mongenerator-battery_634_existing,,,
185,0.0,0.78999,2.02412e-05,,0.0,,mongenerator-battery_634_existing,,,
186,0.0,0.789996,3.42908e-05,,0.0,,mongenerator-battery_634_existing,,,
187,0.0,0.79,3.985180000000001e-06,,0.0,,mongenerator-battery_634_existing,,,
188,0.0,0.79,-9.39634e-07,,0.0,,mongenerator-battery_634_existing,,,
189,0.0,0.79,-6.01574e-07,,0.0,,mongenerator-battery_634_existing,,,
190,0.0,0.79,-1.00413e-06,,0.0,,mongenerator-battery_634_existing,,,
191,0.0,0.79,-1.12653e-06,,0.0,,mongenerator-battery_634_existing,,,
192,0.0,0.79,-8.52252e-07,,0.0,,mongenerator-battery_634_existing,,,
193,0.0,0.79,-5.042519999999999e-07,,0.0,,mongenerator-battery_634_existing,,,
194,0.0,0.79,-5.7621400000000005e-08,,0.0,,mongenerator-battery_634_existing,,,
195,0.0,0.79,1.02412e-09,,0.0,,mongenerator-battery_634_existing,,,
196,0.0,0.79,2.2589599999999997e-08,,0.0,,mongenerator-battery_634_existing,,,
197,0.0,0.79,3.1346999999999996e-07,,0.0,,mongenerator-battery_634_existing,,,
198,0.0,0.79,6.492529999999999e-07,,0.0,,mongenerator-battery_634_existing,,,
199,0.0,0.79,5.41406e-07,,0.0,,mongenerator-battery_634_existing,,,
200,0.0,0.79,-6.63385e-07,,0.0,,mongenerator-battery_634_existing,,,
201,0.0,0.79,1.48576e-07,,0.0,,mongenerator-battery_634_existing,,,
202,0.0,0.79,7.104319999999999e-07,,0.0,,mongenerator-battery_634_existing,,,
203,0.0,0.79,-9.14987e-08,,0.0,,mongenerator-battery_634_existing,,,
204,0.0,0.7900010000000001,1.3675999999999998e-06,,0.0,,mongenerator-battery_634_existing,,,
205,0.0,0.79,-2.16006e-07,,0.0,,mongenerator-battery_634_existing,,,
206,0.0,0.79,-2.01689e-07,,0.0,,mongenerator-battery_634_existing,,,
207,0.0,0.790006,-3.05636e-06,,0.0,,mongenerator-battery_634_existing,,,
208,0.0,0.7899970000000001,4.38505e-06,,0.0,,mongenerator-battery_634_existing,,,
209,0.0,-78.9999,0.000230394,,0.0,,mongenerator-battery_634_existing,,,
210,0.0,-78.995,0.0069923,,0.0,,mongenerator-battery_634_existing,,,
211,0.0,-79.0,-2.4808800000000002e-05,,0.0,,mongenerator-battery_634_existing,,,
212,0.0,-78.999,0.00174031,,0.0,,mongenerator-battery_634_existing,,,
213,0.0,0.789968,-4.28037e-05,,0.0,,mongenerator-battery_634_existing,,,
214,0.0,79.0023,0.00311125,,0.0,,mongenerator-battery_634_existing,,,
215,0.0,78.9938,-0.00415632,,0.0,,mongenerator-battery_634_existing,,,
216,0.0,0.789999,2.36411e-07,,0.0,,mongenerator-battery_634_existing,,,
217,0.0,0.79,6.036439999999999e-08,,0.0,,mongenerator-battery_634_existing,,,
218,0.0,0.79,1.0893299999999998e-08,,0.0,,mongenerator-battery_634_existing,,,
219,0.0,0.79,1.1241000000000001e-08,,0.0,,mongenerator-battery_634_existing,,,
220,0.0,0.79,4.13982e-09,,0.0,,mongenerator-battery_634_existing,,,
221,0.0,0.79,-2.99036e-08,,0.0,,mongenerator-battery_634_existing,,,
222,0.0,0.79,-6.7337e-08,,0.0,,mongenerator-battery_634_existing,,,
223,0.0,0.79,-9.68323e-08,,0.0,,mongenerator-battery_634_existing,,,
224,0.0,0.789996,-1.99358e-06,,0.0,,mongenerator-battery_634_existing,,,
225,0.0,0.79,7.722460000000001e-08,,0.0,,mongenerator-battery_634_existing,,,
226,0.0,0.79,7.05105e-08,,0.0,,mongenerator-battery_634_existing,,,
227,0.0,0.790022,2.84514e-05,,0.0,,mongenerator-battery_634_existing,,,
228,0.0,78.9997,-0.000312525,,0.0,,mongenerator-battery_634_existing,,,
229,0.0,0.79,2.16575e-07,,0.0,,mongenerator-battery_634_existing,,,
230,0.0,0.790025,2.39309e-05,,0.0,,mongenerator-battery_634_existing,,,
231,0.0,0.7900020000000001,1.65118e-06,,0.0,,mongenerator-battery_634_existing,,,
232,0.0,0.789983,-8.78248e-06,,0.0,,mongenerator-battery_634_existing,,,
233,0.0,0.79,-2.0779099999999998e-07,,0.0,,mongenerator-battery_634_existing,,,
234,0.0,-79.0,-2.3784e-05,,0.0,,mongenerator-battery_634_existing,,,
235,0.0,-78.9985,0.00207325,,0.0,,mongenerator-battery_634_existing,,,
236,0.0,-78.9978,0.00188634,,0.0,,mongenerator-battery_634_existing,,,
237,0.0,0.789967,-4.3931300000000004e-05,,0.0,,mongenerator-battery_634_existing,,,
238,0.0,0.7899970000000001,1.19927e-05,,0.0,,mongenerator-battery_634_existing,,,
239,0.0,0.79,5.81392e-07,,0.0,,mongenerator-battery_634_existing,,,
240,0.0,0.79,4.45049e-07,,0.0,,mongenerator-battery_634_existing,,,
241,0.0,0.79,2.8441099999999997e-07,,0.0,,mongenerator-battery_634_existing,,,
242,0.0,0.79,7.51715e-08,,0.0,,mongenerator-battery_634_existing,,,
243,0.0,0.79,3.69719e-08,,0.0,,mongenerator-battery_634_existing,,,
244,0.0,0.79,1.45248e-08,,0.0,,mongenerator-battery_634_existing,,,
245,0.0,0.79,-1.20376e-07,,0.0,,mongenerator-battery_634_existing,,,
246,0.0,0.79,-2.65027e-07,,0.0,,mongenerator-battery_634_existing,,,
247,0.0,0.79,-3.39018e-07,,0.0,,mongenerator-battery_634_existing,,,
248,0.0,0.79,6.99691e-08,,0.0,,mongenerator-battery_634_existing,,,
249,0.0,0.789999,1.075e-06,,0.0,,mongenerator-battery_634_existing,,,
250,0.0,0.79,-1.0753299999999999e-06,,0.0,,mongenerator-battery_634_existing,,,
251,0.0,79.0,3.02626e-06,,0.0,,mongenerator-battery_634_existing,,,
252,0.0,78.9999,-7.38029e-05,,0.0,,mongenerator-battery_634_existing,,,
253,0.0,78.9999,-8.404030000000001e-05,,0.0,,mongenerator-battery_634_existing,,,
254,0.0,78.9998,-0.000346706,,0.0,,mongenerator-battery_634_existing,,,
255,0.0,0.79,6.16804e-08,,0.0,,mongenerator-battery_634_existing,,,
256,0.0,0.79,-2.98554e-07,,0.0,,mongenerator-battery_634_existing,,,
257,0.0,0.790009,-3.8458699999999995e-06,,0.0,,mongenerator-battery_634_existing,,,
258,0.0,-79.0003,-0.00047747,,0.0,,mongenerator-battery_634_existing,,,
259,0.0,-79.0,-4.16131e-05,,0.0,,mongenerator-battery_634_existing,,,
260,0.0,-78.9986,0.00134679,,0.0,,mongenerator-battery_634_existing,,,
261,0.0,-78.9934,0.00332972,,0.0,,mongenerator-battery_634_existing,,,
262,0.0,0.789999,9.08629e-08,,0.0,,mongenerator-battery_634_existing,,,
263,0.0,0.79,1.3556900000000001e-07,,0.0,,mongenerator-battery_634_existing,,,
264,0.0,0.79,1.12597e-07,,0.0,,mongenerator-battery_634_existing,,,
265,0.0,0.79,6.699169999999999e-08,,0.0,,mongenerator-battery_634_existing,,,
266,0.0,0.79,1.03247e-08,,0.0,,mongenerator-battery_634_existing,,,
267,0.0,0.79,4.5861e-09,,0.0,,mongenerator-battery_634_existing,,,
268,0.0,0.79,4.3926e-10,,0.0,,mongenerator-battery_634_existing,,,
269,0.0,0.79,-3.52489e-08,,0.0,,mongenerator-battery_634_existing,,,
270,0.0,0.79,-7.610310000000001e-08,,0.0,,mongenerator-battery_634_existing,,,
271,0.0,0.79,-1.04226e-07,,0.0,,mongenerator-battery_634_existing,,,
272,0.0,0.789982,2.95296e-07,,0.0,,mongenerator-battery_634_existing,,,
