hour,t(sec),P1(kW),Q1(kvar),P2(kW),Q2(kvar),P3(kW),Q3(kvar),P4(kW),Q4(kvar),Name
1,0.0,-72.0773,2.16171e-06,-73.2883,-1.52984e-05,-71.6457,0.0008966719999999999,0.0,0.0,mongenerator-battery_634_existing
2,0.0,-72.0329,-0.00103971,-73.3374,0.000574602,-71.6453,0.000154709,0.0,0.0,mongenerator-battery_634_existing
3,0.0,0.706245,-4.96969e-06,0.719838,9.1906e-08,0.703163,-6.72533e-06,0.0,0.0,mongenerator-battery_634_existing
4,0.0,0.706129,-4.18872e-07,0.719834,3.4714099999999995e-08,0.7032149999999999,1.16352e-06,0.0,0.0,mongenerator-battery_634_existing
5,0.0,0.703721,-8.25726e-07,0.718497,7.5546e-08,0.699655,-4.968019999999999e-06,0.0,0.0,mongenerator-battery_634_existing
6,0.0,0.7027100000000001,-2.89346e-07,0.71724,1.8381499999999998e-08,0.697257,-3.1089e-06,0.0,0.0,mongenerator-battery_634_existing
7,0.0,0.693971,2.2854099999999998e-07,0.729718,9.22733e-09,0.684535,3.6716800000000002e-06,0.0,0.0,mongenerator-battery_634_existing
8,0.0,0.696034,1.05538e-06,0.719179,-4.40606e-07,0.68687,5.50132e-06,0.0,0.0,mongenerator-battery_634_existing
9,0.0,0.691443,-4.40899e-06,0.720332,2.80549e-07,0.679832,-1.77589e-05,0.0,0.0,mongenerator-battery_634_existing
10,0.0,0.695153,9.24951e-07,0.706449,1.0937e-06,0.683439,9.311839999999999e-06,0.0,0.0,mongenerator-battery_634_existing
11,0.0,0.689673,-6.62355e-06,0.708162,-5.4563100000000006e-09,0.6874,1.1493299999999999e-05,0.0,0.0,mongenerator-battery_634_existing
12,0.0,0.686318,-4.9219499999999995e-06,0.731548,9.88774e-06,0.687706,7.94937e-08,0.0,0.0,mongenerator-battery_634_existing
13,0.0,0.682783,-6.2839999999999995e-06,0.723629,-1.95278e-06,0.688135,1.32048e-06,0.0,0.0,mongenerator-battery_634_existing
14,0.0,0.683054,8.0155e-06,0.727174,-7.54922e-05,0.688996,2.11634e-05,0.0,0.0,mongenerator-battery_634_existing
15,0.0,0.683865,1.72972e-05,0.729949,-5.98561e-05,0.688972,-2.61885e-06,0.0,0.0,mongenerator-battery_634_existing
16,0.0,0.684074,1.772e-06,0.730173,-6.01539e-06,0.6883239999999999,-1.55535e-05,0.0,0.0,mongenerator-battery_634_existing
17,0.0,0.682904,-1.54398e-06,0.724016,-1.6838700000000001e-06,0.686182,-4.64228e-06,0.0,0.0,mongenerator-battery_634_existing
18,0.0,0.684589,2.53152e-06,0.7147939999999999,-2.49418e-06,0.6818489999999999,-8.58453e-06,0.0,0.0,mongenerator-battery_634_existing
19,0.0,0.682894,-1.9568e-06,0.710842,-1.06436e-06,0.677812,-7.63228e-06,0.0,0.0,mongenerator-battery_634_existing
20,0.0,0.68521,4.7474899999999995e-05,0.711264,-1.06583e-05,0.67813,3.96418e-06,0.0,0.0,mongenerator-battery_634_existing
21,0.0,0.688334,2.9978399999999997e-06,0.7122689999999999,1.18464e-07,0.680791,4.8950199999999994e-06,0.0,0.0,mongenerator-battery_634_existing
22,0.0,0.693188,3.892940000000001e-06,0.713875,1.7854600000000002e-07,0.684052,6.301699999999999e-06,0.0,0.0,mongenerator-battery_634_existing
23,0.0,0.704286,4.6530900000000005e-06,0.71611,-2.44688e-07,0.6924819999999999,1.81593e-05,0.0,0.0,mongenerator-battery_634_existing
24,0.0,0.7015560000000001,-2.09626e-06,0.717406,-2.44701e-07,0.698334,1.35432e-05,0.0,0.0,mongenerator-battery_634_existing
25,0.0,0.705597,1.80007e-06,0.717683,-1.6009899999999998e-07,0.700549,5.37573e-06,0.0,0.0,mongenerator-battery_634_existing
26,0.0,0.706956,3.08025e-05,0.717532,2.5255200000000003e-06,0.700638,2.78189e-06,0.0,0.0,mongenerator-battery_634_existing
27,0.0,0.707372,9.0804e-06,0.7174149999999999,1.79738e-06,0.700836,6.71291e-06,0.0,0.0,mongenerator-battery_634_existing
28,0.0,0.707596,4.96642e-06,0.717288,2.37834e-06,0.700854,7.17381e-07,0.0,0.0,mongenerator-battery_634_existing
29,0.0,0.702926,3.3786099999999994e-08,0.7134520000000001,5.17551e-08,0.688534,-2.5694799999999996e-06,0.0,0.0,mongenerator-battery_634_existing
30,0.0,0.7012689999999999,-6.63265e-07,0.710393,-6.928660000000001e-07,0.683704,-1.04779e-05,0.0,0.0,mongenerator-battery_634_existing
31,0.0,0.685887,-2.2163099999999997e-06,0.7055859999999999,1.1565799999999999e-05,0.654247,9.39835e-06,0.0,0.0,mongenerator-battery_634_existing
32,0.0,0.683137,2.80057e-08,0.704174,6.18958e-08,0.651355,2.50147e-06,0.0,0.0,mongenerator-battery_634_existing
33,0.0,0.6691239999999999,-1.84826e-05,0.683429,-1.44089e-07,0.649161,-9.336029999999999e-07,0.0,0.0,mongenerator-battery_634_existing
34,0.0,0.661516,-1.3682e-05,0.686171,3.7637099999999994e-08,0.64644,-1.19354e-06,0.0,0.0,mongenerator-battery_634_existing
35,0.0,0.66272,2.57269e-05,0.689232,-1.69074e-05,0.647525,-2.1835599999999998e-05,0.0,0.0,mongenerator-battery_634_existing
36,0.0,0.657212,-1.18997e-05,0.680914,-7.40707e-08,0.644757,-1.7949799999999998e-06,0.0,0.0,mongenerator-battery_634_existing
37,0.0,0.660582,1.8047000000000002e-05,0.682635,1.85577e-08,0.647131,7.50779e-07,0.0,0.0,mongenerator-battery_634_existing
38,0.0,0.6594760000000001,2.16143e-06,0.7030069999999999,-1.39046e-05,0.644849,3.72524e-07,0.0,0.0,mongenerator-battery_634_existing
39,0.0,0.6600550000000001,-1.18652e-06,0.686315,2.25475e-07,0.645282,1.26103e-07,0.0,0.0,mongenerator-battery_634_existing
40,0.0,0.660051,1.60221e-07,0.679389,-1.6352999999999998e-07,0.644543,-4.4750700000000004e-07,0.0,0.0,mongenerator-battery_634_existing
41,0.0,0.658308,-3.27e-06,0.6981229999999999,1.21353e-05,0.641483,-7.25171e-07,0.0,0.0,mongenerator-battery_634_existing
42,0.0,0.659615,5.59965e-05,0.703084,-9.568030000000001e-05,0.640788,1.76552e-05,0.0,0.0,mongenerator-battery_634_existing
43,0.0,0.66738,1.12463e-06,0.7106140000000001,3.29254e-08,0.660071,4.31575e-06,0.0,0.0,mongenerator-battery_634_existing
44,0.0,0.669662,4.134280000000001e-06,0.6944600000000001,-1.55448e-07,0.660068,4.35939e-07,0.0,0.0,mongenerator-battery_634_existing
45,0.0,0.678503,5.60584e-07,0.6988989999999999,-9.602780000000001e-08,0.673084,6.96044e-06,0.0,0.0,mongenerator-battery_634_existing
46,0.0,0.691145,1.13606e-05,0.700991,-5.31855e-07,0.679949,3.19023e-05,0.0,0.0,mongenerator-battery_634_existing
47,0.0,0.7037359999999999,4.8858499999999994e-08,0.696156,6.595489999999999e-08,0.695852,-5.62577e-06,0.0,0.0,mongenerator-battery_634_existing
48,0.0,0.700779,1.49417e-06,0.714515,1.1748e-08,0.70127,-8.197039999999999e-06,0.0,0.0,mongenerator-battery_634_existing
49,0.0,0.705464,1.14958e-06,0.715318,-9.637729999999999e-08,0.703671,4.6715300000000005e-06,0.0,0.0,mongenerator-battery_634_existing
50,0.0,0.706569,6.15004e-06,0.715431,-1.1715700000000002e-06,0.704296,1.46568e-05,0.0,0.0,mongenerator-battery_634_existing
51,0.0,0.70672,1.09898e-06,0.7153689999999999,1.53625e-07,0.705056,1.81265e-05,0.0,0.0,mongenerator-battery_634_existing
52,0.0,0.7067869999999999,4.02052e-07,0.714854,4.767469999999999e-06,0.705022,-1.4306299999999999e-06,0.0,0.0,mongenerator-battery_634_existing
53,0.0,0.6999,-5.48013e-08,0.710537,1.9341200000000002e-08,0.692315,-2.3454e-06,0.0,0.0,mongenerator-battery_634_existing
54,0.0,0.698276,-5.48235e-07,0.708516,1.82197e-09,0.68717,-9.730349999999999e-06,0.0,0.0,mongenerator-battery_634_existing
55,0.0,0.682845,1.0294500000000001e-05,0.70395,3.2724299999999998e-06,0.657818,1.32281e-05,0.0,0.0,mongenerator-battery_634_existing
56,0.0,0.681316,-8.488950000000001e-08,0.687042,2.86623e-07,0.646964,6.81742e-06,0.0,0.0,mongenerator-battery_634_existing
57,0.0,0.6688850000000001,-1.47676e-05,0.687509,4.281029999999999e-09,0.645778,-3.30181e-07,0.0,0.0,mongenerator-battery_634_existing
58,0.0,0.661933,-1.1085999999999999e-05,0.694573,1.02054e-06,0.643854,-5.185289999999999e-07,0.0,0.0,mongenerator-battery_634_existing
59,0.0,0.663673,1.6453599999999998e-05,0.700399,-4.94462e-05,0.646556,-5.1046400000000006e-05,0.0,0.0,mongenerator-battery_634_existing
60,0.0,0.659007,-1.01926e-05,0.689075,-5.2405e-07,0.646517,-3.06463e-07,0.0,0.0,mongenerator-battery_634_existing
61,0.0,0.662679,6.0548800000000005e-06,0.697291,1.16434e-06,0.649638,8.833920000000001e-07,0.0,0.0,mongenerator-battery_634_existing
62,0.0,0.6611319999999999,-2.5341599999999998e-05,0.694824,2.56996e-05,0.645788,7.43475e-05,0.0,0.0,mongenerator-battery_634_existing
63,0.0,0.661405,1.21895e-06,0.6924359999999999,1.9736e-05,0.645201,1.28062e-05,0.0,0.0,mongenerator-battery_634_existing
64,0.0,0.66117,-5.60384e-06,0.690155,2.06031e-05,0.6441180000000001,2.3277800000000003e-05,0.0,0.0,mongenerator-battery_634_existing
65,0.0,0.659412,-2.0071300000000002e-05,0.683483,6.76925e-05,0.641141,7.25821e-05,0.0,0.0,mongenerator-battery_634_existing
66,0.0,0.662145,2.79003e-06,0.687837,5.49685e-08,0.642722,9.2184e-07,0.0,0.0,mongenerator-battery_634_existing
67,0.0,0.670319,5.30689e-07,0.6964359999999999,-2.0187400000000002e-08,0.6643439999999999,7.187180000000001e-06,0.0,0.0,mongenerator-battery_634_existing
68,0.0,0.673433,4.64715e-06,0.696274,-2.5144199999999998e-08,0.664624,1.3992700000000001e-06,0.0,0.0,mongenerator-battery_634_existing
69,0.0,0.681656,1.9999000000000003e-07,0.700818,-7.06475e-08,0.6775140000000001,8.50236e-06,0.0,0.0,mongenerator-battery_634_existing
70,0.0,0.693775,7.658439999999999e-06,0.702639,-1.7710100000000002e-07,0.683639,3.7961e-05,0.0,0.0,mongenerator-battery_634_existing
71,0.0,0.705943,4.17359e-06,0.713763,3.79025e-06,0.699106,0.00011093700000000001,0.0,0.0,mongenerator-battery_634_existing
72,0.0,0.703025,-2.30518e-06,0.715755,6.48664e-07,0.704697,4.2512299999999996e-05,0.0,0.0,mongenerator-battery_634_existing
73,0.0,0.707954,2.23901e-06,0.717003,3.67318e-07,0.708172,2.76154e-05,0.0,0.0,mongenerator-battery_634_existing
74,0.0,0.709028,-3.2933800000000005e-08,0.717123,1.7289e-07,0.699392,-1.01744e-05,0.0,0.0,mongenerator-battery_634_existing
75,0.0,0.708973,7.2066e-07,0.717237,-1.2575e-06,0.699801,8.33955e-06,0.0,0.0,mongenerator-battery_634_existing
76,0.0,0.708809,3.5244e-07,0.717262,-1.96571e-07,0.699778,-8.411399999999999e-07,0.0,0.0,mongenerator-battery_634_existing
77,0.0,0.703806,-3.0225900000000003e-08,0.7133689999999999,6.1187e-09,0.687413,-1.8326099999999999e-06,0.0,0.0,mongenerator-battery_634_existing
78,0.0,0.702492,-3.43613e-07,0.711812,-3.53015e-08,0.6842090000000001,-5.17285e-06,0.0,0.0,mongenerator-battery_634_existing
79,0.0,0.686491,-1.15129e-07,0.693932,-3.65919e-07,0.6541399999999999,-3.1108799999999996e-06,0.0,0.0,mongenerator-battery_634_existing
80,0.0,0.68352,2.80881e-08,0.6905680000000001,7.70437e-08,0.6507,2.6225e-06,0.0,0.0,mongenerator-battery_634_existing
81,0.0,0.669008,-1.79221e-05,0.6916979999999999,1.3377700000000002e-07,0.648301,-7.315100000000001e-07,0.0,0.0,mongenerator-battery_634_existing
82,0.0,0.661018,-1.37309e-05,0.7021649999999999,3.7307599999999997e-06,0.64608,-5.759749999999999e-07,0.0,0.0,mongenerator-battery_634_existing
83,0.0,0.6621640000000001,4.09755e-05,0.696213,-1.7442700000000002e-06,0.6479010000000001,9.486100000000001e-07,0.0,0.0,mongenerator-battery_634_existing
84,0.0,0.656844,-1.2668299999999999e-05,0.70144,2.1611900000000003e-06,0.6463899999999999,-5.89559e-07,0.0,0.0,mongenerator-battery_634_existing
85,0.0,0.659525,5.5184e-06,0.721388,4.62317e-05,0.648736,1.6179399999999998e-06,0.0,0.0,mongenerator-battery_634_existing
86,0.0,0.657273,-4.69745e-06,0.717866,-6.73408e-06,0.6446430000000001,-2.53185e-06,0.0,0.0,mongenerator-battery_634_existing
87,0.0,0.656885,-7.19565e-07,0.7133970000000001,-8.69306e-06,0.6430640000000001,-1.32169e-06,0.0,0.0,mongenerator-battery_634_existing
88,0.0,0.656349,-9.93504e-07,0.705237,-1.33003e-05,0.641415,-1.76516e-06,0.0,0.0,mongenerator-battery_634_existing
89,0.0,0.6541060000000001,-4.5089300000000006e-06,0.691499,-1.8646700000000002e-05,0.637655,-4.707290000000001e-06,0.0,0.0,mongenerator-battery_634_existing
90,0.0,0.65514,1.02145e-05,0.703922,1.227e-05,0.6364989999999999,5.59773e-06,0.0,0.0,mongenerator-battery_634_existing
91,0.0,0.663204,-1.22223e-06,0.694398,1.3143499999999999e-07,0.655829,-1.29613e-05,0.0,0.0,mongenerator-battery_634_existing
92,0.0,0.664954,5.61599e-05,0.694966,-3.5031e-06,0.656308,1.4712100000000001e-05,0.0,0.0,mongenerator-battery_634_existing
93,0.0,0.6732520000000001,8.247469999999999e-07,0.700137,-1.10898e-07,0.669799,8.263880000000001e-06,0.0,0.0,mongenerator-battery_634_existing
94,0.0,0.6868340000000001,1.72894e-05,0.702122,-5.26397e-07,0.676497,3.39162e-05,0.0,0.0,mongenerator-battery_634_existing
95,0.0,0.6998989999999999,-4.06095e-07,0.71317,-8.467620000000001e-08,0.69245,8.93673e-06,0.0,0.0,mongenerator-battery_634_existing
96,0.0,0.6973779999999999,-2.93372e-06,0.715162,3.80181e-10,0.698182,3.5865300000000004e-05,0.0,0.0,mongenerator-battery_634_existing
97,0.0,0.701333,4.3046499999999995e-06,0.716532,1.49275e-08,0.701697,2.2625e-05,0.0,0.0,mongenerator-battery_634_existing
98,0.0,0.702839,5.52193e-05,0.716763,2.4288999999999997e-06,0.702458,4.1395699999999994e-05,0.0,0.0,mongenerator-battery_634_existing
99,0.0,0.7029529999999999,4.772519999999999e-06,0.716881,9.03947e-07,0.703088,3.40163e-05,0.0,0.0,mongenerator-battery_634_existing
100,0.0,0.703218,1.23128e-05,0.717144,2.7773e-06,0.7039850000000001,4.9312700000000006e-05,0.0,0.0,mongenerator-battery_634_existing
101,0.0,0.698646,-4.55422e-06,0.713773,3.43141e-07,0.692994,-6.72795e-05,0.0,0.0,mongenerator-battery_634_existing
102,0.0,0.697034,-1.75097e-06,0.7117760000000001,8.17148e-08,0.688249,-2.7008000000000003e-05,0.0,0.0,mongenerator-battery_634_existing
103,0.0,0.680208,-5.401550000000001e-07,0.712867,1.19309e-07,0.655993,-3.82235e-06,0.0,0.0,mongenerator-battery_634_existing
104,0.0,0.675822,-3.0981400000000003e-06,0.691476,3.5223400000000006e-08,0.643884,-5.02751e-07,0.0,0.0,mongenerator-battery_634_existing
105,0.0,0.660267,-2.7566e-05,0.691092,1.17638e-08,0.640192,-1.81446e-06,0.0,0.0,mongenerator-battery_634_existing
106,0.0,0.648588,3.52071e-08,0.682138,8.183589999999999e-08,0.640814,3.05108e-06,0.0,0.0,mongenerator-battery_634_existing
107,0.0,0.6466569999999999,-4.99315e-06,0.6889770000000001,1.3054099999999999e-06,0.638667,-9.35718e-07,0.0,0.0,mongenerator-battery_634_existing
108,0.0,0.645652,-4.1456e-06,0.711404,4.6701400000000007e-05,0.641207,1.71155e-06,0.0,0.0,mongenerator-battery_634_existing
109,0.0,0.6482180000000001,7.378489999999999e-06,0.715802,8.26e-06,0.645216,1.20305e-06,0.0,0.0,mongenerator-battery_634_existing
110,0.0,0.645402,-8.111010000000001e-06,0.711133,-8.413849999999999e-06,0.641269,-1.72403e-06,0.0,0.0,mongenerator-battery_634_existing
111,0.0,0.645877,1.7154400000000002e-06,0.706389,-8.46046e-06,0.640578,-4.5058300000000003e-07,0.0,0.0,mongenerator-battery_634_existing
112,0.0,0.646637,2.4221e-06,0.698814,-1.09229e-05,0.640798,-1.58262e-07,0.0,0.0,mongenerator-battery_634_existing
113,0.0,0.644968,-6.75855e-05,0.685148,0.000528354,0.638981,3.96893e-05,0.0,0.0,mongenerator-battery_634_existing
114,0.0,0.648473,-6.7612699999999996e-06,0.700159,8.07605e-06,0.64184,1.0684699999999999e-07,0.0,0.0,mongenerator-battery_634_existing
115,0.0,0.659148,2.09359e-06,0.7093189999999999,-1.11037e-07,0.66583,7.8278e-06,0.0,0.0,mongenerator-battery_634_existing
116,0.0,0.661496,5.9538099999999995e-06,0.6941729999999999,-1.9593e-07,0.667096,5.57971e-06,0.0,0.0,mongenerator-battery_634_existing
117,0.0,0.669898,1.0908200000000001e-06,0.699591,-9.074049999999999e-08,0.680473,6.7552300000000005e-06,0.0,0.0,mongenerator-battery_634_existing
118,0.0,0.685124,-1.36381e-07,0.70229,2.13883e-07,0.678506,-1.77146e-05,0.0,0.0,mongenerator-battery_634_existing
119,0.0,0.699589,9.964939999999999e-08,0.7135199999999999,-6.12083e-08,0.695177,4.85857e-06,0.0,0.0,mongenerator-battery_634_existing
120,0.0,0.697807,-1.81308e-06,0.715971,-1.94793e-07,0.701883,2.45117e-05,0.0,0.0,mongenerator-battery_634_existing
121,0.0,0.702194,2.44792e-06,0.717957,-1.04835e-07,0.70681,1.92423e-05,0.0,0.0,mongenerator-battery_634_existing
122,0.0,0.703661,2.88345e-05,0.7181890000000001,8.55945e-07,0.707561,3.11524e-05,0.0,0.0,mongenerator-battery_634_existing
123,0.0,0.703971,-3.59559e-08,0.718345,1.72846e-07,0.699082,-1.0515e-05,0.0,0.0,mongenerator-battery_634_existing
124,0.0,0.7042,1.9447299999999998e-06,0.718531,-1.91287e-06,0.699415,6.56706e-06,0.0,0.0,mongenerator-battery_634_existing
125,0.0,0.696553,-8.56109e-08,0.714725,5.67765e-09,0.686988,-1.9697400000000002e-06,0.0,0.0,mongenerator-battery_634_existing
126,0.0,0.695083,-7.708800000000001e-07,0.712847,-6.50787e-08,0.6830229999999999,-6.70284e-06,0.0,0.0,mongenerator-battery_634_existing
127,0.0,0.6775760000000001,3.01473e-08,0.698148,-3.22979e-08,0.6600689999999999,3.4741000000000003e-06,0.0,0.0,mongenerator-battery_634_existing
128,0.0,0.673823,-3.0587400000000003e-06,0.692358,4.64853e-07,0.646594,1.6418199999999998e-05,0.0,0.0,mongenerator-battery_634_existing
129,0.0,0.657185,-3.06279e-05,0.686135,-1.5386000000000002e-06,0.638566,-1.35969e-05,0.0,0.0,mongenerator-battery_634_existing
130,0.0,0.64659,1.8547e-08,0.6931579999999999,7.555969999999999e-08,0.6420140000000001,2.94469e-06,0.0,0.0,mongenerator-battery_634_existing
131,0.0,0.644846,6.58471e-05,0.685599,-0.000111114,0.6406,-3.00499e-05,0.0,0.0,mongenerator-battery_634_existing
132,0.0,0.6407579999999999,-1.34276e-05,0.680659,-7.488720000000001e-07,0.638404,-1.1408499999999998e-06,0.0,0.0,mongenerator-battery_634_existing
133,0.0,0.6415770000000001,2.12717e-06,0.701561,2.6632e-05,0.6408159999999999,1.45572e-06,0.0,0.0,mongenerator-battery_634_existing
134,0.0,0.639077,-7.974119999999998e-06,0.698959,-2.55593e-06,0.636811,-2.2685e-06,0.0,0.0,mongenerator-battery_634_existing
135,0.0,0.640764,5.681030000000001e-06,0.699775,9.69893e-07,0.637278,2.61066e-07,0.0,0.0,mongenerator-battery_634_existing
136,0.0,0.642197,4.56853e-06,0.693152,-6.67954e-06,0.638111,1.17008e-07,0.0,0.0,mongenerator-battery_634_existing
137,0.0,0.6427229999999999,1.94859e-05,0.6825720000000001,0.000329068,0.637682,1.1393499999999999e-05,0.0,0.0,mongenerator-battery_634_existing
138,0.0,0.647084,-1.43482e-05,0.69962,1.9566e-06,0.6405609999999999,8.981e-08,0.0,0.0,mongenerator-battery_634_existing
139,0.0,0.656253,2.6081599999999998e-05,0.707008,1.86074e-06,0.661159,2.9427600000000003e-05,0.0,0.0,mongenerator-battery_634_existing
140,0.0,0.65987,9.080360000000001e-06,0.691918,-1.80894e-07,0.6622600000000001,4.89049e-06,0.0,0.0,mongenerator-battery_634_existing
141,0.0,0.667833,1.0251899999999999e-06,0.697103,-9.012260000000001e-08,0.675231,6.91793e-06,0.0,0.0,mongenerator-battery_634_existing
142,0.0,0.686446,6.291729999999999e-07,0.702676,-1.0656499999999999e-07,0.687257,6.711260000000001e-06,0.0,0.0,mongenerator-battery_634_existing
143,0.0,0.701926,-5.6851099999999996e-08,0.714893,1.90931e-07,0.698368,-1.2485899999999998e-05,0.0,0.0,mongenerator-battery_634_existing
144,0.0,0.699872,-1.5859799999999998e-06,0.717108,-2.58504e-07,0.704782,1.3945999999999998e-05,0.0,0.0,mongenerator-battery_634_existing
145,0.0,0.704364,1.58834e-06,0.718834,-1.37566e-07,0.7080810000000001,7.353739999999999e-06,0.0,0.0,mongenerator-battery_634_existing
146,0.0,0.7055899999999999,5.71509e-06,0.718859,-3.7824300000000005e-08,0.707969,-3.8965e-06,0.0,0.0,mongenerator-battery_634_existing
147,0.0,0.705659,-3.7311099999999995e-08,0.718881,1.7380099999999998e-07,0.699555,-1.07128e-05,0.0,0.0,mongenerator-battery_634_existing
148,0.0,0.705719,4.23253e-07,0.7189270000000001,-5.42516e-07,0.6997329999999999,3.953540000000001e-06,0.0,0.0,mongenerator-battery_634_existing
149,0.0,0.703446,-7.26054e-07,0.7176239999999999,8.146789999999999e-08,0.696236,-5.63286e-06,0.0,0.0,mongenerator-battery_634_existing
150,0.0,0.702347,-3.03697e-07,0.716334,2.2928599999999998e-08,0.693774,-3.6848400000000005e-06,0.0,0.0,mongenerator-battery_634_existing
151,0.0,0.693584,-7.17663e-08,0.707002,-5.71919e-08,0.6808609999999999,-1.76072e-06,0.0,0.0,mongenerator-battery_634_existing
152,0.0,0.691867,-8.42083e-08,0.707654,-3.08863e-08,0.671419,-1.53192e-06,0.0,0.0,mongenerator-battery_634_existing
153,0.0,0.683477,-1.13753e-05,0.715379,2.53836e-06,0.670268,-2.9798000000000003e-06,0.0,0.0,mongenerator-battery_634_existing
154,0.0,0.674701,-7.01264e-08,0.710964,-6.283e-08,0.661612,-1.37658e-06,0.0,0.0,mongenerator-battery_634_existing
155,0.0,0.669081,5.39601e-06,0.7158260000000001,-2.40373e-08,0.6632279999999999,5.7086e-06,0.0,0.0,mongenerator-battery_634_existing
