hour,t(sec),V1,VAngle1,V2,VAngle2,I1,IAngle1,I2,IAngle2,Name,V3,VAngle3,I3,IAngle3,V4,VAngle4,I4,IAngle4,kv,V1(PU),V2(PU),V3(PU)
1,0.0,2254.27,111.618,0.0,0.0,20.0097,111.616,20.0097,-68.3835,monload-611_runway,,,,,,,,,2.4,0.9392791666666667,0.0,
2,0.0,2253.84,111.60600000000001,0.0,0.0,21.23,111.60600000000001,21.23,-68.3941,monload-611_runway,,,,,,,,,2.4,0.9391,0.0,
3,0.0,2334.9,113.596,0.0,0.0,18.735,113.595,18.735,-66.4052,monload-611_runway,,,,,,,,,2.4,0.972875,0.0,
4,0.0,2335.12,113.601,0.0,0.0,18.1696,113.601,18.1696,-66.3994,monload-611_runway,,,,,,,,,2.4,0.9729666666666666,0.0,
5,0.0,2325.26,113.36399999999999,0.0,0.0,18.3433,113.365,18.3433,-66.6346,monload-611_runway,,,,,,,,,2.4,0.9688583333333334,0.0,
6,0.0,2318.99,113.21799999999999,0.0,0.0,19.8621,113.219,19.8621,-66.7812,monload-611_runway,,,,,,,,,2.4,0.9662458333333332,0.0,
7,0.0,2282.04,112.337,0.0,0.0,29.8483,112.337,29.8483,-67.6629,monload-611_runway,,,,,,,,,2.4,0.95085,0.0,
8,0.0,2287.46,112.461,0.0,0.0,31.8618,112.459,31.8618,-67.541,monload-611_runway,,,,,,,,,2.4,0.9531083333333333,0.0,
9,0.0,2278.32,112.23100000000001,0.0,0.0,43.9924,112.23,43.9924,-67.7697,monload-611_runway,,,,,,,,,2.4,0.9493,0.0,
10,0.0,2315.38,113.10700000000001,0.0,0.0,37.8158,113.113,37.8158,-66.8872,monload-611_runway,,,,,,,,,2.4,0.9647416666666667,0.0,
11,0.0,2343.05,113.775,0.0,0.0,26.7204,113.76899999999999,26.7204,-66.2311,monload-611_runway,,,,,,,,,2.4,0.9762708333333334,0.0,
12,0.0,2415.84,115.611,0.0,0.0,25.0426,115.60700000000001,25.0426,-64.3925,monload-611_runway,,,,,,,,,2.4,1.0066000000000002,0.0,
13,0.0,2328.96,113.441,0.0,0.0,24.9564,113.443,24.9564,-66.5569,monload-611_runway,,,,,,,,,2.4,0.9704,0.0,
14,0.0,2381.8,114.727,0.0,0.0,24.9959,114.71600000000001,24.9959,-65.2844,monload-611_runway,,,,,,,,,2.4,0.9924166666666667,0.0,
15,0.0,2424.11,115.77799999999999,0.0,0.0,24.9268,115.76799999999999,24.9268,-64.2318,monload-611_runway,,,,,,,,,2.4,1.0100458333333333,0.0,
16,0.0,2432.1,115.98100000000001,0.0,0.0,24.7866,115.979,24.7866,-64.0207,monload-611_runway,,,,,,,,,2.4,1.013375,0.0,
17,0.0,2357.79,114.15100000000001,0.0,0.0,25.989,114.152,25.989,-65.8484,monload-611_runway,,,,,,,,,2.4,0.9824125,0.0,
18,0.0,2279.91,112.291,0.0,0.0,31.4288,112.291,31.4288,-67.7093,monload-611_runway,,,,,,,,,2.4,0.9499624999999999,0.0,
19,0.0,2265.5,111.95100000000001,0.0,0.0,42.8649,111.95200000000001,42.8649,-68.0481,monload-611_runway,,,,,,,,,2.4,0.9439583333333333,0.0,
20,0.0,2266.05,111.962,0.0,0.0,45.0109,111.963,45.0109,-68.0367,monload-611_runway,,,,,,,,,2.4,0.9441875000000001,0.0,
21,0.0,2272.54,112.115,0.0,0.0,47.6438,112.115,47.6438,-67.8848,monload-611_runway,,,,,,,,,2.4,0.9468916666666667,0.0,
22,0.0,2280.38,112.295,0.0,0.0,46.4444,112.295,46.4444,-67.7051,monload-611_runway,,,,,,,,,2.4,0.9501583333333333,0.0,
23,0.0,2304.75,112.876,0.0,0.0,35.6973,112.87100000000001,35.6973,-67.1286,monload-611_runway,,,,,,,,,2.4,0.9603125,0.0,
24,0.0,2321.97,113.289,0.0,0.0,22.9122,113.286,22.9122,-66.7137,monload-611_runway,,,,,,,,,2.4,0.9674875,0.0,
25,0.0,2328.21,113.43799999999999,0.0,0.0,18.6667,113.43700000000001,18.6667,-66.5633,monload-611_runway,,,,,,,,,2.4,0.9700875,0.0,
26,0.0,2328.56,113.446,0.0,0.0,17.8494,113.446,17.8494,-66.5542,monload-611_runway,,,,,,,,,2.4,0.9702333333333333,0.0,
27,0.0,2329.29,113.465,0.0,0.0,16.9263,113.463,16.9263,-66.5366,monload-611_runway,,,,,,,,,2.4,0.9705374999999999,0.0,
28,0.0,2329.38,113.46700000000001,0.0,0.0,17.0116,113.46700000000001,17.0116,-66.533,monload-611_runway,,,,,,,,,2.4,0.9705750000000001,0.0,
29,0.0,2294.31,112.62200000000001,0.0,0.0,17.6802,112.62299999999999,17.6802,-67.377,monload-611_runway,,,,,,,,,2.4,0.9559624999999999,0.0,
30,0.0,2280.87,112.306,0.0,0.0,21.26,112.307,21.26,-67.693,monload-611_runway,,,,,,,,,2.4,0.9503625,0.0,
31,0.0,2315.62,113.14,0.0,0.0,33.1809,113.13799999999999,33.1809,-66.8623,monload-611_runway,,,,,,,,,2.4,0.9648416666666666,0.0,
32,0.0,2251.25,111.646,0.0,0.0,34.3867,111.64299999999999,34.3867,-68.3574,monload-611_runway,,,,,,,,,2.4,0.9380208333333333,0.0,
33,0.0,2274.45,112.176,0.0,0.0,30.6965,112.176,30.6965,-67.8238,monload-611_runway,,,,,,,,,2.4,0.9476874999999999,0.0,
34,0.0,2241.43,111.32600000000001,0.0,0.0,30.5436,111.32799999999999,30.5436,-68.6718,monload-611_runway,,,,,,,,,2.4,0.9339291666666666,0.0,
35,0.0,2215.23,110.33200000000001,0.0,0.0,24.3827,110.335,24.3827,-69.6653,monload-611_runway,,,,,,,,,2.4,0.9230125,0.0,
36,0.0,2251.84,111.31,0.0,0.0,25.6656,111.31,25.6656,-68.6903,monload-611_runway,,,,,,,,,2.4,0.9382666666666667,0.0,
37,0.0,2307.02,112.492,0.0,0.0,26.4116,112.488,26.4116,-67.5119,monload-611_runway,,,,,,,,,2.4,0.9612583333333333,0.0,
38,0.0,2332.04,113.195,0.0,0.0,25.3752,113.191,25.3752,-66.8088,monload-611_runway,,,,,,,,,2.4,0.9716833333333333,0.0,
39,0.0,2400.35,115.05799999999999,0.0,0.0,24.5082,115.06,24.5082,-64.9397,monload-611_runway,,,,,,,,,2.4,1.0001458333333333,0.0,
40,0.0,2291.7,112.417,0.0,0.0,24.748,112.42,24.748,-67.58,monload-611_runway,,,,,,,,,2.4,0.9548749999999999,0.0,
41,0.0,2334.61,113.613,0.0,0.0,25.8685,113.609,25.8685,-66.3913,monload-611_runway,,,,,,,,,2.4,0.9727541666666667,0.0,
42,0.0,2261.57,111.84700000000001,0.0,0.0,31.3935,111.848,31.3935,-68.1521,monload-611_runway,,,,,,,,,2.4,0.9423208333333334,0.0,
43,0.0,2214.43,110.43700000000001,0.0,0.0,37.6238,110.441,37.6238,-69.5592,monload-611_runway,,,,,,,,,2.4,0.9226791666666666,0.0,
44,0.0,2214.31,110.427,0.0,0.0,39.9258,110.427,39.9258,-69.5731,monload-611_runway,,,,,,,,,2.4,0.9226291666666666,0.0,
45,0.0,2245.22,111.14,0.0,0.0,44.3965,111.14,44.3965,-68.8603,monload-611_runway,,,,,,,,,2.4,0.9355083333333333,0.0,
46,0.0,2185.0,109.704,0.0,0.0,40.4404,109.70200000000001,40.4404,-70.2979,monload-611_runway,,,,,,,,,2.4,0.9104166666666667,0.0,
47,0.0,2226.57,110.65100000000001,0.0,0.0,30.0883,110.65299999999999,30.0883,-69.3468,monload-611_runway,,,,,,,,,2.4,0.9277375000000001,0.0,
48,0.0,2240.89,110.986,0.0,0.0,20.7671,110.98700000000001,20.7671,-69.0133,monload-611_runway,,,,,,,,,2.4,0.9337041666666667,0.0,
49,0.0,2327.16,113.064,0.0,0.0,18.8942,113.06299999999999,18.8942,-66.9365,monload-611_runway,,,,,,,,,2.4,0.9696499999999999,0.0,
50,0.0,2329.06,113.11,0.0,0.0,18.3946,113.10600000000001,18.3946,-66.8937,monload-611_runway,,,,,,,,,2.4,0.9704416666666666,0.0,
51,0.0,2331.39,113.167,0.0,0.0,17.8874,113.162,17.8874,-66.8378,monload-611_runway,,,,,,,,,2.4,0.9714124999999999,0.0,
52,0.0,2331.2,113.163,0.0,0.0,18.4384,113.163,18.4384,-66.8369,monload-611_runway,,,,,,,,,2.4,0.9713333333333333,0.0,
53,0.0,2295.16,112.304,0.0,0.0,19.6598,112.304,19.6598,-67.6955,monload-611_runway,,,,,,,,,2.4,0.9563166666666666,0.0,
54,0.0,2280.69,111.96600000000001,0.0,0.0,23.9779,111.96799999999999,23.9779,-68.0315,monload-611_runway,,,,,,,,,2.4,0.9502875000000001,0.0,
55,0.0,2280.63,112.012,0.0,0.0,35.7182,112.01299999999999,35.7182,-67.9874,monload-611_runway,,,,,,,,,2.4,0.9502625,0.0,
56,0.0,2252.7,111.355,0.0,0.0,35.5234,111.355,35.5234,-68.6453,monload-611_runway,,,,,,,,,2.4,0.9386249999999999,0.0,
57,0.0,2341.51,113.428,0.0,0.0,31.5574,113.426,31.5574,-66.5735,monload-611_runway,,,,,,,,,2.4,0.9756291666666668,0.0,
58,0.0,2270.23,111.635,0.0,0.0,31.1122,111.63600000000001,31.1122,-68.3643,monload-611_runway,,,,,,,,,2.4,0.9459291666666667,0.0,
59,0.0,2376.53,114.479,0.0,0.0,24.7817,114.48200000000001,24.7817,-65.518,monload-611_runway,,,,,,,,,2.4,0.9902208333333334,0.0,
60,0.0,2279.45,112.211,0.0,0.0,25.9023,112.21,25.9023,-67.7896,monload-611_runway,,,,,,,,,2.4,0.9497708333333332,0.0,
61,0.0,2388.78,114.869,0.0,0.0,27.1001,114.869,27.1001,-65.1308,monload-611_runway,,,,,,,,,2.4,0.9953250000000001,0.0,
62,0.0,2376.46,114.561,0.0,0.0,27.5835,114.56200000000001,27.5835,-65.438,monload-611_runway,,,,,,,,,2.4,0.9901916666666667,0.0,
63,0.0,2333.46,113.507,0.0,0.0,27.9419,113.506,27.9419,-66.4939,monload-611_runway,,,,,,,,,2.4,0.972275,0.0,
64,0.0,2305.41,112.835,0.0,0.0,28.0794,112.835,28.0794,-67.1648,monload-611_runway,,,,,,,,,2.4,0.9605874999999999,0.0,
65,0.0,2299.71,112.777,0.0,0.0,28.5183,112.77799999999999,28.5183,-67.222,monload-611_runway,,,,,,,,,2.4,0.9582125,0.0,
66,0.0,2264.08,111.90299999999999,0.0,0.0,32.3571,111.898,32.3571,-68.1018,monload-611_runway,,,,,,,,,2.4,0.9433666666666667,0.0,
67,0.0,2224.7,110.66799999999999,0.0,0.0,37.7393,110.67200000000001,37.7393,-69.3279,monload-611_runway,,,,,,,,,2.4,0.9269583333333332,0.0,
68,0.0,2225.09,110.676,0.0,0.0,39.8321,110.676,39.8321,-69.3242,monload-611_runway,,,,,,,,,2.4,0.9271208333333334,0.0,
69,0.0,2179.14,109.575,0.0,0.0,42.7126,109.574,42.7126,-70.4261,monload-611_runway,,,,,,,,,2.4,0.907975,0.0,
70,0.0,2194.46,109.919,0.0,0.0,40.2889,109.91799999999999,40.2889,-70.0819,monload-611_runway,,,,,,,,,2.4,0.9143583333333334,0.0,
71,0.0,2314.27,112.762,0.0,0.0,30.874000000000002,112.764,30.874000000000002,-67.2357,monload-611_runway,,,,,,,,,2.4,0.9642791666666667,0.0,
72,0.0,2330.12,113.13799999999999,0.0,0.0,21.1947,113.134,21.1947,-66.8657,monload-611_runway,,,,,,,,,2.4,0.9708833333333333,0.0,
73,0.0,2339.68,113.36399999999999,0.0,0.0,18.5785,113.36200000000001,18.5785,-66.6378,monload-611_runway,,,,,,,,,2.4,0.9748666666666665,0.0,
74,0.0,2340.91,113.39399999999999,0.0,0.0,17.7129,113.391,17.7129,-66.6092,monload-611_runway,,,,,,,,,2.4,0.9753791666666666,0.0,
75,0.0,2342.22,113.425,0.0,0.0,16.7422,113.42200000000001,16.7422,-66.578,monload-611_runway,,,,,,,,,2.4,0.9759249999999999,0.0,
76,0.0,2342.08,113.42200000000001,0.0,0.0,16.8093,113.42200000000001,16.8093,-66.5778,monload-611_runway,,,,,,,,,2.4,0.9758666666666667,0.0,
77,0.0,2307.0,112.58200000000001,0.0,0.0,17.5128,112.583,17.5128,-67.417,monload-611_runway,,,,,,,,,2.4,0.96125,0.0,
78,0.0,2297.96,112.37200000000001,0.0,0.0,20.9229,112.368,20.9229,-67.6317,monload-611_runway,,,,,,,,,2.4,0.9574833333333334,0.0,
79,0.0,2294.96,112.34200000000001,0.0,0.0,32.7171,112.34200000000001,32.7171,-67.6576,monload-611_runway,,,,,,,,,2.4,0.9562333333333334,0.0,
80,0.0,2262.47,111.57,0.0,0.0,34.7096,111.569,34.7096,-68.4307,monload-611_runway,,,,,,,,,2.4,0.9426958333333333,0.0,
81,0.0,2321.56,112.88,0.0,0.0,30.82,112.881,30.82,-67.1192,monload-611_runway,,,,,,,,,2.4,0.9673166666666666,0.0,
82,0.0,2447.67,116.38600000000001,0.0,0.0,30.1071,116.38600000000001,30.1071,-63.6139,monload-611_runway,,,,,,,,,2.4,1.0198625000000001,0.0,
83,0.0,2521.33,119.015,0.0,0.0,23.0917,119.015,23.0917,-60.9851,monload-611_runway,,,,,,,,,2.4,1.0505541666666667,0.0,
84,0.0,2586.52,120.822,0.0,0.0,24.2445,120.821,24.2445,-59.1785,monload-611_runway,,,,,,,,,2.4,1.0777166666666667,0.0,
85,0.0,2602.96,121.76299999999999,0.0,0.0,25.5469,121.76100000000001,25.5469,-58.2387,monload-611_runway,,,,,,,,,2.4,1.0845666666666667,0.0,
86,0.0,2632.55,122.71700000000001,0.0,0.0,27.2251,122.721,27.2251,-57.2791,monload-611_runway,,,,,,,,,2.4,1.0968958333333334,0.0,
87,0.0,2577.28,121.09899999999999,0.0,0.0,27.0033,121.096,27.0033,-58.9042,monload-611_runway,,,,,,,,,2.4,1.0738666666666667,0.0,
88,0.0,2475.51,118.272,0.0,0.0,26.3335,118.26799999999999,26.3335,-61.7316,monload-611_runway,,,,,,,,,2.4,1.0314625000000002,0.0,
89,0.0,2324.22,113.63,0.0,0.0,27.5633,113.62899999999999,27.5633,-66.3706,monload-611_runway,,,,,,,,,2.4,0.9684249999999999,0.0,
90,0.0,2276.49,112.19,0.0,0.0,33.7667,112.186,33.7667,-67.8137,monload-611_runway,,,,,,,,,2.4,0.9485374999999999,0.0,
91,0.0,2262.46,111.92,0.0,0.0,41.1264,111.921,41.1264,-68.0794,monload-611_runway,,,,,,,,,2.4,0.9426916666666667,0.0,
92,0.0,2263.3,111.93799999999999,0.0,0.0,44.2024,111.94,44.2024,-68.0598,monload-611_runway,,,,,,,,,2.4,0.9430416666666668,0.0,
93,0.0,2236.51,110.935,0.0,0.0,48.2849,110.939,48.2849,-69.0615,monload-611_runway,,,,,,,,,2.4,0.9318791666666667,0.0,
94,0.0,2175.53,109.485,0.0,0.0,44.1776,109.48899999999999,44.1776,-70.5112,monload-611_runway,,,,,,,,,2.4,0.9064708333333334,0.0,
95,0.0,2216.43,110.41799999999999,0.0,0.0,33.3777,110.414,33.3777,-69.5862,monload-611_runway,,,,,,,,,2.4,0.9235125,0.0,
96,0.0,2231.64,110.766,0.0,0.0,23.4749,110.764,23.4749,-69.2355,monload-611_runway,,,,,,,,,2.4,0.92985,0.0,
97,0.0,2320.29,112.89200000000001,0.0,0.0,21.7964,112.891,21.7964,-67.1087,monload-611_runway,,,,,,,,,2.4,0.9667875,0.0,
98,0.0,2322.52,112.945,0.0,0.0,20.8093,112.94,20.8093,-67.0597,monload-611_runway,,,,,,,,,2.4,0.9677166666666667,0.0,
99,0.0,2324.38,112.99,0.0,0.0,19.5335,112.986,19.5335,-67.0143,monload-611_runway,,,,,,,,,2.4,0.9684916666666668,0.0,
100,0.0,2326.97,113.052,0.0,0.0,19.3539,113.046,19.3539,-66.9542,monload-611_runway,,,,,,,,,2.4,0.9695708333333333,0.0,
101,0.0,2295.44,112.302,0.0,0.0,19.795,112.303,19.795,-67.6974,monload-611_runway,,,,,,,,,2.4,0.9564333333333334,0.0,
102,0.0,2282.24,111.994,0.0,0.0,23.6849,111.99700000000001,23.6849,-68.0031,monload-611_runway,,,,,,,,,2.4,0.9509333333333333,0.0,
103,0.0,2275.31,111.87700000000001,0.0,0.0,38.335,111.87100000000001,38.335,-68.1293,monload-611_runway,,,,,,,,,2.4,0.9480458333333334,0.0,
104,0.0,2243.05,111.113,0.0,0.0,41.9726,111.113,41.9726,-68.8867,monload-611_runway,,,,,,,,,2.4,0.9346041666666668,0.0,
105,0.0,2306.85,112.52,0.0,0.0,39.7651,112.522,39.7651,-67.4776,monload-611_runway,,,,,,,,,2.4,0.9611875,0.0,
106,0.0,2426.15,115.83200000000001,0.0,0.0,42.458999999999996,115.833,42.458999999999996,-64.1674,monload-611_runway,,,,,,,,,2.4,1.0108958333333333,0.0,
107,0.0,2507.66,118.234,0.0,0.0,36.7749,118.234,36.7749,-61.7662,monload-611_runway,,,,,,,,,2.4,1.0448583333333332,0.0,
108,0.0,2570.24,120.375,0.0,0.0,35.6198,120.37299999999999,35.6198,-59.6266,monload-611_runway,,,,,,,,,2.4,1.0709333333333333,0.0,
109,0.0,2604.21,121.346,0.0,0.0,36.5135,121.351,36.5135,-58.6487,monload-611_runway,,,,,,,,,2.4,1.0850875,0.0,
110,0.0,2615.5,122.24600000000001,0.0,0.0,37.5203,122.241,37.5203,-57.75899999999999,monload-611_runway,,,,,,,,,2.4,1.0897916666666667,0.0,
111,0.0,2558.72,120.605,0.0,0.0,37.1175,120.601,37.1175,-59.3986,monload-611_runway,,,,,,,,,2.4,1.0661333333333332,0.0,
112,0.0,2455.16,117.75399999999999,0.0,0.0,35.8436,117.751,35.8436,-62.2491,monload-611_runway,,,,,,,,,2.4,1.0229833333333334,0.0,
113,0.0,2305.83,113.209,0.0,0.0,37.3236,113.205,37.3236,-66.7945,monload-611_runway,,,,,,,,,2.4,0.9607625,0.0,
114,0.0,2269.6,112.04700000000001,0.0,0.0,42.1477,112.044,42.1477,-67.9558,monload-611_runway,,,,,,,,,2.4,0.9456666666666667,0.0,
115,0.0,2264.77,111.99600000000001,0.0,0.0,47.9537,111.99700000000001,47.9537,-68.0035,monload-611_runway,,,,,,,,,2.4,0.9436541666666667,0.0,
116,0.0,2267.34,112.04700000000001,0.0,0.0,50.5847,112.04799999999999,50.5847,-67.9525,monload-611_runway,,,,,,,,,2.4,0.944725,0.0,
117,0.0,2240.76,111.045,0.0,0.0,54.1059,111.04799999999999,54.1059,-68.9519,monload-611_runway,,,,,,,,,2.4,0.9336500000000001,0.0,
118,0.0,2257.59,111.43,0.0,0.0,51.916000000000004,111.435,51.916000000000004,-68.5654,monload-611_runway,,,,,,,,,2.4,0.9406625000000001,0.0,
119,0.0,2302.23,112.478,0.0,0.0,40.733000000000004,112.47,40.733000000000004,-67.5297,monload-611_runway,,,,,,,,,2.4,0.9592625,0.0,
120,0.0,2321.36,112.929,0.0,0.0,29.5798,112.92200000000001,29.5798,-67.0777,monload-611_runway,,,,,,,,,2.4,0.9672333333333334,0.0,
121,0.0,2334.78,113.244,0.0,0.0,25.8806,113.23899999999999,25.8806,-66.7607,monload-611_runway,,,,,,,,,2.4,0.972825,0.0,
122,0.0,2336.95,113.296,0.0,0.0,24.5759,113.289,24.5759,-66.7112,monload-611_runway,,,,,,,,,2.4,0.9737291666666666,0.0,
123,0.0,2339.02,113.345,0.0,0.0,22.9971,113.339,22.9971,-66.6612,monload-611_runway,,,,,,,,,2.4,0.9745916666666666,0.0,
124,0.0,2340.0,113.368,0.0,0.0,22.3842,113.365,22.3842,-66.6348,monload-611_runway,,,,,,,,,2.4,0.975,0.0,
125,0.0,2304.65,112.523,0.0,0.0,22.8134,112.525,22.8134,-67.4754,monload-611_runway,,,,,,,,,2.4,0.9602708333333334,0.0,
126,0.0,2293.59,112.266,0.0,0.0,26.7316,112.27,26.7316,-67.7305,monload-611_runway,,,,,,,,,2.4,0.9556625000000001,0.0,
127,0.0,2213.53,110.397,0.0,0.0,40.0311,110.397,40.0311,-69.6035,monload-611_runway,,,,,,,,,2.4,0.9223041666666667,0.0,
128,0.0,2178.74,109.59700000000001,0.0,0.0,43.4138,109.6,43.4138,-70.3997,monload-611_runway,,,,,,,,,2.4,0.9078083333333332,0.0,
129,0.0,2269.62,111.666,0.0,0.0,43.8459,111.667,43.8459,-68.3333,monload-611_runway,,,,,,,,,2.4,0.9456749999999999,0.0,
130,0.0,2374.91,114.57799999999999,0.0,0.0,44.3574,114.579,44.3574,-65.4209,monload-611_runway,,,,,,,,,2.4,0.9895458333333332,0.0,
131,0.0,2482.32,117.57799999999999,0.0,0.0,38.3172,117.57799999999999,38.3172,-62.4222,monload-611_runway,,,,,,,,,2.4,1.0343,0.0,
132,0.0,2429.35,116.20700000000001,0.0,0.0,39.0492,116.209,39.0492,-63.7906,monload-611_runway,,,,,,,,,2.4,1.0122291666666667,0.0,
133,0.0,2487.8,117.742,0.0,0.0,39.7514,117.742,39.7514,-62.2584,monload-611_runway,,,,,,,,,2.4,1.0365833333333334,0.0,
134,0.0,2536.33,119.564,0.0,0.0,40.580999999999996,119.561,40.580999999999996,-60.4387,monload-611_runway,,,,,,,,,2.4,1.0568041666666665,0.0,
135,0.0,2538.99,119.635,0.0,0.0,40.318000000000005,119.632,40.318000000000005,-60.3682,monload-611_runway,,,,,,,,,2.4,1.0579124999999998,0.0,
136,0.0,2438.25,116.92299999999999,0.0,0.0,38.751,116.92399999999999,38.751,-63.0758,monload-611_runway,,,,,,,,,2.4,1.0159375,0.0,
137,0.0,2303.05,112.8,0.0,0.0,37.858000000000004,112.79700000000001,37.858000000000004,-67.2028,monload-611_runway,,,,,,,,,2.4,0.9596041666666667,0.0,
138,0.0,2263.35,111.905,0.0,0.0,42.5701,111.906,42.5701,-68.0939,monload-611_runway,,,,,,,,,2.4,0.9430624999999999,0.0,
139,0.0,2254.87,111.772,0.0,0.0,49.3959,111.772,49.3959,-68.2275,monload-611_runway,,,,,,,,,2.4,0.9395291666666666,0.0,
140,0.0,2256.99,111.81299999999999,0.0,0.0,52.1171,111.81299999999999,52.1171,-68.1871,monload-611_runway,,,,,,,,,2.4,0.9404124999999999,0.0,
141,0.0,2228.92,110.781,0.0,0.0,55.8396,110.785,55.8396,-69.2155,monload-611_runway,,,,,,,,,2.4,0.9287166666666667,0.0,
142,0.0,2256.95,111.416,0.0,0.0,51.1155,111.42399999999999,51.1155,-68.5757,monload-611_runway,,,,,,,,,2.4,0.9403958333333332,0.0,
143,0.0,2310.81,112.677,0.0,0.0,37.0848,112.676,37.0848,-67.3241,monload-611_runway,,,,,,,,,2.4,0.9628375,0.0,
144,0.0,2329.33,113.115,0.0,0.0,25.3175,113.109,25.3175,-66.8912,monload-611_runway,,,,,,,,,2.4,0.9705541666666666,0.0,
145,0.0,2338.27,113.32600000000001,0.0,0.0,23.1146,113.323,23.1146,-66.6772,monload-611_runway,,,,,,,,,2.4,0.9742791666666667,0.0,
146,0.0,2337.84,113.315,0.0,0.0,22.7156,113.31700000000001,22.7156,-66.6833,monload-611_runway,,,,,,,,,2.4,0.9741000000000001,0.0,
147,0.0,2340.41,113.37700000000001,0.0,0.0,19.4987,113.369,19.4987,-66.6306,monload-611_runway,,,,,,,,,2.4,0.9751708333333333,0.0,
148,0.0,2341.03,113.39299999999999,0.0,0.0,19.1538,113.391,19.1538,-66.6093,monload-611_runway,,,,,,,,,2.4,0.9754291666666668,0.0,
149,0.0,2331.3,113.161,0.0,0.0,19.44,113.165,19.44,-66.8351,monload-611_runway,,,,,,,,,2.4,0.9713750000000001,0.0,
150,0.0,2324.84,113.012,0.0,0.0,20.7921,113.014,20.7921,-66.9856,monload-611_runway,,,,,,,,,2.4,0.9686833333333333,0.0,
151,0.0,2287.66,112.12700000000001,0.0,0.0,30.6613,112.12899999999999,30.6613,-67.8711,monload-611_runway,,,,,,,,,2.4,0.9531916666666667,0.0,
152,0.0,2262.11,111.525,0.0,0.0,32.2882,111.525,32.2882,-68.4754,monload-611_runway,,,,,,,,,2.4,0.9425458333333334,0.0,
153,0.0,2369.26,114.40700000000001,0.0,0.0,45.5458,114.40899999999999,45.5458,-65.5911,monload-611_runway,,,,,,,,,2.4,0.9871916666666668,0.0,
154,0.0,2345.94,113.82700000000001,0.0,0.0,40.6198,113.831,40.6198,-66.1693,monload-611_runway,,,,,,,,,2.4,0.977475,0.0,
155,0.0,2522.58,119.11200000000001,0.0,0.0,31.8525,119.119,31.8525,-60.8805,monload-611_runway,,,,,,,,,2.4,1.051075,0.0,
156,0.0,2604.23,121.352,0.0,0.0,32.3906,121.352,32.3906,-58.6483,monload-611_runway,,,,,,,,,2.4,1.0850958333333334,0.0,
157,0.0,2567.47,120.321,0.0,0.0,32.6311,120.319,32.6311,-59.6808,monload-611_runway,,,,,,,,,2.4,1.0697791666666665,0.0,
158,0.0,2609.27,121.584,0.0,0.0,32.891999999999996,121.588,32.891999999999996,-58.412,monload-611_runway,,,,,,,,,2.4,1.0871958333333334,0.0,
