hour,t(sec),V1,VAngle1,V2,VAngle2,V3,VAngle3,I1,IAngle1,I2,IAngle2,I3,IAngle3,Name,P1(kW),P2(kW),P3(kW)
1,0.0,912.462,-157.673,,,,,51.8589,60.0,,,,,monisource-isource_newdiesel675_1_shape,47.319275611799995,,
2,0.0,907.916,-158.092,,,,,51.1152,60.0,,,,,monisource-isource_newdiesel675_1_shape,46.4083079232,,
3,0.0,909.2310000000001,-157.966,,,,,51.3338,60.0,,,,,monisource-isource_newdiesel675_1_shape,46.6742823078,,
4,0.0,909.438,-157.94899999999998,,,,,51.3647,60.0,,,,,monisource-isource_newdiesel675_1_shape,46.7130100386,,
5,0.0,926.18,-156.336,,,,,54.2909,60.0,,,,,monisource-isource_newdiesel675_1_shape,50.283145762,,
6,0.0,938.7869999999999,-155.076,,,,,56.7369,60.0,,,,,monisource-isource_newdiesel675_1_shape,53.263864140299994,,
7,0.0,973.174,-151.417,,,,,64.8425,60.0,,,,,monisource-isource_newdiesel675_1_shape,63.103035095,,
8,0.0,949.8839999999999,-153.68,,,,,59.4375,60.0,,,,,monisource-isource_newdiesel675_1_shape,56.458730249999995,,
9,0.0,954.775,-153.111,,,,,59.4501,60.0,,,,,monisource-isource_newdiesel675_1_shape,56.7614692275,,
10,0.0,945.836,-154.05200000000002,,,,,54.9902,60.0,,,,,monisource-isource_newdiesel675_1_shape,52.011710807200004,,
11,0.0,939.575,-154.69799999999998,,,,,52.1623,60.0,,,,,monisource-isource_newdiesel675_1_shape,49.010393022500004,,
12,0.0,940.69,-154.583,,,,,41.8112,60.0,,,,,monisource-isource_newdiesel675_1_shape,39.331377728,,
13,0.0,939.067,-154.75,,,,,53.5644,60.0,,,,,monisource-isource_newdiesel675_1_shape,50.300560414799996,,
14,0.0,935.6060000000001,-155.102,,,,,48.0445,60.0,,,,,monisource-isource_newdiesel675_1_shape,44.950722467000006,,
15,0.0,935.7810000000001,-155.082,,,,,43.9119,60.0,,,,,monisource-isource_newdiesel675_1_shape,41.091921693900005,,
16,0.0,939.7330000000001,-154.68,,,,,43.7584,60.0,,,,,monisource-isource_newdiesel675_1_shape,41.121212507200006,,
17,0.0,953.308,-153.267,,,,,53.5346,60.0,,,,,monisource-isource_newdiesel675_1_shape,51.0349624568,,
18,0.0,977.607,-150.744,,,,,65.9688,60.0,,,,,monisource-isource_newdiesel675_1_shape,64.4915606616,,
19,0.0,990.398,-149.416,,,,,70.0334,60.0,,,,,monisource-isource_newdiesel675_1_shape,69.3609392932,,
20,0.0,987.7860000000001,-149.735,,,,,69.1598,60.0,,,,,monisource-isource_newdiesel675_1_shape,68.31508220280001,,
21,0.0,980.056,-150.631,,,,,66.8092,60.0,,,,,monisource-isource_newdiesel675_1_shape,65.4767573152,,
22,0.0,968.5089999999999,-151.937,,,,,63.5826,60.0,,,,,monisource-isource_newdiesel675_1_shape,61.5803203434,,
23,0.0,947.431,-154.21200000000002,,,,,58.5281,60.0,,,,,monisource-isource_newdiesel675_1_shape,55.45133631110001,,
24,0.0,934.159,-155.577,,,,,55.7758,60.0,,,,,monisource-isource_newdiesel675_1_shape,52.10346555219999,,
25,0.0,926.926,-156.299,,,,,54.3905,60.0,,,,,monisource-isource_newdiesel675_1_shape,50.41596860300001,,
26,0.0,927.9689999999999,-156.205,,,,,54.5751,60.0,,,,,monisource-isource_newdiesel675_1_shape,50.64400097189999,,
27,0.0,928.732,-156.129,,,,,54.72,60.0,,,,,monisource-isource_newdiesel675_1_shape,50.820215039999994,,
28,0.0,929.428,-156.069,,,,,54.8416,60.0,,,,,monisource-isource_newdiesel675_1_shape,50.9713186048,,
29,0.0,969.322,-151.906,,,,,63.7119,60.0,,,,,monisource-isource_newdiesel675_1_shape,61.7573463318,,
30,0.0,983.388,-150.334,,,,,67.6397,60.0,,,,,monisource-isource_newdiesel675_1_shape,66.5160693036,,
31,0.0,1030.15,-144.33700000000002,,,,,86.9375,60.0,,,,,monisource-isource_newdiesel675_1_shape,89.558665625,,
32,0.0,1041.86,-142.45600000000002,,,,,95.3421,60.0,,,,,monisource-isource_newdiesel675_1_shape,99.333120306,,
33,0.0,1045.8,-141.515,,,,,97.3906,60.0,,,,,monisource-isource_newdiesel675_1_shape,101.85108948,,
34,0.0,1043.38,-140.856,,,,,95.8243,60.0,,,,,monisource-isource_newdiesel675_1_shape,99.981158134,,
35,0.0,1049.48,-140.529,,,,,91.9812,60.0,,,,,monisource-isource_newdiesel675_1_shape,96.532429776,,
36,0.0,1049.08,-140.053,,,,,104.806,60.0,,,,,monisource-isource_newdiesel675_1_shape,109.94987847999998,,
37,0.0,1058.05,-140.612,,,,,78.0197,60.0,,,,,monisource-isource_newdiesel675_1_shape,82.548743585,,
38,0.0,1058.14,-140.566,,,,,96.3168,60.0,,,,,monisource-isource_newdiesel675_1_shape,101.91665875200002,,
39,0.0,1059.32,-140.56799999999998,,,,,73.4705,60.0,,,,,monisource-isource_newdiesel675_1_shape,77.82877006,,
40,0.0,1058.59,-140.533,,,,,84.0228,60.0,,,,,monisource-isource_newdiesel675_1_shape,88.94569585199999,,
41,0.0,1021.12,-140.92700000000002,,,,,98.2128,60.0,,,,,monisource-isource_newdiesel675_1_shape,100.287054336,,
42,0.0,1022.91,-139.592,,,,,102.71,60.0,,,,,monisource-isource_newdiesel675_1_shape,105.06308609999999,,
43,0.0,1033.09,-143.841,,,,,88.6184,60.0,,,,,monisource-isource_newdiesel675_1_shape,91.55078285599998,,
44,0.0,1031.97,-144.007,,,,,88.0963,60.0,,,,,monisource-isource_newdiesel675_1_shape,90.912738711,,
45,0.0,1014.29,-146.46,,,,,79.0645,60.0,,,,,monisource-isource_newdiesel675_1_shape,80.194331705,,
46,0.0,1001.54,-148.10399999999998,,,,,73.8522,60.0,,,,,monisource-isource_newdiesel675_1_shape,73.96593238799998,,
47,0.0,970.2130000000001,-151.8,,,,,63.9575,60.0,,,,,monisource-isource_newdiesel675_1_shape,62.05239794750001,,
48,0.0,958.622,-153.069,,,,,61.028,60.0,,,,,monisource-isource_newdiesel675_1_shape,58.502783416,,
49,0.0,950.9069999999999,-153.90200000000002,,,,,59.232,60.0,,,,,monisource-isource_newdiesel675_1_shape,56.324123424,,
50,0.0,949.498,-154.042,,,,,58.9241,60.0,,,,,monisource-isource_newdiesel675_1_shape,55.948315101800006,,
51,0.0,948.7589999999999,-154.135,,,,,58.7404,60.0,,,,,monisource-isource_newdiesel675_1_shape,55.73048316359999,,
52,0.0,948.548,-154.156,,,,,58.6963,60.0,,,,,monisource-isource_newdiesel675_1_shape,55.6762579724,,
53,0.0,984.063,-150.274,,,,,67.8204,60.0,,,,,monisource-isource_newdiesel675_1_shape,66.7395462852,,
54,0.0,995.547,-148.89600000000002,,,,,71.5783,60.0,,,,,monisource-isource_newdiesel675_1_shape,71.25956183010001,,
55,0.0,1035.09,-143.453,,,,,90.6633,60.0,,,,,monisource-isource_newdiesel675_1_shape,93.844675197,,
56,0.0,1041.66,-141.813,,,,,98.916,60.0,,,,,monisource-isource_newdiesel675_1_shape,103.03684056000002,,
57,0.0,1040.11,-140.99200000000002,,,,,93.9397,60.0,,,,,monisource-isource_newdiesel675_1_shape,97.707621367,,
58,0.0,1026.65,-139.92600000000002,,,,,84.499,60.0,,,,,monisource-isource_newdiesel675_1_shape,86.75089835,,
59,0.0,1040.44,-139.082,,,,,75.7603,60.0,,,,,monisource-isource_newdiesel675_1_shape,78.82404653200001,,
60,0.0,1059.13,-138.951,,,,,92.2805,60.0,,,,,monisource-isource_newdiesel675_1_shape,97.73704596500001,,
61,0.0,1064.49,-140.79,,,,,79.2764,60.0,,,,,monisource-isource_newdiesel675_1_shape,84.38893503599999,,
62,0.0,1062.04,-140.966,,,,,83.7004,60.0,,,,,monisource-isource_newdiesel675_1_shape,88.893172816,,
63,0.0,1055.26,-141.039,,,,,88.2019,60.0,,,,,monisource-isource_newdiesel675_1_shape,93.07593699399999,,
64,0.0,1034.72,-140.887,,,,,91.8671,60.0,,,,,monisource-isource_newdiesel675_1_shape,95.056725712,,
65,0.0,881.808,-138.265,,,,,102.743,60.0,,,,,monisource-isource_newdiesel675_1_shape,90.599599344,,
66,0.0,976.837,-135.156,,,,,101.595,60.0,,,,,monisource-isource_newdiesel675_1_shape,99.241755015,,
67,0.0,1027.98,-144.553,,,,,85.8199,60.0,,,,,monisource-isource_newdiesel675_1_shape,88.22114080200001,,
68,0.0,1026.96,-144.72799999999998,,,,,85.2679,60.0,,,,,monisource-isource_newdiesel675_1_shape,87.566722584,,
69,0.0,1007.57,-147.343,,,,,76.1976,60.0,,,,,monisource-isource_newdiesel675_1_shape,76.774415832,,
70,0.0,995.005,-148.914,,,,,71.4863,60.0,,,,,monisource-isource_newdiesel675_1_shape,71.1292259315,,
71,0.0,961.3330000000001,-152.768,,,,,61.702,60.0,,,,,monisource-isource_newdiesel675_1_shape,59.316168766000004,,
72,0.0,946.757,-154.315,,,,,58.3459,60.0,,,,,monisource-isource_newdiesel675_1_shape,55.23938924629999,,
73,0.0,933.8560000000001,-155.628,,,,,55.6934,60.0,,,,,monisource-isource_newdiesel675_1_shape,52.0096157504,,
74,0.0,932.727,-155.736,,,,,55.4774,60.0,,,,,monisource-isource_newdiesel675_1_shape,51.7452688698,,
75,0.0,931.535,-155.855,,,,,55.2475,60.0,,,,,monisource-isource_newdiesel675_1_shape,51.4649799125,,
76,0.0,931.4680000000001,-155.861,,,,,55.2349,60.0,,,,,monisource-isource_newdiesel675_1_shape,51.4495418332,,
77,0.0,970.948,-151.72,,,,,64.1518,60.0,,,,,monisource-isource_newdiesel675_1_shape,62.28806190639999,,
78,0.0,980.105,-150.688,,,,,66.7088,60.0,,,,,monisource-isource_newdiesel675_1_shape,65.381628424,,
79,0.0,1029.39,-144.455,,,,,86.4701,60.0,,,,,monisource-isource_newdiesel675_1_shape,89.01145623900001,,
80,0.0,1041.66,-142.494,,,,,95.1621,60.0,,,,,monisource-isource_newdiesel675_1_shape,99.126553086,,
81,0.0,1045.1,-141.494,,,,,86.7796,60.0,,,,,monisource-isource_newdiesel675_1_shape,90.69335995999998,,
82,0.0,1041.7,-140.796,,,,,72.0072,60.0,,,,,monisource-isource_newdiesel675_1_shape,75.00990024000001,,
83,0.0,1049.28,-140.491,,,,,57.5265,60.0,,,,,monisource-isource_newdiesel675_1_shape,60.361405919999996,,
84,0.0,1053.93,-140.292,,,,,50.1517,60.0,,,,,monisource-isource_newdiesel675_1_shape,52.856381181,,
85,0.0,1057.75,-141.112,,,,,43.5357,60.0,,,,,monisource-isource_newdiesel675_1_shape,46.049886675,,
86,0.0,1052.56,-140.939,,,,,49.2506,60.0,,,,,monisource-isource_newdiesel675_1_shape,51.83921153599999,,
87,0.0,1042.8,-140.52200000000002,,,,,57.0662,60.0,,,,,monisource-isource_newdiesel675_1_shape,59.50863336,,
88,0.0,1017.02,-139.11700000000002,,,,,70.1227,60.0,,,,,monisource-isource_newdiesel675_1_shape,71.316188354,,
89,0.0,912.633,-128.45,,,,,91.7755,60.0,,,,,monisource-isource_newdiesel675_1_shape,83.7573498915,,
90,0.0,1105.21,-126.288,,,,,102.581,60.0,,,,,monisource-isource_newdiesel675_1_shape,113.37354701000001,,
91,0.0,1038.34,-142.972,,,,,90.5511,60.0,,,,,monisource-isource_newdiesel675_1_shape,94.022829174,,
92,0.0,1034.27,-143.681,,,,,89.3878,60.0,,,,,monisource-isource_newdiesel675_1_shape,92.45111990599999,,
93,0.0,1015.59,-146.257,,,,,79.7272,60.0,,,,,monisource-isource_newdiesel675_1_shape,80.970147048,,
94,0.0,1002.94,-147.891,,,,,74.4635,60.0,,,,,monisource-isource_newdiesel675_1_shape,74.68242269000001,,
95,0.0,971.666,-151.585,,,,,64.4328,60.0,,,,,monisource-isource_newdiesel675_1_shape,62.60716104480001,,
96,0.0,958.37,-153.03799999999998,,,,,61.0537,60.0,,,,,monisource-isource_newdiesel675_1_shape,58.512034469,,
97,0.0,945.852,-154.356,,,,,58.2127,60.0,,,,,monisource-isource_newdiesel675_1_shape,55.060598720399994,,
98,0.0,943.5169999999999,-154.591,,,,,57.721000000000004,60.0,,,,,monisource-isource_newdiesel675_1_shape,54.460744757,,
99,0.0,942.318,-154.717,,,,,57.4665,60.0,,,,,monisource-isource_newdiesel675_1_shape,54.151717347,,
100,0.0,939.314,-155.02,,,,,56.8485,60.0,,,,,monisource-isource_newdiesel675_1_shape,53.398591929000006,,
101,0.0,972.699,-151.469,,,,,64.7135,60.0,,,,,monisource-isource_newdiesel675_1_shape,62.94675673649999,,
102,0.0,984.826,-150.084,,,,,68.2376,60.0,,,,,monisource-isource_newdiesel675_1_shape,67.2021626576,,
103,0.0,1033.38,-143.768,,,,,89.2961,60.0,,,,,monisource-isource_newdiesel675_1_shape,92.276803818,,
104,0.0,1041.49,-141.923,,,,,98.3467,60.0,,,,,monisource-isource_newdiesel675_1_shape,102.42710458299999,,
105,0.0,1018.23,-141.026,,,,,90.281,60.0,,,,,monisource-isource_newdiesel675_1_shape,91.92682263,,
106,0.0,926.8539999999999,-126.053,,,,,80.6522,60.0,,,,,monisource-isource_newdiesel675_1_shape,74.7528141788,,
107,0.0,1066.9,-125.40799999999999,,,,,71.1242,60.0,,,,,monisource-isource_newdiesel675_1_shape,75.88240898000001,,
108,0.0,1294.28,-126.792,,,,,60.177,60.0,,,,,monisource-isource_newdiesel675_1_shape,77.88588756,,
109,0.0,1059.8,-152.078,,,,,52.9812,60.0,,,,,monisource-isource_newdiesel675_1_shape,56.14947576,,
110,0.0,1161.33,-132.373,,,,,59.9629,60.0,,,,,monisource-isource_newdiesel675_1_shape,69.63671465699998,,
111,0.0,1486.9,-138.234,,,,,67.9177,60.0,,,,,monisource-isource_newdiesel675_1_shape,100.98682812999999,,
112,0.0,944.9730000000001,-153.273,,,,,79.7972,60.0,,,,,monisource-isource_newdiesel675_1_shape,75.4061994756,,
113,0.0,1188.05,-156.32299999999998,,,,,100.647,60.0,,,,,monisource-isource_newdiesel675_1_shape,119.57366835,,
114,0.0,752.7130000000001,-133.715,,,,,107.376,60.0,,,,,monisource-isource_newdiesel675_1_shape,80.82331108800001,,
115,0.0,1031.82,-143.14600000000002,,,,,91.4957,60.0,,,,,monisource-isource_newdiesel675_1_shape,94.407093174,,
116,0.0,1033.86,-143.662,,,,,89.45,60.0,,,,,monisource-isource_newdiesel675_1_shape,92.478777,,
117,0.0,1015.57,-146.26,,,,,79.7181,60.0,,,,,monisource-isource_newdiesel675_1_shape,80.959310817,,
118,0.0,1001.62,-148.053,,,,,73.9697,60.0,,,,,monisource-isource_newdiesel675_1_shape,74.08953091400001,,
119,0.0,965.7660000000001,-152.24,,,,,62.8778,60.0,,,,,monisource-isource_newdiesel675_1_shape,60.7252413948,,
120,0.0,947.6089999999999,-154.174,,,,,58.5926,60.0,,,,,monisource-isource_newdiesel675_1_shape,55.52287509339999,,
121,0.0,2427.27,-3.09643,,,,,0.0021,60.0,,,,,monisource-isource_newdiesel675_1_shape,0.005097267,,
122,0.0,2428.78,-3.05877,,,,,0.0021,60.0,,,,,monisource-isource_newdiesel675_1_shape,0.0051004380000000005,,
123,0.0,2429.06,-3.04682,,,,,0.0021,60.0,,,,,monisource-isource_newdiesel675_1_shape,0.005101025999999999,,
124,0.0,2429.5,-3.03494,,,,,0.0021,60.0,,,,,monisource-isource_newdiesel675_1_shape,0.005101949999999999,,
125,0.0,2419.21,-3.3651199999999997,,,,,0.0021,60.0,,,,,monisource-isource_newdiesel675_1_shape,0.0050803409999999995,,
126,0.0,2416.13,-3.4613300000000002,,,,,0.0021,60.0,,,,,monisource-isource_newdiesel675_1_shape,0.005073873,,
127,0.0,2391.2,-4.23266,,,,,0.0021,60.0,,,,,monisource-isource_newdiesel675_1_shape,0.005021519999999999,,
128,0.0,2383.21,-4.51355,,,,,0.0021,60.0,,,,,monisource-isource_newdiesel675_1_shape,0.005004741,,
129,0.0,2365.04,-5.19948,,,,,0.0021,60.0,,,,,monisource-isource_newdiesel675_1_shape,0.004966584,,
130,0.0,2359.55,-5.69561,,,,,0.0021,60.0,,,,,monisource-isource_newdiesel675_1_shape,0.004955055,,
131,0.0,2362.71,-5.98905,,,,,0.0021,60.0,,,,,monisource-isource_newdiesel675_1_shape,0.004961691,,
132,0.0,2354.71,-6.06074,,,,,0.0021,60.0,,,,,monisource-isource_newdiesel675_1_shape,0.004944891,,
133,0.0,2359.15,-6.06042,,,,,0.0021,60.0,,,,,monisource-isource_newdiesel675_1_shape,0.004954215,,
134,0.0,2354.78,-6.2139,,,,,0.0021,60.0,,,,,monisource-isource_newdiesel675_1_shape,0.0049450380000000006,,
135,0.0,2356.83,-6.176419999999999,,,,,0.0021,60.0,,,,,monisource-isource_newdiesel675_1_shape,0.004949343,,
136,0.0,2353.02,-6.0019599999999995,,,,,0.0021,60.0,,,,,monisource-isource_newdiesel675_1_shape,0.004941342,,
137,0.0,2345.14,-5.81005,,,,,0.0021,60.0,,,,,monisource-isource_newdiesel675_1_shape,0.004924794,,
138,0.0,2349.65,-5.35754,,,,,0.0021,60.0,,,,,monisource-isource_newdiesel675_1_shape,0.004934265,,
139,0.0,2363.81,-4.80843,,,,,0.0021,60.0,,,,,monisource-isource_newdiesel675_1_shape,0.004964001,,
140,0.0,2368.7,-4.70756,,,,,0.0021,60.0,,,,,monisource-isource_newdiesel675_1_shape,0.004974269999999999,,
141,0.0,2380.46,-4.37065,,,,,0.0021,60.0,,,,,monisource-isource_newdiesel675_1_shape,0.004998966,,
142,0.0,2404.18,-3.8151,,,,,0.0021,60.0,,,,,monisource-isource_newdiesel675_1_shape,0.005048777999999999,,
143,0.0,2424.55,-3.22553,,,,,0.0021,60.0,,,,,monisource-isource_newdiesel675_1_shape,0.005091555,,
144,0.0,2424.14,-3.17824,,,,,0.0021,60.0,,,,,monisource-isource_newdiesel675_1_shape,0.005090693999999999,,
145,0.0,2429.68,-3.03702,,,,,0.0021,60.0,,,,,monisource-isource_newdiesel675_1_shape,0.005102327999999999,,
146,0.0,2415.76,-3.01566,,,,,0.0021,60.0,,,,,monisource-isource_newdiesel675_1_shape,0.005073096000000001,,
147,0.0,2415.47,-3.01376,,,,,0.0021,60.0,,,,,monisource-isource_newdiesel675_1_shape,0.005072486999999999,,
148,0.0,2415.54,-3.01038,,,,,0.0021,60.0,,,,,monisource-isource_newdiesel675_1_shape,0.0050726339999999995,,
149,0.0,2412.1,-3.1135200000000003,,,,,0.0021,60.0,,,,,monisource-isource_newdiesel675_1_shape,0.005065409999999999,,
150,0.0,2409.38,-3.18823,,,,,0.0021,60.0,,,,,monisource-isource_newdiesel675_1_shape,0.005059698,,
151,0.0,2398.86,-3.52651,,,,,0.0021,60.0,,,,,monisource-isource_newdiesel675_1_shape,0.005037606,,
152,0.0,2397.16,-3.64905,,,,,0.0021,60.0,,,,,monisource-isource_newdiesel675_1_shape,0.0050340359999999995,,
153,0.0,2399.01,-3.88955,,,,,0.0021,60.0,,,,,monisource-isource_newdiesel675_1_shape,0.005037921,,
154,0.0,2386.85,-4.20625,,,,,0.0021,60.0,,,,,monisource-isource_newdiesel675_1_shape,0.005012384999999999,,
155,0.0,2395.14,-4.6700099999999996,,,,,0.0021,60.0,,,,,monisource-isource_newdiesel675_1_shape,0.005029793999999999,,
156,0.0,2392.45,-4.85993,,,,,0.0021,60.0,,,,,monisource-isource_newdiesel675_1_shape,0.005024144999999999,,
157,0.0,2394.97,-4.67687,,,,,0.0021,60.0,,,,,monisource-isource_newdiesel675_1_shape,0.005029436999999999,,
158,0.0,2395.28,-4.6197,,,,,0.0021,60.0,,,,,monisource-isource_newdiesel675_1_shape,0.005030088,,
159,0.0,2392.44,-4.54406,,,,,0.0021,60.0,,,,,monisource-isource_newdiesel675_1_shape,0.005024124,,
160,0.0,2384.75,-4.28606,,,,,0.0021,60.0,,,,,monisource-isource_newdiesel675_1_shape,0.0050079750000000004,,
161,0.0,2378.28,-4.24378,,,,,0.0021,60.0,,,,,monisource-isource_newdiesel675_1_shape,0.004994388,,
162,0.0,2370.21,-4.22237,,,,,0.0021,60.0,,,,,monisource-isource_newdiesel675_1_shape,0.004977441,,
163,0.0,2370.82,-4.21359,,,,,0.0021,60.0,,,,,monisource-isource_newdiesel675_1_shape,0.0049787220000000005,,
164,0.0,2378.5,-4.05869,,,,,0.0021,60.0,,,,,monisource-isource_newdiesel675_1_shape,0.0049948499999999995,,
165,0.0,2387.01,-3.79615,,,,,0.0021,60.0,,,,,monisource-isource_newdiesel675_1_shape,0.005012721,,
166,0.0,2398.77,-3.5375199999999998,,,,,0.0021,60.0,,,,,monisource-isource_newdiesel675_1_shape,0.005037417,,
167,0.0,2409.84,-3.22748,,,,,0.0021,60.0,,,,,monisource-isource_newdiesel675_1_shape,0.005060664,,
168,0.0,2409.23,-3.1802599999999996,,,,,0.0021,60.0,,,,,monisource-isource_newdiesel675_1_shape,0.005059383,,
169,0.0,2415.21,-3.00706,,,,,0.0021,60.0,,,,,monisource-isource_newdiesel675_1_shape,0.005071941,,
170,0.0,2416.83,-2.96961,,,,,0.0021,60.0,,,,,monisource-isource_newdiesel675_1_shape,0.0050753429999999995,,
171,0.0,2416.71,-2.96062,,,,,0.0021,60.0,,,,,monisource-isource_newdiesel675_1_shape,0.0050750909999999995,,
172,0.0,2416.75,-2.95905,,,,,0.0021,60.0,,,,,monisource-isource_newdiesel675_1_shape,0.0050751749999999995,,
173,0.0,2413.12,-3.06949,,,,,0.0021,60.0,,,,,monisource-isource_newdiesel675_1_shape,0.0050675519999999995,,
174,0.0,2410.27,-3.14978,,,,,0.0021,60.0,,,,,monisource-isource_newdiesel675_1_shape,0.0050615669999999995,,
175,0.0,2399.54,-3.49344,,,,,0.0021,60.0,,,,,monisource-isource_newdiesel675_1_shape,0.005039034,,
176,0.0,2405.65,-3.3486800000000003,,,,,0.0021,60.0,,,,,monisource-isource_newdiesel675_1_shape,0.005051865,,
177,0.0,2405.16,-3.72674,,,,,0.0021,60.0,,,,,monisource-isource_newdiesel675_1_shape,0.0050508359999999995,,
178,0.0,2409.33,-4.01288,,,,,0.0021,60.0,,,,,monisource-isource_newdiesel675_1_shape,0.005059592999999999,,
179,0.0,2388.48,-3.97681,,,,,0.0021,60.0,,,,,monisource-isource_newdiesel675_1_shape,0.005015808,,
180,0.0,2385.14,-4.0970699999999995,,,,,0.0021,60.0,,,,,monisource-isource_newdiesel675_1_shape,0.005008793999999999,,
181,0.0,2386.53,-4.33625,,,,,0.0021,60.0,,,,,monisource-isource_newdiesel675_1_shape,0.005011713,,
182,0.0,2386.14,-4.42877,,,,,0.0021,60.0,,,,,monisource-isource_newdiesel675_1_shape,0.005010893999999999,,
183,0.0,2381.79,-4.43842,,,,,0.0021,60.0,,,,,monisource-isource_newdiesel675_1_shape,0.005001759,,
184,0.0,2377.39,-4.36489,,,,,0.0021,60.0,,,,,monisource-isource_newdiesel675_1_shape,0.004992519,,
185,0.0,2373.34,-4.29476,,,,,0.0021,60.0,,,,,monisource-isource_newdiesel675_1_shape,0.004984014,,
186,0.0,2374.78,-4.111000000000001,,,,,0.0021,60.0,,,,,monisource-isource_newdiesel675_1_shape,0.004987038,,
187,0.0,2375.88,-4.067740000000001,,,,,0.0021,60.0,,,,,monisource-isource_newdiesel675_1_shape,0.004989347999999999,,
188,0.0,2382.91,-3.9009,,,,,0.0021,60.0,,,,,monisource-isource_newdiesel675_1_shape,0.0050041109999999995,,
