hour,t(sec),V1,VAngle1,V2,VAngle2,V3,VAngle3,I1,IAngle1,I2,IAngle2,I3,IAngle3,Name,P1(kW),P2(kW),P3(kW)
1,0.0,277.128,1.93668e-08,,,,,0.0,0.0,,,,,monvsource-lead_gen_634_1,0.0,,
2,0.0,277.128,1.93668e-08,,,,,0.0,0.0,,,,,monvsource-lead_gen_634_1,0.0,,
3,0.0,277.128,1.93668e-08,,,,,0.0,0.0,,,,,monvsource-lead_gen_634_1,0.0,,
4,0.0,277.128,1.93668e-08,,,,,0.0,0.0,,,,,monvsource-lead_gen_634_1,0.0,,
5,0.0,277.128,1.93668e-08,,,,,0.0,0.0,,,,,monvsource-lead_gen_634_1,0.0,,
6,0.0,277.128,1.93668e-08,,,,,0.0,0.0,,,,,monvsource-lead_gen_634_1,0.0,,
7,0.0,277.128,1.93668e-08,,,,,0.0,0.0,,,,,monvsource-lead_gen_634_1,0.0,,
8,0.0,277.128,1.93668e-08,,,,,0.0,0.0,,,,,monvsource-lead_gen_634_1,0.0,,
9,0.0,277.128,1.93668e-08,,,,,0.0,0.0,,,,,monvsource-lead_gen_634_1,0.0,,
10,0.0,277.128,1.93668e-08,,,,,0.0,0.0,,,,,monvsource-lead_gen_634_1,0.0,,
11,0.0,277.128,1.93668e-08,,,,,0.0,0.0,,,,,monvsource-lead_gen_634_1,0.0,,
12,0.0,277.128,1.93668e-08,,,,,0.0,0.0,,,,,monvsource-lead_gen_634_1,0.0,,
13,0.0,277.128,1.93668e-08,,,,,0.0,0.0,,,,,monvsource-lead_gen_634_1,0.0,,
14,0.0,277.128,1.93668e-08,,,,,0.0,0.0,,,,,monvsource-lead_gen_634_1,0.0,,
15,0.0,277.128,1.93668e-08,,,,,0.0,0.0,,,,,monvsource-lead_gen_634_1,0.0,,
16,0.0,277.128,1.93668e-08,,,,,0.0,0.0,,,,,monvsource-lead_gen_634_1,0.0,,
17,0.0,277.128,1.93668e-08,,,,,0.0,0.0,,,,,monvsource-lead_gen_634_1,0.0,,
18,0.0,277.128,1.93668e-08,,,,,0.0,0.0,,,,,monvsource-lead_gen_634_1,0.0,,
19,0.0,277.128,1.93668e-08,,,,,0.0,0.0,,,,,monvsource-lead_gen_634_1,0.0,,
20,0.0,277.128,1.93668e-08,,,,,0.0,0.0,,,,,monvsource-lead_gen_634_1,0.0,,
21,0.0,277.128,1.93668e-08,,,,,0.0,0.0,,,,,monvsource-lead_gen_634_1,0.0,,
22,0.0,277.128,1.93668e-08,,,,,0.0,0.0,,,,,monvsource-lead_gen_634_1,0.0,,
23,0.0,277.128,1.93668e-08,,,,,0.0,0.0,,,,,monvsource-lead_gen_634_1,0.0,,
24,0.0,277.128,1.93668e-08,,,,,0.0,0.0,,,,,monvsource-lead_gen_634_1,0.0,,
25,0.0,277.128,1.93668e-08,,,,,0.0,0.0,,,,,monvsource-lead_gen_634_1,0.0,,
26,0.0,277.128,1.93668e-08,,,,,0.0,0.0,,,,,monvsource-lead_gen_634_1,0.0,,
27,0.0,277.128,1.93668e-08,,,,,0.0,0.0,,,,,monvsource-lead_gen_634_1,0.0,,
28,0.0,277.128,1.93668e-08,,,,,0.0,0.0,,,,,monvsource-lead_gen_634_1,0.0,,
29,0.0,277.128,1.93668e-08,,,,,0.0,0.0,,,,,monvsource-lead_gen_634_1,0.0,,
30,0.0,277.128,1.93668e-08,,,,,0.0,0.0,,,,,monvsource-lead_gen_634_1,0.0,,
31,0.0,277.128,1.93668e-08,,,,,0.0,0.0,,,,,monvsource-lead_gen_634_1,0.0,,
32,0.0,277.128,1.93668e-08,,,,,0.0,0.0,,,,,monvsource-lead_gen_634_1,0.0,,
33,0.0,277.128,1.93668e-08,,,,,0.0,0.0,,,,,monvsource-lead_gen_634_1,0.0,,
34,0.0,277.128,1.93668e-08,,,,,0.0,0.0,,,,,monvsource-lead_gen_634_1,0.0,,
35,0.0,277.128,1.93668e-08,,,,,0.0,0.0,,,,,monvsource-lead_gen_634_1,0.0,,
36,0.0,277.128,1.93668e-08,,,,,0.0,0.0,,,,,monvsource-lead_gen_634_1,0.0,,
37,0.0,277.128,1.93668e-08,,,,,0.0,0.0,,,,,monvsource-lead_gen_634_1,0.0,,
38,0.0,277.128,1.93668e-08,,,,,0.0,0.0,,,,,monvsource-lead_gen_634_1,0.0,,
39,0.0,277.128,1.93668e-08,,,,,0.0,0.0,,,,,monvsource-lead_gen_634_1,0.0,,
40,0.0,277.128,1.93668e-08,,,,,0.0,0.0,,,,,monvsource-lead_gen_634_1,0.0,,
41,0.0,277.128,1.93668e-08,,,,,0.0,0.0,,,,,monvsource-lead_gen_634_1,0.0,,
42,0.0,277.128,1.93668e-08,,,,,0.0,0.0,,,,,monvsource-lead_gen_634_1,0.0,,
43,0.0,277.128,1.93668e-08,,,,,0.0,0.0,,,,,monvsource-lead_gen_634_1,0.0,,
44,0.0,277.128,1.93668e-08,,,,,0.0,0.0,,,,,monvsource-lead_gen_634_1,0.0,,
45,0.0,277.128,1.93668e-08,,,,,0.0,0.0,,,,,monvsource-lead_gen_634_1,0.0,,
46,0.0,277.128,1.93668e-08,,,,,0.0,0.0,,,,,monvsource-lead_gen_634_1,0.0,,
47,0.0,277.128,1.93668e-08,,,,,0.0,0.0,,,,,monvsource-lead_gen_634_1,0.0,,
48,0.0,277.128,1.93668e-08,,,,,0.0,0.0,,,,,monvsource-lead_gen_634_1,0.0,,
49,0.0,277.128,1.93668e-08,,,,,0.0,0.0,,,,,monvsource-lead_gen_634_1,0.0,,
50,0.0,277.128,1.93668e-08,,,,,0.0,0.0,,,,,monvsource-lead_gen_634_1,0.0,,
51,0.0,277.128,1.93668e-08,,,,,0.0,0.0,,,,,monvsource-lead_gen_634_1,0.0,,
52,0.0,277.128,1.93668e-08,,,,,0.0,0.0,,,,,monvsource-lead_gen_634_1,0.0,,
53,0.0,277.128,1.93668e-08,,,,,0.0,0.0,,,,,monvsource-lead_gen_634_1,0.0,,
54,0.0,277.128,1.93668e-08,,,,,0.0,0.0,,,,,monvsource-lead_gen_634_1,0.0,,
55,0.0,277.128,1.93668e-08,,,,,0.0,0.0,,,,,monvsource-lead_gen_634_1,0.0,,
56,0.0,277.128,1.93668e-08,,,,,0.0,0.0,,,,,monvsource-lead_gen_634_1,0.0,,
57,0.0,277.128,1.93668e-08,,,,,0.0,0.0,,,,,monvsource-lead_gen_634_1,0.0,,
58,0.0,277.128,1.93668e-08,,,,,0.0,0.0,,,,,monvsource-lead_gen_634_1,0.0,,
59,0.0,277.128,1.93668e-08,,,,,0.0,0.0,,,,,monvsource-lead_gen_634_1,0.0,,
60,0.0,277.125,-0.00240773,,,,,330.341,179.929,,,,,monvsource-lead_gen_634_1,91.545749625,,
61,0.0,277.124,-0.00345033,,,,,473.451,179.899,,,,,monvsource-lead_gen_634_1,131.204634924,,
62,0.0,277.126,-0.00169632,,,,,232.713,179.95,,,,,monvsource-lead_gen_634_1,64.490822838,,
63,0.0,277.125,-0.00226013,,,,,310.084,179.934,,,,,monvsource-lead_gen_634_1,85.9320285,,
64,0.0,277.125,-0.00259064,,,,,355.444,179.924,,,,,monvsource-lead_gen_634_1,98.5024185,,
65,0.0,277.123,-0.00379473,,,,,520.734,179.889,,,,,monvsource-lead_gen_634_1,144.307368282,,
66,0.0,277.121,-0.00510259,,,,,700.33,179.85,,,,,monvsource-lead_gen_634_1,194.07614992999999,,
67,0.0,277.121,-0.00506547,,,,,695.231,179.851,,,,,monvsource-lead_gen_634_1,192.663109951,,
68,0.0,277.122,-0.00468908,,,,,643.539,179.862,,,,,monvsource-lead_gen_634_1,178.33881475799998,,
69,0.0,277.123,-0.00412749,,,,,566.422,179.879,,,,,monvsource-lead_gen_634_1,156.96856390599999,,
70,0.0,277.124,-0.00278388,,,,,381.967,179.918,,,,,monvsource-lead_gen_634_1,105.85222290800002,,
71,0.0,277.126,-0.00171634,,,,,235.46,179.949,,,,,monvsource-lead_gen_634_1,65.25208796,,
72,0.0,277.125,-0.00233161,,,,,319.893,179.931,,,,,monvsource-lead_gen_634_1,88.650347625,,
73,0.0,277.126,-0.00181948,,,,,249.613,179.946,,,,,monvsource-lead_gen_634_1,69.174252238,,
74,0.0,277.126,-0.00168551,,,,,231.229,179.95,,,,,monvsource-lead_gen_634_1,64.079567854,,
75,0.0,277.126,-0.00170813,,,,,234.334,179.95,,,,,monvsource-lead_gen_634_1,64.940044084,,
76,0.0,277.126,-0.00173192,,,,,237.599,179.949,,,,,monvsource-lead_gen_634_1,65.84486047399999,,
77,0.0,277.126,-0.00187774,,,,,257.608,179.945,,,,,monvsource-lead_gen_634_1,71.389874608,,
78,0.0,277.126,-0.00189649,,,,,260.18,179.944,,,,,monvsource-lead_gen_634_1,72.10264267999999,,
79,0.0,277.124,-0.00289285,,,,,396.925,179.915,,,,,monvsource-lead_gen_634_1,109.99744370000002,,
80,0.0,277.124,-0.00278633,,,,,382.303,179.918,,,,,monvsource-lead_gen_634_1,105.94533657200002,,
81,0.0,277.125,-0.00211619,,,,,290.33,179.938,,,,,monvsource-lead_gen_634_1,80.45770125,,
82,0.0,277.128,-2.60473e-05,,,,,3.57511,-179.999,,,,,monvsource-lead_gen_634_1,0.99076308408,,
83,0.0,277.134,0.00453951,,,,,622.226,0.133204,,,,,monvsource-lead_gen_634_1,172.43998028400003,,
84,0.0,277.136,0.00600619,,,,,823.1,0.176251,,,,,monvsource-lead_gen_634_1,228.11064160000004,,
85,0.0,277.137,0.0064634,,,,,885.703,0.189623,,,,,monvsource-lead_gen_634_1,245.461072311,,
86,0.0,277.133,0.00337436,,,,,462.591,0.0990885,,,,,monvsource-lead_gen_634_1,128.199231603,,
87,0.0,277.131,0.00229555,,,,,314.743,0.067477,,,,,monvsource-lead_gen_634_1,87.22504233299999,,
88,0.0,277.129,0.0004542,,,,,62.2885,0.0138856,,,,,monvsource-lead_gen_634_1,17.2619497165,,
89,0.0,277.122,-0.00444277,,,,,609.714,179.869,,,,,monvsource-lead_gen_634_1,168.96516310800004,,
90,0.0,277.118,-0.00729987,,,,,1002.21,179.785,,,,,monvsource-lead_gen_634_1,277.73043078,,
91,0.0,277.118,-0.00781037,,,,,1072.37,179.77,,,,,monvsource-lead_gen_634_1,297.17302965999994,,
92,0.0,277.118,-0.00740408,,,,,1016.53,179.782,,,,,monvsource-lead_gen_634_1,281.69876053999997,,
93,0.0,277.121,-0.00503376,,,,,690.876,179.852,,,,,monvsource-lead_gen_634_1,191.456247996,,
94,0.0,277.123,-0.00354892,,,,,486.985,179.896,,,,,monvsource-lead_gen_634_1,134.954744155,,
95,0.0,277.125,-0.00238912,,,,,327.786,179.93,,,,,monvsource-lead_gen_634_1,90.83769525000001,,
96,0.0,277.124,-0.0029457,,,,,404.178,179.913,,,,,monvsource-lead_gen_634_1,112.007424072,,
97,0.0,277.125,-0.00258438,,,,,354.584,179.924,,,,,monvsource-lead_gen_634_1,98.264091,,
98,0.0,277.125,-0.0024073,,,,,330.281,179.929,,,,,monvsource-lead_gen_634_1,91.529122125,,
99,0.0,277.125,-0.00240903,,,,,330.518,179.929,,,,,monvsource-lead_gen_634_1,91.59480074999999,,
100,0.0,277.125,-0.00240987,,,,,330.634,179.929,,,,,monvsource-lead_gen_634_1,91.62694725,,
101,0.0,277.125,-0.00255846,,,,,351.028,179.925,,,,,monvsource-lead_gen_634_1,97.2786345,,
102,0.0,277.125,-0.00255948,,,,,351.167,179.925,,,,,monvsource-lead_gen_634_1,97.317154875,,
103,0.0,277.123,-0.00358165,,,,,491.479,179.895,,,,,monvsource-lead_gen_634_1,136.20013491699999,,
104,0.0,277.123,-0.00364319,,,,,499.929,179.893,,,,,monvsource-lead_gen_634_1,138.54182426699998,,
105,0.0,277.124,-0.00279373,,,,,383.319,179.918,,,,,monvsource-lead_gen_634_1,106.22689455600002,,
106,0.0,277.127,-0.000701526,,,,,96.2279,179.981,,,,,monvsource-lead_gen_634_1,26.667349243300002,,
107,0.0,277.132,0.0031088,,,,,426.201,0.0914658,,,,,monvsource-lead_gen_634_1,118.113935532,,
108,0.0,277.135,0.00527997,,,,,723.647,0.154968,,,,,monvsource-lead_gen_634_1,200.547911345,,
109,0.0,277.137,0.00648598,,,,,888.794,0.19031,,,,,monvsource-lead_gen_634_1,246.317702778,,
110,0.0,277.132,0.00281539,,,,,385.991,0.0827077,,,,,monvsource-lead_gen_634_1,106.97045781199999,,
111,0.0,277.13,0.00175135,,,,,240.145,0.0515981,,,,,monvsource-lead_gen_634_1,66.55138385,,
112,0.0,277.128,-0.000181691,,,,,24.9226,179.997,,,,,monvsource-lead_gen_634_1,6.906750292799999,,
113,0.0,277.121,-0.00505075,,,,,693.209,179.852,,,,,monvsource-lead_gen_634_1,192.10277128899997,,
114,0.0,277.117,-0.00788284,,,,,1082.33,179.768,,,,,monvsource-lead_gen_634_1,299.93204261,,
115,0.0,277.117,-0.00826287,,,,,1134.57,179.757,,,,,monvsource-lead_gen_634_1,314.40863469,,
116,0.0,277.118,-0.00774785,,,,,1063.78,179.772,,,,,monvsource-lead_gen_634_1,294.79258603999995,,
117,0.0,277.121,-0.00545599,,,,,748.87,179.84,,,,,monvsource-lead_gen_634_1,207.52760327,,
118,0.0,277.123,-0.00379466,,,,,520.723,179.889,,,,,monvsource-lead_gen_634_1,144.304319929,,
119,0.0,277.125,-0.00251397,,,,,344.92,179.926,,,,,monvsource-lead_gen_634_1,95.585955,,
120,0.0,277.124,-0.00302625,,,,,415.235,179.911,,,,,monvsource-lead_gen_634_1,115.07158414000003,,
121,0.0,277.125,-0.00268259,,,,,368.065,179.921,,,,,monvsource-lead_gen_634_1,102.000013125,,
122,0.0,277.125,-0.00250926,,,,,344.275,179.926,,,,,monvsource-lead_gen_634_1,95.407209375,,
123,0.0,277.125,-0.00248966,,,,,341.584,179.927,,,,,monvsource-lead_gen_634_1,94.661466,,
124,0.0,277.125,-0.00248035,,,,,340.306,179.927,,,,,monvsource-lead_gen_634_1,94.30730025,,
125,0.0,277.124,-0.00298675,,,,,409.814,179.912,,,,,monvsource-lead_gen_634_1,113.56929493600002,,
126,0.0,277.124,-0.00298817,,,,,410.008,179.912,,,,,monvsource-lead_gen_634_1,113.623056992,,
127,0.0,277.123,-0.00407158,,,,,558.746,179.88,,,,,monvsource-lead_gen_634_1,154.841367758,,
128,0.0,277.123,-0.00398575,,,,,546.961,179.883,,,,,monvsource-lead_gen_634_1,151.575473203,,
129,0.0,277.124,-0.00346564,,,,,475.552,179.898,,,,,monvsource-lead_gen_634_1,131.786872448,,
130,0.0,277.126,-0.00177232,,,,,243.141,179.948,,,,,monvsource-lead_gen_634_1,67.380692766,,
131,0.0,277.13,0.00176028,,,,,241.367,0.0523084,,,,,monvsource-lead_gen_634_1,66.89003671,,
132,0.0,277.127,-0.000497442,,,,,68.233,179.986,,,,,monvsource-lead_gen_634_1,18.909206591,,
133,0.0,277.13,0.00114536,,,,,157.063,0.0343508,,,,,monvsource-lead_gen_634_1,43.52686919,,
134,0.0,277.13,0.00150387,,,,,206.217,0.0442795,,,,,monvsource-lead_gen_634_1,57.14891721,,
135,0.0,277.131,0.00191546,,,,,262.641,0.0563578,,,,,monvsource-lead_gen_634_1,72.785962971,,
136,0.0,277.126,-0.00152134,,,,,208.703,179.956,,,,,monvsource-lead_gen_634_1,57.837027578,,
137,0.0,277.121,-0.00542498,,,,,744.611,179.841,,,,,monvsource-lead_gen_634_1,206.34734493099998,,
138,0.0,277.12,-0.00603315,,,,,828.155,179.823,,,,,monvsource-lead_gen_634_1,229.4983136,,
139,0.0,277.12,-0.0062695,,,,,860.626,179.816,,,,,monvsource-lead_gen_634_1,238.49667712000002,,
140,0.0,277.12,-0.00591384,,,,,811.763,179.826,,,,,monvsource-lead_gen_634_1,224.95576256,,
141,0.0,277.121,-0.00541137,,,,,742.74,179.841,,,,,monvsource-lead_gen_634_1,205.82885154,,
142,0.0,277.123,-0.0035869,,,,,492.2,179.895,,,,,monvsource-lead_gen_634_1,136.3999406,,
143,0.0,277.125,-0.00236489,,,,,324.46,179.931,,,,,monvsource-lead_gen_634_1,89.9159775,,
144,0.0,277.124,-0.00288594,,,,,395.976,179.915,,,,,monvsource-lead_gen_634_1,109.734453024,,
145,0.0,277.125,-0.00244337,,,,,335.231,179.928,,,,,monvsource-lead_gen_634_1,92.900890875,,
146,0.0,277.125,-0.00227271,,,,,311.81,179.933,,,,,monvsource-lead_gen_634_1,86.41034625,,
147,0.0,277.125,-0.00226922,,,,,311.331,179.933,,,,,monvsource-lead_gen_634_1,86.27760337500001,,
148,0.0,277.125,-0.00226714,,,,,311.045,179.933,,,,,monvsource-lead_gen_634_1,86.198345625,,
149,0.0,277.125,-0.00240293,,,,,329.681,179.929,,,,,monvsource-lead_gen_634_1,91.362847125,,
150,0.0,277.125,-0.00239307,,,,,328.328,179.93,,,,,monvsource-lead_gen_634_1,90.987897,,
151,0.0,277.124,-0.00308659,,,,,423.518,179.909,,,,,monvsource-lead_gen_634_1,117.367002232,,
152,0.0,277.124,-0.00309021,,,,,424.014,179.909,,,,,monvsource-lead_gen_634_1,117.50445573600001,,
153,0.0,277.125,-0.00237157,,,,,325.377,179.93,,,,,monvsource-lead_gen_634_1,90.170101125,,
154,0.0,277.124,-0.00308726,,,,,423.61,179.909,,,,,monvsource-lead_gen_634_1,117.39249764000002,,
155,0.0,277.132,0.00267596,,,,,366.881,0.0788962,,,,,monvsource-lead_gen_634_1,101.674465292,,
156,0.0,277.133,0.0038077,,,,,521.968,0.111782,,,,,monvsource-lead_gen_634_1,144.654557744,,
157,0.0,277.131,0.00248164,,,,,340.248,0.0730228,,,,,monvsource-lead_gen_634_1,94.29326848799998,,
158,0.0,277.131,0.00186201,,,,,255.313,0.0548656,,,,,monvsource-lead_gen_634_1,70.75514700299999,,
159,0.0,277.128,-0.0001541,,,,,21.1381,179.999,,,,,monvsource-lead_gen_634_1,5.8579593768,,
160,0.0,277.121,-0.00501739,,,,,688.628,179.853,,,,,monvsource-lead_gen_634_1,190.833279988,,
161,0.0,277.119,-0.00646035,,,,,886.847,179.81,,,,,monvsource-lead_gen_634_1,245.762153793,,
162,0.0,277.119,-0.0070917,,,,,973.601,179.792,,,,,monvsource-lead_gen_634_1,269.80333551900003,,
163,0.0,277.121,-0.00550684,,,,,755.855,179.838,,,,,monvsource-lead_gen_634_1,209.46329345499998,,
164,0.0,277.122,-0.00462451,,,,,634.671,179.864,,,,,monvsource-lead_gen_634_1,175.88129686200003,,
165,0.0,277.122,-0.00436009,,,,,598.361,179.872,,,,,monvsource-lead_gen_634_1,165.818997042,,
166,0.0,277.124,-0.00320932,,,,,440.366,179.906,,,,,monvsource-lead_gen_634_1,122.03598738400001,,
167,0.0,277.125,-0.00234812,,,,,322.159,179.931,,,,,monvsource-lead_gen_634_1,89.278312875,,
168,0.0,277.124,-0.00288806,,,,,396.267,179.915,,,,,monvsource-lead_gen_634_1,109.815096108,,
169,0.0,277.125,-0.00249563,,,,,342.404,179.927,,,,,monvsource-lead_gen_634_1,94.88870849999999,,
170,0.0,277.125,-0.00231189,,,,,317.186,179.932,,,,,monvsource-lead_gen_634_1,87.90017025,,
171,0.0,277.125,-0.00230937,,,,,316.841,179.932,,,,,monvsource-lead_gen_634_1,87.80456212499999,,
172,0.0,277.125,-0.00231414,,,,,317.495,179.932,,,,,monvsource-lead_gen_634_1,87.985801875,,
173,0.0,277.125,-0.00246122,,,,,337.681,179.928,,,,,monvsource-lead_gen_634_1,93.579847125,,
174,0.0,277.125,-0.00245269,,,,,336.511,179.928,,,,,monvsource-lead_gen_634_1,93.25561087500002,,
175,0.0,277.124,-0.00313381,,,,,430.0,179.908,,,,,monvsource-lead_gen_634_1,119.16332000000001,,
176,0.0,277.124,-0.00313536,,,,,430.212,179.908,,,,,monvsource-lead_gen_634_1,119.222070288,,
177,0.0,277.126,-0.00176511,,,,,242.152,179.948,,,,,monvsource-lead_gen_634_1,67.10661515199999,,
178,0.0,277.131,0.00242184,,,,,332.051,0.0713546,,,,,monvsource-lead_gen_634_1,92.02162568099999,,
179,0.0,277.122,-0.004406,,,,,604.666,179.87,,,,,monvsource-lead_gen_634_1,167.56625125200003,,
180,0.0,277.128,1.93668e-08,,,,,0.0,0.0,,,,,monvsource-lead_gen_634_1,0.0,,
181,0.0,277.128,1.93668e-08,,,,,0.0,0.0,,,,,monvsource-lead_gen_634_1,0.0,,
182,0.0,277.128,1.93668e-08,,,,,0.0,0.0,,,,,monvsource-lead_gen_634_1,0.0,,
183,0.0,277.128,1.93668e-08,,,,,0.0,0.0,,,,,monvsource-lead_gen_634_1,0.0,,
184,0.0,277.128,1.93668e-08,,,,,0.0,0.0,,,,,monvsource-lead_gen_634_1,0.0,,
185,0.0,277.128,1.93668e-08,,,,,0.0,0.0,,,,,monvsource-lead_gen_634_1,0.0,,
186,0.0,277.128,1.93668e-08,,,,,0.0,0.0,,,,,monvsource-lead_gen_634_1,0.0,,
187,0.0,277.128,1.93668e-08,,,,,0.0,0.0,,,,,monvsource-lead_gen_634_1,0.0,,
188,0.0,277.128,1.93668e-08,,,,,0.0,0.0,,,,,monvsource-lead_gen_634_1,0.0,,
189,0.0,277.128,1.93668e-08,,,,,0.0,0.0,,,,,monvsource-lead_gen_634_1,0.0,,
190,0.0,277.128,1.93668e-08,,,,,0.0,0.0,,,,,monvsource-lead_gen_634_1,0.0,,
191,0.0,277.128,1.93668e-08,,,,,0.0,0.0,,,,,monvsource-lead_gen_634_1,0.0,,
192,0.0,277.128,1.93668e-08,,,,,0.0,0.0,,,,,monvsource-lead_gen_634_1,0.0,,
193,0.0,277.128,1.93668e-08,,,,,0.0,0.0,,,,,monvsource-lead_gen_634_1,0.0,,
194,0.0,277.128,1.93668e-08,,,,,0.0,0.0,,,,,monvsource-lead_gen_634_1,0.0,,
195,0.0,277.128,1.93668e-08,,,,,0.0,0.0,,,,,monvsource-lead_gen_634_1,0.0,,
196,0.0,277.128,1.93668e-08,,,,,0.0,0.0,,,,,monvsource-lead_gen_634_1,0.0,,
197,0.0,277.128,1.93668e-08,,,,,0.0,0.0,,,,,monvsource-lead_gen_634_1,0.0,,
198,0.0,277.128,1.93668e-08,,,,,0.0,0.0,,,,,monvsource-lead_gen_634_1,0.0,,
199,0.0,277.128,1.93668e-08,,,,,0.0,0.0,,,,,monvsource-lead_gen_634_1,0.0,,
200,0.0,277.128,1.93668e-08,,,,,0.0,0.0,,,,,monvsource-lead_gen_634_1,0.0,,
201,0.0,277.128,1.93668e-08,,,,,0.0,0.0,,,,,monvsource-lead_gen_634_1,0.0,,
202,0.0,277.128,1.93668e-08,,,,,0.0,0.0,,,,,monvsource-lead_gen_634_1,0.0,,
203,0.0,277.128,1.93668e-08,,,,,0.0,0.0,,,,,monvsource-lead_gen_634_1,0.0,,
204,0.0,277.128,1.93668e-08,,,,,0.0,0.0,,,,,monvsource-lead_gen_634_1,0.0,,
205,0.0,277.128,1.93668e-08,,,,,0.0,0.0,,,,,monvsource-lead_gen_634_1,0.0,,
206,0.0,277.128,1.93668e-08,,,,,0.0,0.0,,,,,monvsource-lead_gen_634_1,0.0,,
207,0.0,277.128,1.93668e-08,,,,,0.0,0.0,,,,,monvsource-lead_gen_634_1,0.0,,
208,0.0,277.128,1.93668e-08,,,,,0.0,0.0,,,,,monvsource-lead_gen_634_1,0.0,,
209,0.0,277.128,1.93668e-08,,,,,0.0,0.0,,,,,monvsource-lead_gen_634_1,0.0,,
210,0.0,277.128,1.93668e-08,,,,,0.0,0.0,,,,,monvsource-lead_gen_634_1,0.0,,
211,0.0,277.128,1.93668e-08,,,,,0.0,0.0,,,,,monvsource-lead_gen_634_1,0.0,,
212,0.0,277.128,1.93668e-08,,,,,0.0,0.0,,,,,monvsource-lead_gen_634_1,0.0,,
213,0.0,277.128,1.93668e-08,,,,,0.0,0.0,,,,,monvsource-lead_gen_634_1,0.0,,
214,0.0,277.128,1.93668e-08,,,,,0.0,0.0,,,,,monvsource-lead_gen_634_1,0.0,,
215,0.0,277.128,1.93668e-08,,,,,0.0,0.0,,,,,monvsource-lead_gen_634_1,0.0,,
216,0.0,277.128,1.93668e-08,,,,,0.0,0.0,,,,,monvsource-lead_gen_634_1,0.0,,
217,0.0,277.128,1.93668e-08,,,,,0.0,0.0,,,,,monvsource-lead_gen_634_1,0.0,,
218,0.0,277.128,1.93668e-08,,,,,0.0,0.0,,,,,monvsource-lead_gen_634_1,0.0,,
219,0.0,277.128,1.93668e-08,,,,,0.0,0.0,,,,,monvsource-lead_gen_634_1,0.0,,
220,0.0,277.128,1.93668e-08,,,,,0.0,0.0,,,,,monvsource-lead_gen_634_1,0.0,,
221,0.0,277.128,1.93668e-08,,,,,0.0,0.0,,,,,monvsource-lead_gen_634_1,0.0,,
222,0.0,277.128,1.93668e-08,,,,,0.0,0.0,,,,,monvsource-lead_gen_634_1,0.0,,
223,0.0,277.128,1.93668e-08,,,,,0.0,0.0,,,,,monvsource-lead_gen_634_1,0.0,,
224,0.0,277.128,1.93668e-08,,,,,0.0,0.0,,,,,monvsource-lead_gen_634_1,0.0,,
225,0.0,277.128,1.93668e-08,,,,,0.0,0.0,,,,,monvsource-lead_gen_634_1,0.0,,
226,0.0,277.128,1.93668e-08,,,,,0.0,0.0,,,,,monvsource-lead_gen_634_1,0.0,,
227,0.0,277.128,1.93668e-08,,,,,0.0,0.0,,,,,monvsource-lead_gen_634_1,0.0,,
228,0.0,277.128,1.93668e-08,,,,,0.0,0.0,,,,,monvsource-lead_gen_634_1,0.0,,
229,0.0,277.128,1.93668e-08,,,,,0.0,0.0,,,,,monvsource-lead_gen_634_1,0.0,,
230,0.0,277.128,1.93668e-08,,,,,0.0,0.0,,,,,monvsource-lead_gen_634_1,0.0,,
231,0.0,277.128,1.93668e-08,,,,,0.0,0.0,,,,,monvsource-lead_gen_634_1,0.0,,
232,0.0,277.128,1.93668e-08,,,,,0.0,0.0,,,,,monvsource-lead_gen_634_1,0.0,,
233,0.0,277.128,1.93668e-08,,,,,0.0,0.0,,,,,monvsource-lead_gen_634_1,0.0,,
