hour,t(sec),V1,VAngle1,V2,VAngle2,I1,IAngle1,I2,IAngle2,V3,Name,VAngle3,I3,IAngle3,V4,VAngle4,I4,IAngle4,kv,V1(PU),V2(PU),V3(PU)
1,0.0,,111.165,,0.0,20.2518,111.16799999999999,20.2518,-68.8322,2404.75,monload-611_runway,,,,,,,,2.4,,,1.0019791666666666
2,0.0,,111.154,,0.0,21.49,111.155,21.49,-68.8454,2404.39,monload-611_runway,,,,,,,,2.4,,,1.0018291666666665
3,0.0,,111.18,,0.0,18.735,111.178,18.735,-68.8216,2405.55,monload-611_runway,,,,,,,,2.4,,,1.0023125000000002
4,0.0,,111.186,,0.0,18.1696,111.185,18.1696,-68.8146,2405.8,monload-611_runway,,,,,,,,2.4,,,1.0024166666666667
5,0.0,,110.956,,0.0,18.3433,110.958,18.3433,-69.0419,2395.04,monload-611_runway,,,,,,,,2.4,,,0.9979333333333333
6,0.0,,110.811,,0.0,19.8621,110.81299999999999,19.8621,-69.1873,2388.05,monload-611_runway,,,,,,,,2.4,,,0.9950208333333334
7,0.0,,110.094,,0.0,29.8483,110.09299999999999,29.8483,-69.9074,2354.26,monload-611_runway,,,,,,,,2.4,,,0.9809416666666667
8,0.0,,110.234,,0.0,31.8618,110.23299999999999,31.8618,-69.7675,2360.77,monload-611_runway,,,,,,,,2.4,,,0.9836541666666666
9,0.0,,110.13600000000001,,0.0,44.0268,110.141,44.0268,-69.8593,2356.53,monload-611_runway,,,,,,,,2.4,,,0.9818875000000001
10,0.0,,110.98700000000001,,0.0,37.8158,110.98700000000001,37.8158,-69.0128,2396.36,monload-611_runway,,,,,,,,2.4,,,0.9984833333333334
11,0.0,,111.165,,0.0,26.7204,111.169,26.7204,-68.831,2405.08,monload-611_runway,,,,,,,,2.4,,,1.0021166666666665
12,0.0,,112.811,,0.0,25.0426,112.81200000000001,25.0426,-67.1877,2465.52,monload-611_runway,,,,,,,,2.4,,,1.0273
13,0.0,,111.035,,0.0,24.9564,111.036,24.9564,-68.9639,2383.48,monload-611_runway,,,,,,,,2.4,,,0.9931166666666666
14,0.0,,111.647,,0.0,24.9959,111.648,24.9959,-68.3524,2412.29,monload-611_runway,,,,,,,,2.4,,,1.0051208333333332
15,0.0,,112.765,,0.0,24.9268,112.76100000000001,24.9268,-67.23899999999999,2462.58,monload-611_runway,,,,,,,,2.4,,,1.026075
16,0.0,,112.921,,0.0,24.7866,112.921,24.7866,-67.079,2469.53,monload-611_runway,,,,,,,,2.4,,,1.0289708333333334
17,0.0,,111.41799999999999,,0.0,25.989,111.419,25.989,-68.5812,2400.88,monload-611_runway,,,,,,,,2.4,,,1.0003666666666666
18,0.0,,109.999,,0.0,31.4301,109.999,31.4301,-70.0008,2334.45,monload-611_runway,,,,,,,,2.4,,,0.9726874999999999
19,0.0,,109.72,,0.0,43.1551,109.715,43.1551,-70.2846,2336.35,monload-611_runway,,,,,,,,2.4,,,0.9734791666666667
20,0.0,,109.735,,0.0,45.3034,109.73299999999999,45.3034,-70.2673,2337.2,monload-611_runway,,,,,,,,2.4,,,0.9738333333333332
21,0.0,,109.875,,0.0,47.8087,109.874,47.8087,-70.1263,2343.94,monload-611_runway,,,,,,,,2.4,,,0.9766416666666667
22,0.0,,110.306,,0.0,46.4444,110.307,46.4444,-69.6933,2364.17,monload-611_runway,,,,,,,,2.4,,,0.9850708333333333
23,0.0,,110.68,,0.0,35.6973,110.676,35.6973,-69.3239,2382.02,monload-611_runway,,,,,,,,2.4,,,0.9925083333333333
24,0.0,,110.8,,0.0,22.9122,110.79899999999999,22.9122,-69.2014,2387.95,monload-611_runway,,,,,,,,2.4,,,0.9949791666666666
25,0.0,,110.85700000000001,,0.0,18.6667,110.85600000000001,18.6667,-69.1436,2390.86,monload-611_runway,,,,,,,,2.4,,,0.9961916666666667
26,0.0,,110.853,,0.0,17.8494,110.853,17.8494,-69.1467,2390.67,monload-611_runway,,,,,,,,2.4,,,0.9961125000000001
27,0.0,,110.863,,0.0,16.9263,110.86200000000001,16.9263,-69.1381,2391.12,monload-611_runway,,,,,,,,2.4,,,0.9963
28,0.0,,111.04899999999999,,0.0,17.0116,111.04799999999999,17.0116,-68.9523,2399.52,monload-611_runway,,,,,,,,2.4,,,0.9998
29,0.0,,110.322,,0.0,17.6802,110.322,17.6802,-69.6775,2365.43,monload-611_runway,,,,,,,,2.4,,,0.9855958333333332
30,0.0,,110.054,,0.0,21.26,110.056,21.26,-69.9442,2352.62,monload-611_runway,,,,,,,,2.4,,,0.9802583333333333
31,0.0,,108.454,,0.0,33.1297,108.45200000000001,33.1297,-71.5478,2276.74,monload-611_runway,,,,,,,,2.4,,,0.9486416666666666
32,0.0,,107.89299999999999,,0.0,34.5978,107.89200000000001,34.5978,-72.1076,2264.22,monload-611_runway,,,,,,,,2.4,,,0.943425
33,0.0,,108.227,,0.0,30.7756,108.228,30.7756,-71.7721,2281.07,monload-611_runway,,,,,,,,2.4,,,0.9504458333333334
34,0.0,,108.89299999999999,,0.0,31.0977,108.89399999999999,31.0977,-71.1058,2314.06,monload-611_runway,,,,,,,,2.4,,,0.9641916666666667
35,0.0,,109.52600000000001,,0.0,25.135,109.524,25.135,-70.4758,2344.67,monload-611_runway,,,,,,,,2.4,,,0.9769458333333334
36,0.0,,107.961,,0.0,25.8577,107.959,25.8577,-72.0406,2267.86,monload-611_runway,,,,,,,,2.4,,,0.9449416666666667
37,0.0,,111.32700000000001,,0.0,26.4116,111.329,26.4116,-68.6707,2414.91,monload-611_runway,,,,,,,,2.4,,,1.0062125
38,0.0,,109.264,,0.0,25.3752,109.26299999999999,25.3752,-70.7374,2316.66,monload-611_runway,,,,,,,,2.4,,,0.965275
39,0.0,,112.566,,0.0,24.5082,112.568,24.5082,-67.4321,2455.44,monload-611_runway,,,,,,,,2.4,,,1.0231000000000001
40,0.0,,111.012,,0.0,24.748,111.01299999999999,24.748,-68.9867,2384.52,monload-611_runway,,,,,,,,2.4,,,0.99355
41,0.0,,109.118,,0.0,25.8685,109.118,25.8685,-70.8824,2309.84,monload-611_runway,,,,,,,,2.4,,,0.9624333333333334
42,0.0,,107.624,,0.0,31.2239,107.62299999999999,31.2239,-72.3772,2250.07,monload-611_runway,,,,,,,,2.4,,,0.9375291666666667
43,0.0,,108.32700000000001,,0.0,38.7986,108.329,38.7986,-71.6706,2284.47,monload-611_runway,,,,,,,,2.4,,,0.9518625
44,0.0,,108.32600000000001,,0.0,41.1781,108.325,41.1781,-71.6746,2284.53,monload-611_runway,,,,,,,,2.4,,,0.9518875000000001
45,0.0,,109.008,,0.0,45.1231,109.006,45.1231,-70.9938,2317.69,monload-611_runway,,,,,,,,2.4,,,0.9657041666666667
46,0.0,,109.37700000000001,,0.0,42.3023,109.37700000000001,42.3023,-70.6235,2335.7,monload-611_runway,,,,,,,,2.4,,,0.9732083333333332
47,0.0,,110.249,,0.0,30.8497,110.25,30.8497,-69.7496,2376.98,monload-611_runway,,,,,,,,2.4,,,0.9904083333333333
48,0.0,,110.54899999999999,,0.0,21.1497,110.551,21.1497,-69.4491,2391.22,monload-611_runway,,,,,,,,2.4,,,0.9963416666666666
49,0.0,,110.681,,0.0,18.8942,110.68299999999999,18.8942,-69.3174,2397.62,monload-611_runway,,,,,,,,2.4,,,0.9990083333333333
50,0.0,,110.71700000000001,,0.0,18.3946,110.714,18.3946,-69.2865,2399.26,monload-611_runway,,,,,,,,2.4,,,0.9996916666666668
51,0.0,,110.759,,0.0,17.8874,110.755,17.8874,-69.2452,2401.21,monload-611_runway,,,,,,,,2.4,,,1.0005041666666667
52,0.0,,110.755,,0.0,18.4384,110.755,18.4384,-69.2449,2401.03,monload-611_runway,,,,,,,,2.4,,,1.0004291666666667
53,0.0,,110.064,,0.0,19.6598,110.065,19.6598,-69.9348,2368.31,monload-611_runway,,,,,,,,2.4,,,0.9867958333333333
54,0.0,,109.78299999999999,,0.0,23.9779,109.786,23.9779,-70.214,2354.73,monload-611_runway,,,,,,,,2.4,,,0.9811375
55,0.0,,108.20100000000001,,0.0,35.7034,108.205,35.7034,-71.7952,2278.93,monload-611_runway,,,,,,,,2.4,,,0.9495541666666666
56,0.0,,107.675,,0.0,35.5341,107.67399999999999,35.5341,-72.3256,2253.37,monload-611_runway,,,,,,,,2.4,,,0.9389041666666667
57,0.0,,109.375,,0.0,31.5574,109.37799999999999,31.5574,-70.6223,2336.36,monload-611_runway,,,,,,,,2.4,,,0.9734833333333334
58,0.0,,110.899,,0.0,31.2533,110.90299999999999,31.2533,-69.0971,2394.61,monload-611_runway,,,,,,,,2.4,,,0.9977541666666667
59,0.0,,112.321,,0.0,24.7817,112.306,24.7817,-67.6936,2460.04,monload-611_runway,,,,,,,,2.4,,,1.0250166666666667
60,0.0,,-0.139909,,0.0,25.9092,-0.139909,25.9092,179.86,2402.85,monload-611_runway,,,,,,,,2.4,,,1.0011875
61,0.0,,-0.140896,,0.0,27.1001,-0.140897,27.1001,179.859,2402.78,monload-611_runway,,,,,,,,2.4,,,1.0011583333333334
62,0.0,,-0.141031,,0.0,27.5835,-0.141031,27.5835,179.859,2402.76,monload-611_runway,,,,,,,,2.4,,,1.00115
63,0.0,,-0.143054,,0.0,27.9419,-0.14305199999999998,27.9419,179.857,2402.71,monload-611_runway,,,,,,,,2.4,,,1.0011291666666666
64,0.0,,-0.144477,,0.0,28.0794,-0.144476,28.0794,179.856,2402.67,monload-611_runway,,,,,,,,2.4,,,1.0011125
65,0.0,,-0.148928,,0.0,28.5183,-0.148925,28.5183,179.851,2402.57,monload-611_runway,,,,,,,,2.4,,,1.0010708333333334
66,0.0,,-0.160374,,0.0,32.6003,-0.160367,32.6003,179.84,2402.18,monload-611_runway,,,,,,,,2.4,,,1.0009083333333333
67,0.0,,-0.168049,,0.0,38.728,-0.168043,38.728,179.832,2401.78,monload-611_runway,,,,,,,,2.4,,,1.0007416666666666
68,0.0,,-0.171972,,0.0,40.8709,-0.17197,40.8709,179.828,2401.62,monload-611_runway,,,,,,,,2.4,,,1.000675
69,0.0,,-0.17716800000000002,,0.0,44.806000000000004,-0.17716500000000002,44.806000000000004,179.82299999999998,2401.36,monload-611_runway,,,,,,,,2.4,,,1.0005666666666668
70,0.0,,-0.171193,,0.0,41.9513,-0.171195,41.9513,179.829,2401.59,monload-611_runway,,,,,,,,2.4,,,1.0006625
71,0.0,,-0.148798,,0.0,30.874000000000002,-0.148816,30.874000000000002,179.851,2402.48,monload-611_runway,,,,,,,,2.4,,,1.0010333333333334
72,0.0,,-0.130063,,0.0,21.1947,-0.130084,21.1947,179.87,2403.23,monload-611_runway,,,,,,,,2.4,,,1.0013458333333334
73,0.0,,-0.124697,,0.0,18.5785,-0.124703,18.5785,179.875,2403.44,monload-611_runway,,,,,,,,2.4,,,1.0014333333333334
74,0.0,,-0.123026,,0.0,17.7129,-0.123028,17.7129,179.877,2403.51,monload-611_runway,,,,,,,,2.4,,,1.0014625000000001
75,0.0,,-0.12115899999999999,,0.0,16.7422,-0.12116099999999999,16.7422,179.87900000000002,2403.58,monload-611_runway,,,,,,,,2.4,,,1.0014916666666667
76,0.0,,-0.121299,,0.0,16.8093,-0.121299,16.8093,179.87900000000002,2403.58,monload-611_runway,,,,,,,,2.4,,,1.0014916666666667
77,0.0,,-0.124654,,0.0,17.5128,-0.12465,17.5128,179.875,2403.48,monload-611_runway,,,,,,,,2.4,,,1.00145
78,0.0,,-0.131251,,0.0,20.9229,-0.131243,20.9229,179.86900000000003,2403.22,monload-611_runway,,,,,,,,2.4,,,1.0013416666666666
79,0.0,,-0.15748199999999998,,0.0,32.7171,-0.15746400000000002,32.7171,179.843,2402.23,monload-611_runway,,,,,,,,2.4,,,1.0009291666666666
80,0.0,,-0.16375,,0.0,34.9942,-0.163746,34.9942,179.83599999999998,2402.02,monload-611_runway,,,,,,,,2.4,,,1.0008416666666666
81,0.0,,-0.150195,,0.0,30.82,-0.150204,30.82,179.85,2402.45,monload-611_runway,,,,,,,,2.4,,,1.0010208333333332
82,0.0,,-0.13833299999999998,,0.0,30.1071,-0.13834100000000002,30.1071,179.862,2402.71,monload-611_runway,,,,,,,,2.4,,,1.0011291666666666
83,0.0,,-0.114604,,0.0,23.08,-0.11459200000000001,23.08,179.885,2403.46,monload-611_runway,,,,,,,,2.4,,,1.0014416666666668
84,0.0,,-0.11203900000000001,,0.0,23.6213,-0.11203900000000001,23.6213,179.888,2403.49,monload-611_runway,,,,,,,,2.4,,,1.0014541666666665
85,0.0,,-0.112829,,0.0,24.733,-0.112828,24.733,179.887,2403.43,monload-611_runway,,,,,,,,2.4,,,1.0014291666666666
86,0.0,,-0.11703,,0.0,26.0612,-0.117028,26.0612,179.88299999999998,2403.3,monload-611_runway,,,,,,,,2.4,,,1.0013750000000001
87,0.0,,-0.12216800000000001,,0.0,26.4039,-0.12217,26.4039,179.878,2403.18,monload-611_runway,,,,,,,,2.4,,,1.001325
88,0.0,,-0.131731,,0.0,26.3335,-0.131736,26.3335,179.868,2403.0,monload-611_runway,,,,,,,,2.4,,,1.00125
89,0.0,,-0.143192,,0.0,27.5633,-0.143201,27.5633,179.857,2402.72,monload-611_runway,,,,,,,,2.4,,,1.0011333333333332
90,0.0,,-0.162241,,0.0,33.8235,-0.162222,33.8235,179.838,2402.09,monload-611_runway,,,,,,,,2.4,,,1.0008708333333334
91,0.0,,-0.174484,,0.0,41.4629,-0.174467,41.4629,179.826,2401.55,monload-611_runway,,,,,,,,2.4,,,1.0006458333333335
92,0.0,,-0.180136,,0.0,44.545,-0.18012899999999998,44.545,179.82,2401.31,monload-611_runway,,,,,,,,2.4,,,1.0005458333333332
93,0.0,,-0.18676600000000002,,0.0,49.2734,-0.186754,49.2734,179.813,2400.99,monload-611_runway,,,,,,,,2.4,,,1.0004125
94,0.0,,-0.180697,,0.0,46.4184,-0.180707,46.4184,179.81900000000002,2401.23,monload-611_runway,,,,,,,,2.4,,,1.0005125
95,0.0,,-0.15629400000000002,,0.0,34.3923,-0.156344,34.3923,179.84400000000002,2402.19,monload-611_runway,,,,,,,,2.4,,,1.0009125
96,0.0,,-0.136511,,0.0,24.0131,-0.13655899999999999,24.0131,179.863,2402.99,monload-611_runway,,,,,,,,2.4,,,1.0012458333333332
97,0.0,,-0.132043,,0.0,21.7964,-0.132054,21.7964,179.868,2403.17,monload-611_runway,,,,,,,,2.4,,,1.0013208333333334
98,0.0,,-0.130123,,0.0,20.8093,-0.130128,20.8093,179.87,2403.25,monload-611_runway,,,,,,,,2.4,,,1.0013541666666668
99,0.0,,-0.127682,,0.0,19.5335,-0.127689,19.5335,179.872,2403.34,monload-611_runway,,,,,,,,2.4,,,1.0013916666666667
100,0.0,,-0.127209,,0.0,19.3539,-0.12721,19.3539,179.873,2403.36,monload-611_runway,,,,,,,,2.4,,,1.0014
101,0.0,,-0.12972899999999998,,0.0,19.795,-0.129723,19.795,179.87,2403.29,monload-611_runway,,,,,,,,2.4,,,1.0013708333333333
102,0.0,,-0.137432,,0.0,23.6849,-0.137414,23.6849,179.863,2402.99,monload-611_runway,,,,,,,,2.4,,,1.0012458333333332
103,0.0,,-0.169302,,0.0,38.4226,-0.169242,38.4226,179.831,2401.77,monload-611_runway,,,,,,,,2.4,,,1.0007375
104,0.0,,-0.179673,,0.0,42.7031,-0.179655,42.7031,179.82,2401.39,monload-611_runway,,,,,,,,2.4,,,1.0005791666666666
105,0.0,,-0.167381,,0.0,39.7651,-0.1674,39.7651,179.833,2401.75,monload-611_runway,,,,,,,,2.4,,,1.0007291666666667
106,0.0,,-0.162695,,0.0,42.458999999999996,-0.162697,42.458999999999996,179.83700000000002,2401.74,monload-611_runway,,,,,,,,2.4,,,1.0007249999999999
107,0.0,,-0.14363199999999998,,0.0,36.7749,-0.143594,36.7749,179.856,2402.35,monload-611_runway,,,,,,,,2.4,,,1.0009791666666665
108,0.0,,-0.131826,,0.0,34.924,-0.131833,34.924,179.868,2402.65,monload-611_runway,,,,,,,,2.4,,,1.0011041666666667
109,0.0,,-0.132858,,0.0,35.3309,-0.132857,35.3309,179.86700000000002,2402.62,monload-611_runway,,,,,,,,2.4,,,1.0010916666666667
110,0.0,,-0.13628099999999999,,0.0,36.1511,-0.13627899999999998,36.1511,179.864,2402.52,monload-611_runway,,,,,,,,2.4,,,1.00105
111,0.0,,-0.14152,,0.0,36.556999999999995,-0.141517,36.556999999999995,179.858,2402.4,monload-611_runway,,,,,,,,2.4,,,1.0010000000000001
112,0.0,,-0.149773,,0.0,35.8436,-0.149781,35.8436,179.85,2402.26,monload-611_runway,,,,,,,,2.4,,,1.0009416666666668
113,0.0,,-0.16125799999999998,,0.0,37.3236,-0.161251,37.3236,179.83900000000003,2401.97,monload-611_runway,,,,,,,,2.4,,,1.0008208333333333
114,0.0,,-0.177675,,0.0,42.3539,-0.177655,42.3539,179.822,2401.45,monload-611_runway,,,,,,,,2.4,,,1.0006041666666665
115,0.0,,-0.186419,,0.0,48.2942,-0.186407,48.2942,179.81400000000002,2401.04,monload-611_runway,,,,,,,,2.4,,,1.0004333333333333
116,0.0,,-0.19112300000000002,,0.0,50.8826,-0.191118,50.8826,179.80900000000003,2400.84,monload-611_runway,,,,,,,,2.4,,,1.00035
117,0.0,,-0.196848,,0.0,55.1034,-0.19683599999999998,55.1034,179.803,2400.56,monload-611_runway,,,,,,,,2.4,,,1.0002333333333333
118,0.0,,-0.19115,,0.0,52.4571,-0.19116,52.4571,179.80900000000003,2400.78,monload-611_runway,,,,,,,,2.4,,,1.0003250000000001
119,0.0,,-0.167234,,0.0,40.733000000000004,-0.167287,40.733000000000004,179.833,2401.72,monload-611_runway,,,,,,,,2.4,,,1.0007166666666665
120,0.0,,-0.14593699999999998,,0.0,29.5798,-0.145993,29.5798,179.854,2402.58,monload-611_runway,,,,,,,,2.4,,,1.001075
121,0.0,,-0.138647,,0.0,25.8806,-0.138667,25.8806,179.861,2402.88,monload-611_runway,,,,,,,,2.4,,,1.0012
122,0.0,,-0.136134,,0.0,24.5759,-0.136141,24.5759,179.864,2402.98,monload-611_runway,,,,,,,,2.4,,,1.0012416666666666
123,0.0,,-0.13309200000000002,,0.0,22.9971,-0.1331,22.9971,179.86700000000002,2403.1,monload-611_runway,,,,,,,,2.4,,,1.0012916666666667
124,0.0,,-0.131937,,0.0,22.3842,-0.13194,22.3842,179.868,2403.15,monload-611_runway,,,,,,,,2.4,,,1.0013125
125,0.0,,-0.134703,,0.0,22.8134,-0.134697,22.8134,179.865,2403.08,monload-611_runway,,,,,,,,2.4,,,1.0012833333333333
126,0.0,,-0.142324,,0.0,26.7316,-0.14230299999999999,26.7316,179.858,2402.77,monload-611_runway,,,,,,,,2.4,,,1.0011541666666666
127,0.0,,-0.173845,,0.0,41.3038,-0.173777,41.3038,179.826,2401.57,monload-611_runway,,,,,,,,2.4,,,1.0006541666666668
128,0.0,,-0.183971,,0.0,45.5509,-0.183952,45.5509,179.81599999999997,2401.2,monload-611_runway,,,,,,,,2.4,,,1.0005
129,0.0,,-0.176627,,0.0,44.0571,-0.17664000000000002,44.0571,179.82299999999998,2401.4,monload-611_runway,,,,,,,,2.4,,,1.0005833333333334
130,0.0,,-0.16863,,0.0,44.3574,-0.168641,44.3574,179.831,2401.55,monload-611_runway,,,,,,,,2.4,,,1.0006458333333335
131,0.0,,-0.14747000000000002,,0.0,38.3172,-0.147421,38.3172,179.85299999999998,2402.21,monload-611_runway,,,,,,,,2.4,,,1.0009208333333333
132,0.0,,-0.15193099999999998,,0.0,39.0492,-0.15193399999999999,39.0492,179.84799999999998,2402.09,monload-611_runway,,,,,,,,2.4,,,1.0008708333333334
133,0.0,,-0.14943800000000002,,0.0,39.7514,-0.149437,39.7514,179.851,2402.11,monload-611_runway,,,,,,,,2.4,,,1.0008791666666668
134,0.0,,-0.15017,,0.0,40.3209,-0.150168,40.3209,179.85,2402.07,monload-611_runway,,,,,,,,2.4,,,1.0008625
135,0.0,,-0.149316,,0.0,40.0177,-0.149315,40.0177,179.851,2402.1,monload-611_runway,,,,,,,,2.4,,,1.000875
136,0.0,,-0.154601,,0.0,38.751,-0.154606,38.751,179.845,2402.05,monload-611_runway,,,,,,,,2.4,,,1.0008541666666668
137,0.0,,-0.16202,,0.0,37.858000000000004,-0.162026,37.858000000000004,179.838,2401.94,monload-611_runway,,,,,,,,2.4,,,1.0008083333333333
138,0.0,,-0.179055,,0.0,42.9001,-0.179034,42.9001,179.821,2401.4,monload-611_runway,,,,,,,,2.4,,,1.0005833333333334
139,0.0,,-0.189874,,0.0,49.9773,-0.189893,49.9773,179.81,2400.9,monload-611_runway,,,,,,,,2.4,,,1.000375
140,0.0,,-0.194803,,0.0,52.678000000000004,-0.194795,52.678000000000004,179.805,2400.7,monload-611_runway,,,,,,,,2.4,,,1.0002916666666666
141,0.0,,-0.20108800000000002,,0.0,57.1881,-0.201078,57.1881,179.799,2400.39,monload-611_runway,,,,,,,,2.4,,,1.0001624999999998
142,0.0,,-0.189703,,0.0,51.6617,-0.189721,51.6617,179.81,2400.84,monload-611_runway,,,,,,,,2.4,,,1.00035
143,0.0,,-0.16025,,0.0,37.0848,-0.16030999999999998,37.0848,179.84,2402.0,monload-611_runway,,,,,,,,2.4,,,1.0008333333333332
144,0.0,,-0.137825,,0.0,25.3175,-0.13788,25.3175,179.862,2402.91,monload-611_runway,,,,,,,,2.4,,,1.0012124999999998
145,0.0,,-0.13342,,0.0,23.1146,-0.133431,23.1146,179.86700000000002,2403.09,monload-611_runway,,,,,,,,2.4,,,1.0012875
146,0.0,,-0.132758,,0.0,22.7156,-0.13276,22.7156,179.86700000000002,2403.12,monload-611_runway,,,,,,,,2.4,,,1.0012999999999999
147,0.0,,-0.126641,,0.0,19.4987,-0.126657,19.4987,179.873,2403.37,monload-611_runway,,,,,,,,2.4,,,1.0014041666666667
148,0.0,,-0.12596300000000002,,0.0,19.1538,-0.12596500000000002,19.1538,179.87400000000002,2403.39,monload-611_runway,,,,,,,,2.4,,,1.0014125
149,0.0,,-0.12701500000000002,,0.0,19.44,-0.12701199999999999,19.44,179.873,2403.36,monload-611_runway,,,,,,,,2.4,,,1.0014
150,0.0,,-0.129673,,0.0,20.7921,-0.129666,20.7921,179.87,2403.26,monload-611_runway,,,,,,,,2.4,,,1.0013583333333334
151,0.0,,-0.149729,,0.0,30.6613,-0.14968399999999998,30.6613,179.85,2402.47,monload-611_runway,,,,,,,,2.4,,,1.0010291666666666
152,0.0,,-0.155621,,0.0,32.5578,-0.15561,32.5578,179.84400000000002,2402.27,monload-611_runway,,,,,,,,2.4,,,1.0009458333333334
153,0.0,,-0.173528,,0.0,45.5458,-0.173492,45.5458,179.827,2401.4,monload-611_runway,,,,,,,,2.4,,,1.0005833333333334
154,0.0,,-0.166124,,0.0,40.6198,-0.16614,40.6198,179.834,2401.75,monload-611_runway,,,,,,,,2.4,,,1.0007291666666667
155,0.0,,-0.12705,,0.0,31.8176,-0.127005,31.8176,179.873,2402.87,monload-611_runway,,,,,,,,2.4,,,1.0011958333333333
156,0.0,,-0.125618,,0.0,31.3428,-0.125619,31.3428,179.87400000000002,2402.92,monload-611_runway,,,,,,,,2.4,,,1.0012166666666666
157,0.0,,-0.129641,,0.0,32.0281,-0.129639,32.0281,179.87,2402.81,monload-611_runway,,,,,,,,2.4,,,1.0011708333333333
158,0.0,,-0.130131,,0.0,31.7662,-0.130131,31.7662,179.87,2402.81,monload-611_runway,,,,,,,,2.4,,,1.0011708333333333
159,0.0,,-0.134775,,0.0,32.0361,-0.13477999999999998,32.0361,179.865,2402.71,monload-611_runway,,,,,,,,2.4,,,1.0011291666666666
160,0.0,,-0.148405,,0.0,33.0122,-0.14841500000000002,33.0122,179.852,2402.4,monload-611_runway,,,,,,,,2.4,,,1.0010000000000001
161,0.0,,-0.15303599999999998,,0.0,33.2851,-0.153041,33.2851,179.847,2402.3,monload-611_runway,,,,,,,,2.4,,,1.0009583333333334
162,0.0,,-0.162044,,0.0,36.5459,-0.16203499999999998,36.5459,179.838,2401.99,monload-611_runway,,,,,,,,2.4,,,1.0008291666666667
163,0.0,,-0.182768,,0.0,47.5561,-0.18273599999999998,47.5561,179.817,2401.14,monload-611_runway,,,,,,,,2.4,,,1.000475
164,0.0,,-0.185923,,0.0,49.2997,-0.185918,49.2997,179.81400000000002,2401.01,monload-611_runway,,,,,,,,2.4,,,1.0004208333333333
