hour,t(sec),P1(kW),Q1(kvar),P2(kW),Q2(kvar),P3(kW),Name,Q3(kvar),P4(kW),Q4(kvar)
1,0.0,0.8046770000000001,6.42491e-07,,0.0,,mongenerator-battery_634_existing,,,
2,0.0,0.804707,-7.134539999999999e-08,,0.0,,mongenerator-battery_634_existing,,,
3,0.0,0.804713,3.91998e-08,,0.0,,mongenerator-battery_634_existing,,,
4,0.0,0.804714,1.16384e-08,,0.0,,mongenerator-battery_634_existing,,,
5,0.0,0.804683,-2.00504e-07,,0.0,,mongenerator-battery_634_existing,,,
6,0.0,0.804615,-4.2930599999999997e-07,,0.0,,mongenerator-battery_634_existing,,,
7,0.0,0.804537,-5.07968e-07,,0.0,,mongenerator-battery_634_existing,,,
8,0.0,0.804592,4.17696e-07,,0.0,,mongenerator-battery_634_existing,,,
9,0.0,0.805186,3.83913e-06,,0.0,,mongenerator-battery_634_existing,,,
10,0.0,0.806338,9.54318e-06,,0.0,,mongenerator-battery_634_existing,,,
11,0.0,0.807072,6.895060000000001e-06,,0.0,,mongenerator-battery_634_existing,,,
12,0.0,0.812008,1.28116e-06,,0.0,,mongenerator-battery_634_existing,,,
13,0.0,0.806381,-3.90208e-07,,0.0,,mongenerator-battery_634_existing,,,
14,0.0,0.808599,2.6222399999999998e-05,,0.0,,mongenerator-battery_634_existing,,,
15,0.0,0.810546,2.85829e-05,,0.0,,mongenerator-battery_634_existing,,,
16,0.0,0.810988,6.6539e-06,,0.0,,mongenerator-battery_634_existing,,,
17,0.0,0.807743,-3.4610500000000003e-05,,0.0,,mongenerator-battery_634_existing,,,
18,0.0,0.804659,-1.80943e-05,,0.0,,mongenerator-battery_634_existing,,,
19,0.0,0.804348,-1.70794e-06,,0.0,,mongenerator-battery_634_existing,,,
20,0.0,0.804361,8.5594e-08,,0.0,,mongenerator-battery_634_existing,,,
21,0.0,0.8043680000000001,3.33226e-08,,0.0,,mongenerator-battery_634_existing,,,
22,0.0,0.804445,4.81739e-07,,0.0,,mongenerator-battery_634_existing,,,
23,0.0,0.804535,5.80608e-07,,0.0,,mongenerator-battery_634_existing,,,
24,0.0,0.80461,4.86552e-07,,0.0,,mongenerator-battery_634_existing,,,
25,0.0,0.804655,2.81915e-07,,0.0,,mongenerator-battery_634_existing,,,
26,0.0,0.804655,-2.17226e-09,,0.0,,mongenerator-battery_634_existing,,,
27,0.0,0.80465,-2.5112900000000002e-08,,0.0,,mongenerator-battery_634_existing,,,
28,0.0,0.804646,-2.6488200000000003e-08,,0.0,,mongenerator-battery_634_existing,,,
29,0.0,0.80461,-2.2586500000000002e-07,,0.0,,mongenerator-battery_634_existing,,,
30,0.0,0.8045359999999999,-4.64132e-07,,0.0,,mongenerator-battery_634_existing,,,
31,0.0,0.80445,-6.01501e-07,,0.0,,mongenerator-battery_634_existing,,,
32,0.0,0.804484,2.25015e-07,,0.0,,mongenerator-battery_634_existing,,,
33,0.0,0.805922,9.99593e-06,,0.0,,mongenerator-battery_634_existing,,,
34,0.0,0.8082020000000001,2.19339e-07,,0.0,,mongenerator-battery_634_existing,,,
35,0.0,0.80972,1.87946e-05,,0.0,,mongenerator-battery_634_existing,,,
36,0.0,0.796686,-1.7671099999999998e-06,,0.0,,mongenerator-battery_634_existing,,,
37,0.0,0.815735,6.2065e-06,,0.0,,mongenerator-battery_634_existing,,,
38,0.0,0.808545,-6.255019999999999e-07,,0.0,,mongenerator-battery_634_existing,,,
39,0.0,0.823634,7.77055e-06,,0.0,,mongenerator-battery_634_existing,,,
40,0.0,0.814521,-2.18579e-06,,0.0,,mongenerator-battery_634_existing,,,
41,0.0,0.809685,-5.94173e-07,,0.0,,mongenerator-battery_634_existing,,,
42,0.0,0.800243,-9.282139999999999e-07,,0.0,,mongenerator-battery_634_existing,,,
43,0.0,0.7997350000000001,-2.4528599999999996e-06,,0.0,,mongenerator-battery_634_existing,,,
44,0.0,0.802193,1.32004e-05,,0.0,,mongenerator-battery_634_existing,,,
45,0.0,0.8043399999999999,1.1439500000000001e-05,,0.0,,mongenerator-battery_634_existing,,,
46,0.0,0.804422,4.57022e-07,,0.0,,mongenerator-battery_634_existing,,,
47,0.0,0.804513,5.94363e-07,,0.0,,mongenerator-battery_634_existing,,,
48,0.0,0.8045859999999999,4.6582500000000006e-07,,0.0,,mongenerator-battery_634_existing,,,
49,0.0,0.804628,2.62476e-07,,0.0,,mongenerator-battery_634_existing,,,
50,0.0,0.8046260000000001,-1.27111e-08,,0.0,,mongenerator-battery_634_existing,,,
51,0.0,0.80462,-3.90265e-08,,0.0,,mongenerator-battery_634_existing,,,
52,0.0,0.804616,-2.93377e-08,,0.0,,mongenerator-battery_634_existing,,,
53,0.0,0.8045770000000001,-2.40675e-07,,0.0,,mongenerator-battery_634_existing,,,
54,0.0,0.804503,-4.5827e-07,,0.0,,mongenerator-battery_634_existing,,,
55,0.0,0.804411,-6.34669e-07,,0.0,,mongenerator-battery_634_existing,,,
56,0.0,0.8044560000000001,2.63093e-07,,0.0,,mongenerator-battery_634_existing,,,
57,0.0,0.8086909999999999,4.77009e-05,,0.0,,mongenerator-battery_634_existing,,,
58,0.0,0.8144899999999999,1.93612e-06,,0.0,,mongenerator-battery_634_existing,,,
59,0.0,0.8226600000000001,2.73129e-06,,0.0,,mongenerator-battery_634_existing,,,
60,0.0,0.810125,-1.43004e-06,,0.0,,mongenerator-battery_634_existing,,,
61,0.0,0.814524,1.50369e-06,,0.0,,mongenerator-battery_634_existing,,,
62,0.0,0.814474,-5.641700000000001e-07,,0.0,,mongenerator-battery_634_existing,,,
63,0.0,0.812632,-3.11441e-05,,0.0,,mongenerator-battery_634_existing,,,
64,0.0,0.8115140000000001,-1.67532e-05,,0.0,,mongenerator-battery_634_existing,,,
65,0.0,0.808084,-3.4345500000000005e-05,,0.0,,mongenerator-battery_634_existing,,,
66,0.0,0.801864,-3.56778e-05,,0.0,,mongenerator-battery_634_existing,,,
67,0.0,0.801797,5.43231e-08,,0.0,,mongenerator-battery_634_existing,,,
68,0.0,0.8043399999999999,1.36566e-05,,0.0,,mongenerator-battery_634_existing,,,
69,0.0,0.80435,-5.57932e-09,,0.0,,mongenerator-battery_634_existing,,,
70,0.0,0.804423,4.5145699999999996e-07,,0.0,,mongenerator-battery_634_existing,,,
71,0.0,0.804517,6.075330000000001e-07,,0.0,,mongenerator-battery_634_existing,,,
72,0.0,0.804601,5.37521e-07,,0.0,,mongenerator-battery_634_existing,,,
73,0.0,0.804652,3.1845700000000003e-07,,0.0,,mongenerator-battery_634_existing,,,
74,0.0,0.804657,3.17227e-08,,0.0,,mongenerator-battery_634_existing,,,
75,0.0,0.804663,4.0600899999999995e-08,,0.0,,mongenerator-battery_634_existing,,,
76,0.0,0.804664,4.46306e-09,,0.0,,mongenerator-battery_634_existing,,,
77,0.0,0.804628,-2.24613e-07,,0.0,,mongenerator-battery_634_existing,,,
78,0.0,0.8045640000000001,-4.0484e-07,,0.0,,mongenerator-battery_634_existing,,,
79,0.0,0.804485,-5.175100000000001e-07,,0.0,,mongenerator-battery_634_existing,,,
80,0.0,0.804519,1.69664e-07,,0.0,,mongenerator-battery_634_existing,,,
81,0.0,0.8061560000000001,6.28053e-07,,0.0,,mongenerator-battery_634_existing,,,
82,0.0,0.826058,8.4636e-06,,0.0,,mongenerator-battery_634_existing,,,
83,0.0,0.858176,-1.1234299999999999e-06,,0.0,,mongenerator-battery_634_existing,,,
84,0.0,0.872257,-7.66542e-07,,0.0,,mongenerator-battery_634_existing,,,
85,0.0,0.8712559999999999,-6.27156e-05,,0.0,,mongenerator-battery_634_existing,,,
86,0.0,0.8665360000000001,-1.9548e-06,,0.0,,mongenerator-battery_634_existing,,,
87,0.0,0.8508049999999999,-5.407519999999999e-06,,0.0,,mongenerator-battery_634_existing,,,
88,0.0,0.823217,-5.85703e-08,,0.0,,mongenerator-battery_634_existing,,,
89,0.0,0.8036909999999999,-1.8686799999999999e-06,,0.0,,mongenerator-battery_634_existing,,,
90,0.0,0.7923100000000001,-1.72051e-06,,0.0,,mongenerator-battery_634_existing,,,
91,0.0,0.785655,-1.25278e-05,,0.0,,mongenerator-battery_634_existing,,,
92,0.0,0.7872140000000001,-6.81069e-05,,0.0,,mongenerator-battery_634_existing,,,
93,0.0,0.792025,6.56329e-06,,0.0,,mongenerator-battery_634_existing,,,
94,0.0,0.794317,-0.00010368,,0.0,,mongenerator-battery_634_existing,,,
95,0.0,0.794449,-4.35627e-06,,0.0,,mongenerator-battery_634_existing,,,
96,0.0,0.7945369999999999,-3.96654e-06,,0.0,,mongenerator-battery_634_existing,,,
97,0.0,0.794593,-2.61502e-06,,0.0,,mongenerator-battery_634_existing,,,
98,0.0,0.794603,-3.91282e-07,,0.0,,mongenerator-battery_634_existing,,,
99,0.0,0.794607,-1.77513e-07,,0.0,,mongenerator-battery_634_existing,,,
100,0.0,0.794609,-9.98484e-08,,0.0,,mongenerator-battery_634_existing,,,
101,0.0,0.794579,1.50141e-06,,0.0,,mongenerator-battery_634_existing,,,
102,0.0,0.794512,3.1568900000000004e-06,,0.0,,mongenerator-battery_634_existing,,,
103,0.0,0.794428,2.27783e-06,,0.0,,mongenerator-battery_634_existing,,,
104,0.0,0.778584,-1.97008e-06,,0.0,,mongenerator-battery_634_existing,,,
105,0.0,0.782333,2.65304e-07,,0.0,,mongenerator-battery_634_existing,,,
106,0.0,0.808833,2.39119e-05,,0.0,,mongenerator-battery_634_existing,,,
107,0.0,0.8407899999999999,4.5287500000000004e-07,,0.0,,mongenerator-battery_634_existing,,,
108,0.0,0.8586959999999999,9.06845e-06,,0.0,,mongenerator-battery_634_existing,,,
109,0.0,0.8674120000000001,3.64862e-06,,0.0,,mongenerator-battery_634_existing,,,
110,0.0,0.8609100000000001,-2.66686e-06,,0.0,,mongenerator-battery_634_existing,,,
111,0.0,0.844759,-2.86151e-06,,0.0,,mongenerator-battery_634_existing,,,
112,0.0,0.818134,-3.22792e-06,,0.0,,mongenerator-battery_634_existing,,,
113,0.0,0.803445,-1.4175799999999999e-06,,0.0,,mongenerator-battery_634_existing,,,
114,0.0,0.786667,-2.03375e-06,,0.0,,mongenerator-battery_634_existing,,,
115,0.0,0.7813180000000001,-1.1583499999999998e-05,,0.0,,mongenerator-battery_634_existing,,,
116,0.0,0.783062,-7.6289e-05,,0.0,,mongenerator-battery_634_existing,,,
117,0.0,0.788039,7.014349999999999e-06,,0.0,,mongenerator-battery_634_existing,,,
118,0.0,0.794254,7.914289999999999e-06,,0.0,,mongenerator-battery_634_existing,,,
119,0.0,0.7943600000000001,-6.023089999999999e-06,,0.0,,mongenerator-battery_634_existing,,,
120,0.0,0.794471,-5.06098e-06,,0.0,,mongenerator-battery_634_existing,,,
121,0.0,0.794559,-4.13068e-06,,0.0,,mongenerator-battery_634_existing,,,
122,0.0,0.7945720000000001,-5.13817e-07,,0.0,,mongenerator-battery_634_existing,,,
123,0.0,0.794579,-3.05808e-07,,0.0,,mongenerator-battery_634_existing,,,
124,0.0,0.7945909999999999,-5.99587e-07,,0.0,,mongenerator-battery_634_existing,,,
125,0.0,0.79456,1.56091e-06,,0.0,,mongenerator-battery_634_existing,,,
126,0.0,0.7944859999999999,3.4822300000000003e-06,,0.0,,mongenerator-battery_634_existing,,,
127,0.0,0.794389,2.9277299999999995e-06,,0.0,,mongenerator-battery_634_existing,,,
128,0.0,0.794393,3.08804e-06,,0.0,,mongenerator-battery_634_existing,,,
129,0.0,0.791538,-1.04349e-07,,0.0,,mongenerator-battery_634_existing,,,
130,0.0,0.7961229999999999,1.41678e-05,,0.0,,mongenerator-battery_634_existing,,,
131,0.0,0.8314450000000001,1.74615e-06,,0.0,,mongenerator-battery_634_existing,,,
132,0.0,0.816272,-9.70488e-07,,0.0,,mongenerator-battery_634_existing,,,
133,0.0,0.829124,1.11825e-07,,0.0,,mongenerator-battery_634_existing,,,
134,0.0,0.831266,2.64177e-07,,0.0,,mongenerator-battery_634_existing,,,
135,0.0,0.833414,2.97795e-07,,0.0,,mongenerator-battery_634_existing,,,
136,0.0,0.810582,-1.8362799999999998e-06,,0.0,,mongenerator-battery_634_existing,,,
137,0.0,0.8027270000000001,-8.75972e-07,,0.0,,mongenerator-battery_634_existing,,,
138,0.0,0.784935,-2.09672e-06,,0.0,,mongenerator-battery_634_existing,,,
139,0.0,0.780313,-1.19446e-05,,0.0,,mongenerator-battery_634_existing,,,
140,0.0,0.7836810000000001,4.9121e-06,,0.0,,mongenerator-battery_634_existing,,,
141,0.0,0.788316,6.67459e-06,,0.0,,mongenerator-battery_634_existing,,,
142,0.0,0.794245,6.830039999999999e-06,,0.0,,mongenerator-battery_634_existing,,,
143,0.0,0.794438,-8.684229999999999e-07,,0.0,,mongenerator-battery_634_existing,,,
144,0.0,0.794535,-4.44268e-06,,0.0,,mongenerator-battery_634_existing,,,
145,0.0,0.794593,-2.6429400000000004e-06,,0.0,,mongenerator-battery_634_existing,,,
146,0.0,0.794603,-4.41658e-07,,0.0,,mongenerator-battery_634_existing,,,
147,0.0,0.794607,-8.445110000000001e-08,,0.0,,mongenerator-battery_634_existing,,,
148,0.0,0.794608,-4.8913400000000004e-08,,0.0,,mongenerator-battery_634_existing,,,
149,0.0,0.7945770000000001,1.52767e-06,,0.0,,mongenerator-battery_634_existing,,,
150,0.0,0.794509,3.2737599999999996e-06,,0.0,,mongenerator-battery_634_existing,,,
151,0.0,0.79443,3.5404e-06,,0.0,,mongenerator-battery_634_existing,,,
152,0.0,0.7944720000000001,-9.42919e-07,,0.0,,mongenerator-battery_634_existing,,,
153,0.0,0.800046,8.19648e-07,,0.0,,mongenerator-battery_634_existing,,,
154,0.0,0.78204,-1.20927e-06,,0.0,,mongenerator-battery_634_existing,,,
155,0.0,0.841825,-2.31553e-07,,0.0,,mongenerator-battery_634_existing,,,
156,0.0,0.852504,5.2413e-06,,0.0,,mongenerator-battery_634_existing,,,
157,0.0,0.842362,-2.27417e-06,,0.0,,mongenerator-battery_634_existing,,,
158,0.0,0.838,1.9003200000000002e-06,,0.0,,mongenerator-battery_634_existing,,,
159,0.0,0.82247,-1.30753e-07,,0.0,,mongenerator-battery_634_existing,,,
160,0.0,0.802755,-3.08262e-06,,0.0,,mongenerator-battery_634_existing,,,
161,0.0,0.798705,-4.4670299999999997e-07,,0.0,,mongenerator-battery_634_existing,,,
162,0.0,0.784524,-1.7478299999999998e-06,,0.0,,mongenerator-battery_634_existing,,,
163,0.0,0.787612,4.29712e-06,,0.0,,mongenerator-battery_634_existing,,,
164,0.0,0.794547,9.32902e-06,,0.0,,mongenerator-battery_634_existing,,,
165,0.0,0.794225,1.3166400000000002e-05,,0.0,,mongenerator-battery_634_existing,,,
166,0.0,0.794307,-4.29024e-06,,0.0,,mongenerator-battery_634_existing,,,
167,0.0,0.794427,-5.54758e-06,,0.0,,mongenerator-battery_634_existing,,,
168,0.0,0.794529,-4.55018e-06,,0.0,,mongenerator-battery_634_existing,,,
169,0.0,0.7945909999999999,-2.83972e-06,,0.0,,mongenerator-battery_634_existing,,,
170,0.0,0.794603,-5.06124e-07,,0.0,,mongenerator-battery_634_existing,,,
171,0.0,0.794607,-1.08514e-07,,0.0,,mongenerator-battery_634_existing,,,
172,0.0,0.794609,-1.0023099999999999e-07,,0.0,,mongenerator-battery_634_existing,,,
173,0.0,0.794579,1.4888800000000001e-06,,0.0,,mongenerator-battery_634_existing,,,
174,0.0,0.794511,3.2788300000000003e-06,,0.0,,mongenerator-battery_634_existing,,,
175,0.0,0.7944319999999999,3.55341e-06,,0.0,,mongenerator-battery_634_existing,,,
176,0.0,0.794471,6.45639e-07,,0.0,,mongenerator-battery_634_existing,,,
177,0.0,0.798366,-4.05976e-07,,0.0,,mongenerator-battery_634_existing,,,
178,0.0,0.8279719999999999,2.5997000000000003e-06,,0.0,,mongenerator-battery_634_existing,,,
179,0.0,0.797696,-3.56602e-06,,0.0,,mongenerator-battery_634_existing,,,
180,0.0,0.798759,-7.265e-05,,0.0,,mongenerator-battery_634_existing,,,
181,0.0,0.804485,1.3348399999999999e-05,,0.0,,mongenerator-battery_634_existing,,,
182,0.0,0.80615,4.03807e-07,,0.0,,mongenerator-battery_634_existing,,,
183,0.0,0.803844,-2.92007e-07,,0.0,,mongenerator-battery_634_existing,,,
184,0.0,0.80035,-2.57382e-07,,0.0,,mongenerator-battery_634_existing,,,
185,0.0,0.797334,-2.69555e-07,,0.0,,mongenerator-battery_634_existing,,,
186,0.0,0.794392,-6.183610000000001e-07,,0.0,,mongenerator-battery_634_existing,,,
187,0.0,0.794045,2.49748e-05,,0.0,,mongenerator-battery_634_existing,,,
188,0.0,0.794141,-4.94774e-06,,0.0,,mongenerator-battery_634_existing,,,
189,0.0,0.794205,-3.1032099999999996e-06,,0.0,,mongenerator-battery_634_existing,,,
190,0.0,0.794312,-5.193530000000001e-06,,0.0,,mongenerator-battery_634_existing,,,
191,0.0,0.7944359999999999,-5.7459500000000004e-06,,0.0,,mongenerator-battery_634_existing,,,
192,0.0,0.794533,-4.295009999999999e-06,,0.0,,mongenerator-battery_634_existing,,,
193,0.0,0.79459,-2.5658299999999996e-06,,0.0,,mongenerator-battery_634_existing,,,
194,0.0,0.7945939999999999,-2.3200800000000002e-07,,0.0,,mongenerator-battery_634_existing,,,
195,0.0,0.794592,5.19321e-08,,0.0,,mongenerator-battery_634_existing,,,
196,0.0,0.794588,1.38264e-07,,0.0,,mongenerator-battery_634_existing,,,
197,0.0,0.794553,1.6416700000000001e-06,,0.0,,mongenerator-battery_634_existing,,,
198,0.0,0.7944829999999999,3.3351599999999996e-06,,0.0,,mongenerator-battery_634_existing,,,
199,0.0,0.794399,2.7896699999999998e-06,,0.0,,mongenerator-battery_634_existing,,,
200,0.0,0.794431,-3.11848e-06,,0.0,,mongenerator-battery_634_existing,,,
201,0.0,0.8002060000000001,7.75312e-07,,0.0,,mongenerator-battery_634_existing,,,
202,0.0,0.807979,6.094539999999999e-07,,0.0,,mongenerator-battery_634_existing,,,
203,0.0,0.801506,-7.87257e-07,,0.0,,mongenerator-battery_634_existing,,,
204,0.0,0.809635,5.44671e-07,,0.0,,mongenerator-battery_634_existing,,,
205,0.0,0.806138,-4.3903300000000005e-06,,0.0,,mongenerator-battery_634_existing,,,
206,0.0,0.79964,-8.94722e-07,,0.0,,mongenerator-battery_634_existing,,,
207,0.0,0.801132,-9.83931e-05,,0.0,,mongenerator-battery_634_existing,,,
208,0.0,0.800041,7.57555e-05,,0.0,,mongenerator-battery_634_existing,,,
209,0.0,0.7943819999999999,-1.08901e-05,,0.0,,mongenerator-battery_634_existing,,,
210,0.0,0.78683,-1.3305799999999999e-05,,0.0,,mongenerator-battery_634_existing,,,
211,0.0,0.7829119999999999,-8.966810000000001e-06,,0.0,,mongenerator-battery_634_existing,,,
212,0.0,0.785226,-0.000102913,,0.0,,mongenerator-battery_634_existing,,,
213,0.0,0.7904720000000001,7.0970899999999995e-06,,0.0,,mongenerator-battery_634_existing,,,
214,0.0,0.802165,1.53892e-05,,0.0,,mongenerator-battery_634_existing,,,
215,0.0,0.794396,-1.08957e-05,,0.0,,mongenerator-battery_634_existing,,,
216,0.0,0.794513,-4.0819199999999995e-06,,0.0,,mongenerator-battery_634_existing,,,
217,0.0,0.7945760000000001,-2.9056e-06,,0.0,,mongenerator-battery_634_existing,,,
218,0.0,0.794587,-4.40496e-07,,0.0,,mongenerator-battery_634_existing,,,
219,0.0,0.794596,-4.1871899999999995e-07,,0.0,,mongenerator-battery_634_existing,,,
220,0.0,0.7946,-1.95896e-07,,0.0,,mongenerator-battery_634_existing,,,
221,0.0,0.794569,1.5481200000000002e-06,,0.0,,mongenerator-battery_634_existing,,,
222,0.0,0.7945,3.26699e-06,,0.0,,mongenerator-battery_634_existing,,,
223,0.0,0.794411,2.52357e-06,,0.0,,mongenerator-battery_634_existing,,,
224,0.0,0.794431,5.2056e-06,,0.0,,mongenerator-battery_634_existing,,,
225,0.0,0.797013,6.3916e-07,,0.0,,mongenerator-battery_634_existing,,,
226,0.0,0.8009310000000001,9.92949e-06,,0.0,,mongenerator-battery_634_existing,,,
227,0.0,0.804941,6.52866e-06,,0.0,,mongenerator-battery_634_existing,,,
228,0.0,0.820225,8.957930000000001e-07,,0.0,,mongenerator-battery_634_existing,,,
229,0.0,0.80486,-1.37049e-06,,0.0,,mongenerator-battery_634_existing,,,
230,0.0,0.808213,3.92603e-06,,0.0,,mongenerator-battery_634_existing,,,
231,0.0,0.8084180000000001,-1.1414700000000001e-05,,0.0,,mongenerator-battery_634_existing,,,
232,0.0,0.8056260000000001,-4.10461e-06,,0.0,,mongenerator-battery_634_existing,,,
233,0.0,0.800446,-6.767659999999999e-07,,0.0,,mongenerator-battery_634_existing,,,
234,0.0,0.783438,-2.6335300000000003e-06,,0.0,,mongenerator-battery_634_existing,,,
235,0.0,0.782157,7.24422e-07,,0.0,,mongenerator-battery_634_existing,,,
236,0.0,0.785468,4.68193e-06,,0.0,,mongenerator-battery_634_existing,,,
237,0.0,0.790383,6.83122e-06,,0.0,,mongenerator-battery_634_existing,,,
238,0.0,0.79419,-0.00017166900000000003,,0.0,,mongenerator-battery_634_existing,,,
239,0.0,0.794387,-6.41401e-06,,0.0,,mongenerator-battery_634_existing,,,
240,0.0,0.794503,-5.2047e-06,,0.0,,mongenerator-battery_634_existing,,,
241,0.0,0.7945770000000001,-3.4520099999999996e-06,,0.0,,mongenerator-battery_634_existing,,,
242,0.0,0.794596,-8.54196e-07,,0.0,,mongenerator-battery_634_existing,,,
243,0.0,0.794606,-3.76067e-07,,0.0,,mongenerator-battery_634_existing,,,
244,0.0,0.794609,-1.52523e-07,,0.0,,mongenerator-battery_634_existing,,,
245,0.0,0.794578,1.53256e-06,,0.0,,mongenerator-battery_634_existing,,,
246,0.0,0.794511,3.21515e-06,,0.0,,mongenerator-battery_634_existing,,,
247,0.0,0.7944260000000001,2.3049e-06,,0.0,,mongenerator-battery_634_existing,,,
248,0.0,0.794455,-2.9643599999999997e-06,,0.0,,mongenerator-battery_634_existing,,,
249,0.0,0.801426,8.67999e-07,,0.0,,mongenerator-battery_634_existing,,,
250,0.0,0.81411,9.446299999999999e-07,,0.0,,mongenerator-battery_634_existing,,,
251,0.0,0.847089,1.33004e-07,,0.0,,mongenerator-battery_634_existing,,,
252,0.0,0.8623290000000001,6.46798e-06,,0.0,,mongenerator-battery_634_existing,,,
253,0.0,0.869712,1.79643e-06,,0.0,,mongenerator-battery_634_existing,,,
254,0.0,0.8620450000000001,-3.94125e-06,,0.0,,mongenerator-battery_634_existing,,,
255,0.0,0.8450780000000001,-2.88711e-06,,0.0,,mongenerator-battery_634_existing,,,
256,0.0,0.820082,-2.48678e-06,,0.0,,mongenerator-battery_634_existing,,,
257,0.0,0.804617,-1.33572e-06,,0.0,,mongenerator-battery_634_existing,,,
