hour,t(sec),V1,VAngle1,V2,VAngle2,I1,IAngle1,I2,IAngle2,V3,Name,VAngle3,I3,IAngle3,V4,VAngle4,I4,IAngle4,kv,V1(PU),V2(PU),V3(PU)
1,0.0,,116.499,,0.0,20.2518,116.499,20.2518,-63.5012,2421.75,monload-611_runway,,,,,,,,2.4,,,1.0090625
2,0.0,,116.965,,0.0,21.49,116.965,21.49,-63.0354,2439.13,monload-611_runway,,,,,,,,2.4,,,1.0163041666666668
3,0.0,,116.972,,0.0,18.735,116.972,18.735,-63.0278,2439.47,monload-611_runway,,,,,,,,2.4,,,1.0164458333333333
4,0.0,,116.974,,0.0,18.1696,116.974,18.1696,-63.0259,2439.55,monload-611_runway,,,,,,,,2.4,,,1.0164791666666668
5,0.0,,116.963,,0.0,18.3433,116.963,18.3433,-63.0368,2439.04,monload-611_runway,,,,,,,,2.4,,,1.0162666666666667
6,0.0,,116.937,,0.0,19.8621,116.938,19.8621,-63.0625,2437.86,monload-611_runway,,,,,,,,2.4,,,1.015775
7,0.0,,116.89,,0.0,29.8483,116.891,29.8483,-63.109,2435.76,monload-611_runway,,,,,,,,2.4,,,1.0149000000000001
8,0.0,,116.901,,0.0,31.8618,116.901,31.8618,-63.0991,2436.15,monload-611_runway,,,,,,,,2.4,,,1.0150625
9,0.0,,116.923,,0.0,44.0268,116.923,44.0268,-63.0773,2436.98,monload-611_runway,,,,,,,,2.4,,,1.0154083333333332
10,0.0,,117.013,,0.0,37.8158,117.012,37.8158,-62.9884,2440.72,monload-611_runway,,,,,,,,2.4,,,1.0169666666666666
11,0.0,,117.091,,0.0,26.7204,117.089,26.7204,-62.9109,2444.02,monload-611_runway,,,,,,,,2.4,,,1.0183416666666667
12,0.0,,117.379,,0.0,25.0426,117.378,25.0426,-62.6219,2455.49,monload-611_runway,,,,,,,,2.4,,,1.0231208333333333
13,0.0,,117.055,,0.0,24.9564,117.055,24.9564,-62.9448,2442.59,monload-611_runway,,,,,,,,2.4,,,1.0177458333333333
14,0.0,,117.185,,0.0,24.9959,117.181,24.9959,-62.8193,2447.81,monload-611_runway,,,,,,,,2.4,,,1.0199208333333334
15,0.0,,117.298,,0.0,24.9268,117.294,24.9268,-62.7063,2452.32,monload-611_runway,,,,,,,,2.4,,,1.0218
16,0.0,,117.318,,0.0,24.7866,117.317,24.7866,-62.6831,2453.06,monload-611_runway,,,,,,,,2.4,,,1.0221083333333334
17,0.0,,117.095,,0.0,25.989,117.102,25.989,-62.8981,2443.97,monload-611_runway,,,,,,,,2.4,,,1.0183208333333333
18,0.0,,116.864,,0.0,31.4301,116.868,31.4301,-63.1322,2434.45,monload-611_runway,,,,,,,,2.4,,,1.0143541666666667
19,0.0,,116.8,,0.0,43.1551,116.801,43.1551,-63.1992,2431.66,monload-611_runway,,,,,,,,2.4,,,1.0131916666666667
20,0.0,,116.801,,0.0,45.3034,116.801,45.3034,-63.1991,2431.69,monload-611_runway,,,,,,,,2.4,,,1.0132041666666667
21,0.0,,116.798,,0.0,47.8087,116.798,47.8087,-63.202,2431.56,monload-611_runway,,,,,,,,2.4,,,1.01315
22,0.0,,116.826,,0.0,46.4444,116.826,46.4444,-63.1739,2432.86,monload-611_runway,,,,,,,,2.4,,,1.0136916666666667
23,0.0,,116.878,,0.0,35.6973,116.878,35.6973,-63.1222,2435.23,monload-611_runway,,,,,,,,2.4,,,1.0146791666666666
24,0.0,,116.93,,0.0,22.9122,116.929,22.9122,-63.0711,2437.55,monload-611_runway,,,,,,,,2.4,,,1.0156458333333334
25,0.0,,116.954,,0.0,18.6667,116.953,18.6667,-63.047,2438.63,monload-611_runway,,,,,,,,2.4,,,1.0160958333333334
26,0.0,,116.955,,0.0,17.8494,116.955,17.8494,-63.0448,2438.71,monload-611_runway,,,,,,,,2.4,,,1.0161291666666667
27,0.0,,116.956,,0.0,16.9263,116.956,16.9263,-63.0443,2438.73,monload-611_runway,,,,,,,,2.4,,,1.0161375
28,0.0,,116.954,,0.0,17.0116,116.954,17.0116,-63.0457,2438.67,monload-611_runway,,,,,,,,2.4,,,1.0161125
29,0.0,,116.941,,0.0,17.6802,116.941,17.6802,-63.0591,2438.05,monload-611_runway,,,,,,,,2.4,,,1.0158541666666667
30,0.0,,116.908,,0.0,21.26,116.909,21.26,-63.0911,2436.6,monload-611_runway,,,,,,,,2.4,,,1.01525
31,0.0,,116.855,,0.0,33.1809,116.856,33.1809,-63.1444,2434.36,monload-611_runway,,,,,,,,2.4,,,1.0143166666666668
32,0.0,,116.865,,0.0,34.8528,116.865,34.8528,-63.1349,2434.85,monload-611_runway,,,,,,,,2.4,,,1.0145208333333333
33,0.0,,116.964,,0.0,30.7756,116.962,30.7756,-63.0381,2439.02,monload-611_runway,,,,,,,,2.4,,,1.0162583333333333
34,0.0,,117.111,,0.0,31.0977,117.107,31.0977,-62.8928,2445.08,monload-611_runway,,,,,,,,2.4,,,1.0187833333333334
35,0.0,,117.227,,0.0,25.135,117.223,25.135,-62.7766,2449.86,monload-611_runway,,,,,,,,2.4,,,1.020775
36,0.0,,117.029,,0.0,26.0047,117.029,26.0047,-62.9711,2441.92,monload-611_runway,,,,,,,,2.4,,,1.0174666666666667
37,0.0,,117.572,,0.0,26.4116,117.571,26.4116,-62.4286,2463.52,monload-611_runway,,,,,,,,2.4,,,1.0264666666666666
38,0.0,,117.163,,0.0,25.3752,117.163,25.3752,-62.8367,2447.33,monload-611_runway,,,,,,,,2.4,,,1.0197208333333334
39,0.0,,117.787,,0.0,24.5082,117.787,24.5082,-62.2131,2471.96,monload-611_runway,,,,,,,,2.4,,,1.0299833333333333
40,0.0,,117.508,,0.0,24.748,117.507,24.748,-62.4926,2461.03,monload-611_runway,,,,,,,,2.4,,,1.0254291666666668
41,0.0,,117.193,,0.0,25.8685,117.193,25.8685,-62.8068,2448.31,monload-611_runway,,,,,,,,2.4,,,1.0201291666666668
42,0.0,,117.226,,0.0,31.6633,117.223,31.6633,-62.7769,2448.08,monload-611_runway,,,,,,,,2.4,,,1.0200333333333333
43,0.0,,116.805,,0.0,38.7986,116.8,38.7986,-63.2002,2432.05,monload-611_runway,,,,,,,,2.4,,,1.0133541666666668
44,0.0,,116.803,,0.0,41.1781,116.803,41.1781,-63.1969,2431.97,monload-611_runway,,,,,,,,2.4,,,1.0133208333333332
45,0.0,,116.796,,0.0,45.1231,116.796,45.1231,-63.2039,2431.59,monload-611_runway,,,,,,,,2.4,,,1.0131625
46,0.0,,116.827,,0.0,42.3023,116.826,42.3023,-63.174,2432.98,monload-611_runway,,,,,,,,2.4,,,1.0137416666666668
47,0.0,,116.881,,0.0,30.8497,116.88,30.8497,-63.1202,2435.37,monload-611_runway,,,,,,,,2.4,,,1.0147374999999998
48,0.0,,116.926,,0.0,21.1497,116.924,21.1497,-63.0757,2437.37,monload-611_runway,,,,,,,,2.4,,,1.0155708333333333
49,0.0,,116.945,,0.0,18.8942,116.944,18.8942,-63.056,2438.24,monload-611_runway,,,,,,,,2.4,,,1.0159333333333331
50,0.0,,116.945,,0.0,18.3946,116.945,18.3946,-63.0551,2438.25,monload-611_runway,,,,,,,,2.4,,,1.0159375
51,0.0,,116.944,,0.0,17.8874,116.944,17.8874,-63.0559,2438.22,monload-611_runway,,,,,,,,2.4,,,1.015925
52,0.0,,116.941,,0.0,18.4384,116.941,18.4384,-63.0587,2438.09,monload-611_runway,,,,,,,,2.4,,,1.0158708333333335
53,0.0,,116.926,,0.0,19.6598,116.926,19.6598,-63.0737,2437.4,monload-611_runway,,,,,,,,2.4,,,1.0155833333333333
54,0.0,,116.892,,0.0,23.9779,116.893,23.9779,-63.1073,2435.86,monload-611_runway,,,,,,,,2.4,,,1.0149416666666666
55,0.0,,116.837,,0.0,35.7182,116.838,35.7182,-63.162,2433.54,monload-611_runway,,,,,,,,2.4,,,1.013975
56,0.0,,116.854,,0.0,35.9782,116.854,35.9782,-63.1465,2434.32,monload-611_runway,,,,,,,,2.4,,,1.0143
57,0.0,,117.12,,0.0,31.5574,117.111,31.5574,-62.8889,2445.26,monload-611_runway,,,,,,,,2.4,,,1.0188583333333334
58,0.0,,117.472,,0.0,31.2533,117.471,31.2533,-62.5291,2459.43,monload-611_runway,,,,,,,,2.4,,,1.0247625
59,0.0,,117.699,,0.0,24.7817,117.7,24.7817,-62.2999,2468.45,monload-611_runway,,,,,,,,2.4,,,1.0285208333333333
60,0.0,,-108.768,,0.0,0.107785,-69.6786,0.107785,110.321,8.74389,monload-611_runway,,,,,,,,2.4,,,0.0036432875
61,0.0,,64.0458,,0.0,0.0121402,103.132,0.0121402,-76.868,0.915104,monload-611_runway,,,,,,,,2.4,,,0.00038129333333333337
62,0.0,,-92.2912,,0.0,0.00716832,-53.2074,0.00716832,126.793,0.548887,monload-611_runway,,,,,,,,2.4,,,0.00022870291666666668
63,0.0,,111.379,,0.0,0.00442297,150.461,0.00442297,-29.5386,0.336047,monload-611_runway,,,,,,,,2.4,,,0.00014001958333333334
64,0.0,,-44.9438,,0.0,0.00277056,-5.86315,0.00277056,174.137,0.210728,monload-611_runway,,,,,,,,2.4,,,8.780333333333333e-05
65,0.0,,158.75,,0.0,0.00185801,-162.174,0.00185801,17.8263,0.14156,monload-611_runway,,,,,,,,2.4,,,5.898333333333333e-05
66,0.0,,49.1319,,0.0,0.12441,104.441,0.12441,-75.5592,12.0838,monload-611_runway,,,,,,,,2.4,,,0.005034916666666667
67,0.0,,96.7848,,0.0,0.0118522,135.836,0.0118522,-44.1643,0.538224,monload-611_runway,,,,,,,,2.4,,,0.00022426000000000002
68,0.0,,-137.478,,0.0,0.00194705,-98.4345,0.00194705,81.5655,0.0838732,monload-611_runway,,,,,,,,2.4,,,3.494716666666666e-05
69,0.0,,-11.5737,,0.0,0.000151787,27.4394,0.000151787,-152.561,0.0050981,monload-611_runway,,,,,,,,2.4,,,2.1242083333333337e-06
70,0.0,,122.875,,0.0,4.71714e-08,161.912,4.71714e-08,-18.0877,1.57444e-06,monload-611_runway,,,,,,,,2.4,,,6.560166666666667e-10
71,0.0,,5.52705,,0.0,4.13839e-09,44.6547,4.13839e-09,-135.345,1.45415e-07,monload-611_runway,,,,,,,,2.4,,,6.058958333333333e-11
72,0.0,,-72.8003,,0.0,5.23918e-10,-33.6322,5.23918e-10,146.368,2.42054e-08,monload-611_runway,,,,,,,,2.4,,,1.0085583333333332e-11
73,0.0,,-151.132,,0.0,7.19027e-11,-111.968,7.19027e-11,68.0315,3.56462e-09,monload-611_runway,,,,,,,,2.4,,,1.4852583333333333e-12
74,0.0,,130.545,,0.0,9.99769e-12,169.706,9.99769e-12,-10.2936,5.14795e-10,monload-611_runway,,,,,,,,2.4,,,2.1449791666666665e-13
75,0.0,,52.2261,,0.0,1.35069e-12,91.385,1.35069e-12,-88.615,7.28245e-11,monload-611_runway,,,,,,,,2.4,,,3.0343541666666666e-14
76,0.0,,-26.092,,0.0,1.92211e-13,13.067,1.92211e-13,-166.933,1.03419e-11,monload-611_runway,,,,,,,,2.4,,,4.309125e-15
77,0.0,,-104.433,,0.0,3.62531e-14,-65.2633,3.62531e-14,114.737,2.38655e-12,monload-611_runway,,,,,,,,2.4,,,9.943958333333334e-16
78,0.0,,177.232,,0.0,1.04156e-14,-143.603,1.04156e-14,36.3971,5.98085e-13,monload-611_runway,,,,,,,,2.4,,,2.4920208333333334e-16
79,0.0,,98.9904,,0.0,6.14777e-15,138.082,6.14777e-15,-41.9183,3.40079e-13,monload-611_runway,,,,,,,,2.4,,,1.4169958333333332e-16
80,0.0,,20.8291,,0.0,4.29595e-15,59.905,4.29595e-15,-120.095,2.55256e-13,monload-611_runway,,,,,,,,2.4,,,1.0635666666666665e-16
81,0.0,,-57.3498,,0.0,2.84652e-15,-18.2555,2.84652e-15,161.745,1.92489e-13,monload-611_runway,,,,,,,,2.4,,,8.020375e-17
82,0.0,,-174.635,,0.0,1.89052e-15,-135.56,1.89052e-15,44.4401,1.3334e-13,monload-611_runway,,,,,,,,2.4,,,5.555833333333333e-17
83,0.0,,-11.9776,,0.0,2.15453e-15,86.6999,2.15453e-15,-93.3001,3.76355e-13,monload-611_runway,,,,,,,,2.4,,,1.5681458333333335e-16
84,0.0,,55.4058,,0.0,4.19496e-15,-158.286,4.19496e-15,21.7136,4.82704e-13,monload-611_runway,,,,,,,,2.4,,,2.0112666666666668e-16
85,0.0,,94.7578,,0.0,3.89684e-15,-104.919,3.89684e-15,75.0808,2.9623e-13,monload-611_runway,,,,,,,,2.4,,,1.2342916666666666e-16
86,0.0,,141.762,,0.0,2.90595e-15,-61.7414,2.90595e-15,118.259,2.41767e-13,monload-611_runway,,,,,,,,2.4,,,1.0073625000000001e-16
87,0.0,,-129.658,,0.0,3.70142e-15,6.05153,3.70142e-15,-173.948,4.68199e-13,monload-611_runway,,,,,,,,2.4,,,1.9508291666666667e-16
88,0.0,,-41.0774,,0.0,1.94537e-15,-85.3678,1.94537e-15,94.6322,6.71386e-14,monload-611_runway,,,,,,,,2.4,,,2.797441666666667e-17
89,0.0,,47.4787,,0.0,3.98767e-16,3.19979,3.98767e-16,-176.8,1.79574e-14,monload-611_runway,,,,,,,,2.4,,,7.48225e-18
90,0.0,,47.2531,,0.0,8.86837e-17,107.279,8.86837e-17,-72.7213,6.64911e-15,monload-611_runway,,,,,,,,2.4,,,2.7704625e-18
91,0.0,,-69.7941,,0.0,3.70078e-17,-30.7532,3.70078e-17,149.247,1.7364e-15,monload-611_runway,,,,,,,,2.4,,,7.234999999999999e-19
92,0.0,,-147.851,,0.0,2.61728e-17,-108.828,2.61728e-17,71.1721,1.1452e-15,monload-611_runway,,,,,,,,2.4,,,4.7716666666666665e-19
93,0.0,,134.154,,0.0,1.65717e-17,173.141,1.65717e-17,-6.85947,5.68937e-16,monload-611_runway,,,,,,,,2.4,,,2.3705708333333333e-19
94,0.0,,56.1479,,0.0,7.246140000000001e-18,95.1555,7.246140000000001e-18,-84.8445,2.46711e-16,monload-611_runway,,,,,,,,2.4,,,1.0279625e-19
95,0.0,,-22.0113,,0.0,1.8594300000000003e-18,17.0869,1.8594300000000003e-18,-162.913,6.82439e-17,monload-611_runway,,,,,,,,2.4,,,2.843495833333333e-20
96,0.0,,-100.298,,0.0,3.27917e-19,-61.1454,3.27917e-19,118.855,1.57401e-17,monload-611_runway,,,,,,,,2.4,,,6.558375e-21
97,0.0,,-178.608,,0.0,6.538829999999999e-20,-139.453,6.538829999999999e-20,40.5466,3.2936200000000002e-18,monload-611_runway,,,,,,,,2.4,,,1.3723416666666667e-21
98,0.0,,103.081,,0.0,1.28809e-20,142.237,1.28809e-20,-37.7632,6.70084e-19,monload-611_runway,,,,,,,,2.4,,,2.792016666666667e-22
99,0.0,,24.7666,,0.0,2.42675e-21,63.9243,2.42675e-21,-116.076,1.32674e-19,monload-611_runway,,,,,,,,2.4,,,5.528083333333334e-23
100,0.0,,-53.5482,,0.0,4.67666e-22,-14.3909,4.67666e-22,165.609,2.53497e-20,monload-611_runway,,,,,,,,2.4,,,1.0562374999999999e-23
101,0.0,,-131.868,,0.0,1.10673e-22,-92.7088,1.10673e-22,87.2912,7.10225e-21,monload-611_runway,,,,,,,,2.4,,,2.9592708333333332e-24
102,0.0,,149.828,,0.0,3.9390500000000004e-23,-171.024,3.9390500000000004e-23,8.97638,2.24314e-21,monload-611_runway,,,,,,,,2.4,,,9.346416666666667e-25
103,0.0,,71.6422,,0.0,2.98003e-23,110.703,2.98003e-23,-69.2968,1.5447899999999999e-21,monload-611_runway,,,,,,,,2.4,,,6.436624999999999e-25
104,0.0,,-69.0879,,0.0,4.3512100000000004e-23,-22.1809,4.3512100000000004e-23,157.819,2.8226799999999997e-21,monload-611_runway,,,,,,,,2.4,,,1.1761166666666665e-24
105,0.0,,173.773,,0.0,3.4755400000000004e-23,-147.185,3.4755400000000004e-23,32.8155,2.0156099999999998e-21,monload-611_runway,,,,,,,,2.4,,,8.398374999999999e-25
106,0.0,,27.9033,,0.0,6.875190000000001e-23,76.5286,6.875190000000001e-23,-103.471,4.90661e-21,monload-611_runway,,,,,,,,2.4,,,2.0444208333333334e-24
107,0.0,,-177.238,,0.0,2.65619e-22,-108.859,2.65619e-22,71.1407,2.89131e-20,monload-611_runway,,,,,,,,2.4,,,1.2047124999999999e-23
108,0.0,,-96.7325,,0.0,5.80481e-22,43.0166,5.80481e-22,-136.983,5.5034e-20,monload-611_runway,,,,,,,,2.4,,,2.293083333333333e-23
109,0.0,,-54.8959,,0.0,6.98451e-22,104.185,6.98451e-22,-75.8145,4.09035e-20,monload-611_runway,,,,,,,,2.4,,,1.7043125e-23
110,0.0,,-3.43339,,0.0,6.23133e-22,150.835,6.23133e-22,-29.1654,4.1840000000000006e-20,monload-611_runway,,,,,,,,2.4,,,1.7433333333333335e-23
111,0.0,,99.173,,0.0,1.01332e-21,-132.131,1.01332e-21,47.8694,1.0577700000000001e-19,monload-611_runway,,,,,,,,2.4,,,4.407375e-23
112,0.0,,159.108,,0.0,3.10976e-22,-140.858,3.10976e-22,39.1425,2.07481e-20,monload-611_runway,,,,,,,,2.4,,,8.645041666666667e-24
113,0.0,,-36.1752,,0.0,1.68236e-22,2.88488,1.68236e-22,-177.115,1.0550599999999999e-20,monload-611_runway,,,,,,,,2.4,,,4.396083333333333e-24
114,0.0,,-114.261,,0.0,1.8489e-22,-75.2252,1.8489e-22,104.775,1.0403899999999998e-20,monload-611_runway,,,,,,,,2.4,,,4.334958333333333e-24
115,0.0,,167.73,,0.0,1.63773e-22,-153.28,1.63773e-22,26.7204,6.36713e-21,monload-611_runway,,,,,,,,2.4,,,2.652970833333333e-24
116,0.0,,89.7705,,0.0,1.05461e-22,128.745,1.05461e-22,-51.2553,3.88628e-21,monload-611_runway,,,,,,,,2.4,,,1.6192833333333333e-24
117,0.0,,11.8966,,0.0,6.02337e-23,50.8175,6.02337e-23,-129.183,1.77107e-21,monload-611_runway,,,,,,,,2.4,,,7.379458333333333e-25
118,0.0,,-65.974,,0.0,2.4316e-23,-27.0357,2.4316e-23,152.964,6.98816e-22,monload-611_runway,,,,,,,,2.4,,,2.911733333333333e-25
119,0.0,,-143.998,,0.0,5.836210000000001e-24,-104.967,5.836210000000001e-24,75.0332,1.69213e-22,monload-611_runway,,,,,,,,2.4,,,7.050541666666667e-26
120,0.0,,137.805,,0.0,9.195419999999999e-25,176.918,9.195419999999999e-25,-3.08165,3.28985e-23,monload-611_runway,,,,,,,,2.4,,,1.3707708333333333e-26
121,0.0,,59.5641,,0.0,1.45396e-25,98.6828,1.45396e-25,-81.3172,5.526730000000001e-24,monload-611_runway,,,,,,,,2.4,,,2.302804166666667e-27
122,0.0,,-18.6773,,0.0,2.2855e-26,20.4443,2.2855e-26,-159.556,9.01381e-25,monload-611_runway,,,,,,,,2.4,,,3.7557541666666667e-28
123,0.0,,-96.9256,,0.0,3.431e-27,-57.8002,3.431e-27,122.2,1.42238e-25,monload-611_runway,,,,,,,,2.4,,,5.926583333333333e-29
124,0.0,,-175.174,,0.0,5.2497300000000005e-28,-136.05,5.2497300000000005e-28,43.9496,2.2274500000000002e-26,monload-611_runway,,,,,,,,2.4,,,9.281041666666668e-30
125,0.0,,106.555,,0.0,1.06e-28,145.693,1.06e-28,-34.3072,5.58189e-27,monload-611_runway,,,,,,,,2.4,,,2.3257875e-30
126,0.0,,28.2921,,0.0,3.27034e-29,67.4197,3.27034e-29,-112.58,1.5443799999999998e-27,monload-611_runway,,,,,,,,2.4,,,6.434916666666666e-31
127,0.0,,-49.8551,,0.0,2.1032500000000002e-29,-10.8121,2.1032500000000002e-29,169.188,9.67137e-28,monload-611_runway,,,,,,,,2.4,,,4.0297375000000005e-31
128,0.0,,143.763,,0.0,4.18813e-29,-160.768,4.18813e-29,19.2321,2.8746e-27,monload-611_runway,,,,,,,,2.4,,,1.19775e-30
129,0.0,,26.6656,,0.0,3.00504e-29,65.6975,3.00504e-29,-114.303,1.54804e-27,monload-611_runway,,,,,,,,2.4,,,6.450166666666666e-31
130,0.0,,-97.9298,,0.0,3.2958500000000004e-29,-56.3974,3.2958500000000004e-29,123.603,1.8531199999999998e-27,monload-611_runway,,,,,,,,2.4,,,7.721333333333333e-31
131,0.0,,89.6876,,0.0,7.560630000000001e-29,147.146,7.560630000000001e-29,-32.8539,6.65414e-27,monload-611_runway,,,,,,,,2.4,,,2.7725583333333333e-30
132,0.0,,-67.3062,,0.0,1.89604e-28,11.19,1.89604e-28,-168.81,2.04086e-26,monload-611_runway,,,,,,,,2.4,,,8.503583333333334e-30
133,0.0,,162.052,,0.0,5.19411e-28,-132.628,5.19411e-28,47.3724,4.81876e-26,monload-611_runway,,,,,,,,2.4,,,2.0078166666666666e-29
134,0.0,,26.7203,,0.0,1.30998e-27,94.3858,1.30998e-27,-85.6142,1.26172e-25,monload-611_runway,,,,,,,,2.4,,,5.257166666666666e-29
135,0.0,,-112.816,,0.0,3.46773e-27,-43.0474,3.46773e-27,136.953,3.42802e-25,monload-611_runway,,,,,,,,2.4,,,1.4283416666666667e-28
136,0.0,,169.073,,0.0,5.38688e-27,-151.87,5.38688e-27,28.1296,3.2469099999999997e-25,monload-611_runway,,,,,,,,2.4,,,1.3528791666666666e-28
137,0.0,,90.9533,,0.0,5.0011e-27,130.014,5.0011e-27,-49.9859,3.09574e-25,monload-611_runway,,,,,,,,2.4,,,1.2898916666666667e-28
138,0.0,,-23.0019,,0.0,1.0722e-26,33.9719,1.0722e-26,-146.028,8.69068e-25,monload-611_runway,,,,,,,,2.4,,,3.6211166666666666e-28
139,0.0,,-139.988,,0.0,6.3473799999999995e-27,-100.969,6.3473799999999995e-27,79.0309,2.45005e-25,monload-611_runway,,,,,,,,2.4,,,1.0208541666666668e-28
140,0.0,,141.995,,0.0,4.32257e-27,-179.001,4.32257e-27,0.998833,1.583e-25,monload-611_runway,,,,,,,,2.4,,,6.595833333333334e-29
141,0.0,,64.0436,,0.0,2.6380499999999997e-27,103.009,2.6380499999999997e-27,-76.9909,7.74305e-26,monload-611_runway,,,,,,,,2.4,,,3.2262708333333333e-29
142,0.0,,-13.9714,,0.0,1.04797e-27,25.042,1.04797e-27,-154.958,3.06118e-26,monload-611_runway,,,,,,,,2.4,,,1.275491666666667e-29
143,0.0,,-92.1871,,0.0,2.24394e-28,-53.0737,2.24394e-28,126.926,6.89097e-27,monload-611_runway,,,,,,,,2.4,,,2.8712375e-30
144,0.0,,-170.474,,0.0,3.07307e-29,-131.34,3.07307e-29,48.6598,1.23186e-27,monload-611_runway,,,,,,,,2.4,,,5.13275e-31
145,0.0,,111.289,,0.0,4.76916e-30,150.398,4.76916e-30,-29.6025,1.99092e-28,monload-611_runway,,,,,,,,2.4,,,8.2955e-32
146,0.0,,33.0734,,0.0,7.62383e-31,72.1804,7.62383e-31,-107.82,3.2589e-29,monload-611_runway,,,,,,,,2.4,,,1.357875e-32
147,0.0,,-45.1241,,0.0,1.04426e-31,-6.02992,1.04426e-31,173.97,5.06971e-30,monload-611_runway,,,,,,,,2.4,,,2.1123791666666666e-33
148,0.0,,-123.308,,0.0,1.58783e-32,-84.2171,1.58783e-32,95.7829,7.808059999999999e-31,monload-611_runway,,,,,,,,2.4,,,3.253358333333333e-34
149,0.0,,158.468,,0.0,2.64472e-33,-162.412,2.64472e-33,17.5882,1.3651499999999999e-31,monload-611_runway,,,,,,,,2.4,,,5.688124999999999e-35
150,0.0,,80.1935,,0.0,5.06809e-34,119.338,5.06809e-34,-60.6617,2.50653e-32,monload-611_runway,,,,,,,,2.4,,,1.0443875e-35
151,0.0,,1.88689,,0.0,1.7253900000000002e-34,41.0316,1.7253900000000002e-34,-138.968,7.275810000000001e-33,monload-611_runway,,,,,,,,2.4,,,3.0315875000000005e-36
152,0.0,,-76.375,,0.0,6.30665e-35,-37.2488,6.30665e-35,142.751,2.97045e-33,monload-611_runway,,,,,,,,2.4,,,1.2376875e-36
153,0.0,,-154.519,,0.0,3.8036599999999997e-35,-115.471,3.8036599999999997e-35,64.5286,1.35254e-33,monload-611_runway,,,,,,,,2.4,,,5.635583333333334e-37
154,0.0,,83.8236,,0.0,1.4319399999999998e-35,124.363,1.4319399999999998e-35,-55.6372,6.5192100000000004e-34,monload-611_runway,,,,,,,,2.4,,,2.7163375000000003e-37
155,0.0,,-175.118,,0.0,2.4037399999999999e-35,-45.6465,2.4037399999999999e-35,134.354,2.25498e-33,monload-611_runway,,,,,,,,2.4,,,9.39575e-37
156,0.0,,-119.719,,0.0,2.56021e-35,32.5822,2.56021e-35,-147.418,1.7043e-33,monload-611_runway,,,,,,,,2.4,,,7.101250000000001e-37
157,0.0,,-60.933,,0.0,2.02422e-35,89.6734,2.02422e-35,-90.3266,1.35001e-33,monload-611_runway,,,,,,,,2.4,,,5.625041666666667e-37
158,0.0,,6.45876,,0.0,1.7211e-35,152.763,1.7211e-35,-27.2369,1.25247e-33,monload-611_runway,,,,,,,,2.4,,,5.2186250000000004e-37
159,0.0,,150.516,,0.0,2.32731e-35,-101.513,2.32731e-35,78.4869,2.42711e-33,monload-611_runway,,,,,,,,2.4,,,1.0112958333333334e-36
160,0.0,,-65.4548,,0.0,1.71863e-35,-137.469,1.71863e-35,42.5305,6.43235e-34,monload-611_runway,,,,,,,,2.4,,,2.6801458333333333e-37
