hour,t(sec),V1,VAngle1,V2,VAngle2,I1,IAngle1,I2,IAngle2,V3,Name,VAngle3,I3,IAngle3,V4,VAngle4,I4,IAngle4,kv,V1(PU),V2(PU),V3(PU)
1,0.0,,110.87299999999999,,0.0,19.8215,110.87100000000001,19.8215,-69.1292,2234.21,monload-611_runway,,,,,,,,2.4,,,0.9309208333333333
2,0.0,,111.602,,0.0,21.3675,111.6,21.3675,-68.4002,2267.81,monload-611_runway,,,,,,,,2.4,,,0.9449208333333333
3,0.0,,113.62799999999999,,0.0,18.735,113.626,18.735,-66.3735,2350.8,monload-611_runway,,,,,,,,2.4,,,0.9795
4,0.0,,113.633,,0.0,18.1696,113.633,18.1696,-66.3674,2351.02,monload-611_runway,,,,,,,,2.4,,,0.9795916666666666
5,0.0,,113.397,,0.0,18.3433,113.399,18.3433,-66.6008,2341.18,monload-611_runway,,,,,,,,2.4,,,0.9754916666666666
6,0.0,,113.25200000000001,,0.0,19.8621,113.25299999999999,19.8621,-66.7472,2334.89,monload-611_runway,,,,,,,,2.4,,,0.9728708333333332
7,0.0,,112.37799999999999,,0.0,29.8483,112.37299999999999,29.8483,-67.627,2298.0,monload-611_runway,,,,,,,,2.4,,,0.9575
8,0.0,,112.50200000000001,,0.0,31.8618,112.5,31.8618,-67.4999,2303.48,monload-611_runway,,,,,,,,2.4,,,0.9597833333333333
9,0.0,,112.22200000000001,,0.0,44.0268,112.225,44.0268,-67.7748,2292.08,monload-611_runway,,,,,,,,2.4,,,0.9550333333333333
10,0.0,,112.99799999999999,,0.0,37.8158,113.00200000000001,37.8158,-66.9982,2324.91,monload-611_runway,,,,,,,,2.4,,,0.9687125
11,0.0,,113.59899999999999,,0.0,26.7204,113.594,26.7204,-66.4064,2349.92,monload-611_runway,,,,,,,,2.4,,,0.9791333333333334
12,0.0,,115.816,,0.0,25.0426,115.81700000000001,25.0426,-64.1831,2424.38,monload-611_runway,,,,,,,,2.4,,,1.0101583333333333
13,0.0,,113.29299999999999,,0.0,24.9564,113.29299999999999,24.9564,-66.707,2322.5,monload-611_runway,,,,,,,,2.4,,,0.9677083333333333
14,0.0,,114.37799999999999,,0.0,24.9959,114.374,24.9959,-65.6257,2366.89,monload-611_runway,,,,,,,,2.4,,,0.9862041666666667
15,0.0,,115.249,,0.0,24.9268,115.24700000000001,24.9268,-64.7526,2401.92,monload-611_runway,,,,,,,,2.4,,,1.0008000000000001
16,0.0,,115.411,,0.0,24.7866,115.411,24.7866,-64.5894,2408.28,monload-611_runway,,,,,,,,2.4,,,1.0034500000000002
17,0.0,,113.87200000000001,,0.0,25.989,113.87200000000001,25.989,-66.1279,2345.8,monload-611_runway,,,,,,,,2.4,,,0.9774166666666667
18,0.0,,112.273,,0.0,31.4202,112.28,31.4202,-67.7197,2279.15,monload-611_runway,,,,,,,,2.4,,,0.9496458333333334
19,0.0,,111.95,,0.0,42.8615,111.95299999999999,42.8615,-68.0473,2265.45,monload-611_runway,,,,,,,,2.4,,,0.9439374999999999
20,0.0,,111.961,,0.0,45.0097,111.961,45.0097,-68.0393,2265.99,monload-611_runway,,,,,,,,2.4,,,0.9441624999999999
21,0.0,,112.11399999999999,,0.0,47.6436,112.11200000000001,47.6436,-67.8875,2272.47,monload-611_runway,,,,,,,,2.4,,,0.9468624999999999
22,0.0,,112.294,,0.0,46.4444,112.292,46.4444,-67.7079,2280.31,monload-611_runway,,,,,,,,2.4,,,0.9501291666666667
23,0.0,,112.874,,0.0,35.6973,112.87100000000001,35.6973,-67.1286,2304.69,monload-611_runway,,,,,,,,2.4,,,0.9602875000000001
24,0.0,,113.288,,0.0,22.9122,113.286,22.9122,-66.714,2321.91,monload-611_runway,,,,,,,,2.4,,,0.9674624999999999
25,0.0,,113.436,,0.0,18.6667,113.436,18.6667,-66.5645,2328.15,monload-611_runway,,,,,,,,2.4,,,0.9700625
26,0.0,,113.445,,0.0,17.8494,113.445,17.8494,-66.5553,2328.5,monload-611_runway,,,,,,,,2.4,,,0.9702083333333333
27,0.0,,113.463,,0.0,16.9263,113.463,16.9263,-66.53699999999999,2329.23,monload-611_runway,,,,,,,,2.4,,,0.9705125
28,0.0,,113.46600000000001,,0.0,17.0116,113.46600000000001,17.0116,-66.5345,2329.31,monload-611_runway,,,,,,,,2.4,,,0.9705458333333333
29,0.0,,112.62,,0.0,17.6802,112.626,17.6802,-67.374,2294.26,monload-611_runway,,,,,,,,2.4,,,0.9559416666666668
30,0.0,,112.304,,0.0,21.26,112.304,21.26,-67.6955,2280.81,monload-611_runway,,,,,,,,2.4,,,0.9503375
31,0.0,,113.163,,0.0,33.1809,113.166,33.1809,-66.8337,2316.54,monload-611_runway,,,,,,,,2.4,,,0.965225
32,0.0,,111.665,,0.0,34.3989,111.661,34.3989,-68.3391,2252.02,monload-611_runway,,,,,,,,2.4,,,0.9383416666666666
33,0.0,,112.095,,0.0,30.6419,112.095,30.6419,-67.9046,2270.62,monload-611_runway,,,,,,,,2.4,,,0.9460916666666667
34,0.0,,110.413,,0.0,30.1308,110.412,30.1308,-69.58800000000001,2212.87,monload-611_runway,,,,,,,,2.4,,,0.9220291666666666
35,0.0,,109.303,,0.0,23.97,109.303,23.97,-70.6965,2179.85,monload-611_runway,,,,,,,,2.4,,,0.9082708333333332
36,0.0,,112.016,,0.0,26.0047,112.01799999999999,26.0047,-67.9819,2298.29,monload-611_runway,,,,,,,,2.4,,,0.9576208333333334
37,0.0,,111.55799999999999,,0.0,26.3973,111.555,26.3973,-68.4452,2278.94,monload-611_runway,,,,,,,,2.4,,,0.9495583333333334
38,0.0,,112.88,,0.0,25.3752,112.883,25.3752,-67.1172,2318.06,monload-611_runway,,,,,,,,2.4,,,0.9658583333333333
39,0.0,,113.744,,0.0,24.5082,113.743,24.5082,-66.2566,2358.72,monload-611_runway,,,,,,,,2.4,,,0.9827999999999999
40,0.0,,111.62299999999999,,0.0,24.6334,111.626,24.6334,-68.3741,2269.99,monload-611_runway,,,,,,,,2.4,,,0.9458291666666666
41,0.0,,113.21600000000001,,0.0,25.8685,113.213,25.8685,-66.7873,2331.58,monload-611_runway,,,,,,,,2.4,,,0.9714916666666666
42,0.0,,111.81,,0.0,31.5752,111.81,31.5752,-68.1898,2273.97,monload-611_runway,,,,,,,,2.4,,,0.9474874999999999
43,0.0,,112.184,,0.0,38.7986,112.184,38.7986,-67.8161,2287.38,monload-611_runway,,,,,,,,2.4,,,0.953075
44,0.0,,110.427,,0.0,39.9248,110.427,39.9248,-69.5729,2214.27,monload-611_runway,,,,,,,,2.4,,,0.9226125
45,0.0,,110.464,,0.0,43.7397,110.464,43.7397,-69.5361,2213.78,monload-611_runway,,,,,,,,2.4,,,0.9224083333333334
46,0.0,,109.01100000000001,,0.0,40.0549,109.006,40.0549,-70.9939,2165.45,monload-611_runway,,,,,,,,2.4,,,0.9022708333333332
47,0.0,,110.646,,0.0,30.2803,110.646,30.2803,-69.3541,2240.14,monload-611_runway,,,,,,,,2.4,,,0.9333916666666666
48,0.0,,110.98100000000001,,0.0,20.9011,110.98200000000001,20.9011,-69.0177,2254.57,monload-611_runway,,,,,,,,2.4,,,0.9394041666666667
49,0.0,,113.06299999999999,,0.0,18.8942,113.066,18.8942,-66.9338,2327.03,monload-611_runway,,,,,,,,2.4,,,0.9695958333333334
50,0.0,,113.10799999999999,,0.0,18.3946,113.104,18.3946,-66.8957,2328.91,monload-611_runway,,,,,,,,2.4,,,0.9703791666666666
51,0.0,,113.165,,0.0,17.8874,113.16,17.8874,-66.8398,2331.24,monload-611_runway,,,,,,,,2.4,,,0.9713499999999999
52,0.0,,113.161,,0.0,18.4384,113.161,18.4384,-66.839,2331.05,monload-611_runway,,,,,,,,2.4,,,0.9712708333333334
53,0.0,,112.302,,0.0,19.6598,112.303,19.6598,-67.6975,2295.0,monload-611_runway,,,,,,,,2.4,,,0.95625
54,0.0,,111.965,,0.0,23.9779,111.96700000000001,23.9779,-68.0334,2280.55,monload-611_runway,,,,,,,,2.4,,,0.9502291666666668
55,0.0,,112.846,,0.0,35.7182,112.845,35.7182,-67.1553,2317.63,monload-611_runway,,,,,,,,2.4,,,0.9656791666666668
56,0.0,,111.37299999999999,,0.0,35.5332,111.369,35.5332,-68.6313,2253.47,monload-611_runway,,,,,,,,2.4,,,0.9389458333333333
57,0.0,,113.088,,0.0,31.5574,113.088,31.5574,-66.9123,2326.44,monload-611_runway,,,,,,,,2.4,,,0.96935
58,0.0,,111.589,,0.0,31.0823,111.59,31.0823,-68.4103,2268.17,monload-611_runway,,,,,,,,2.4,,,0.9450708333333334
59,0.0,,113.291,,0.0,24.7817,113.289,24.7817,-66.7111,2339.66,monload-611_runway,,,,,,,,2.4,,,0.9748583333333333
60,0.0,,111.801,,0.0,25.8478,111.802,25.8478,-68.1981,2274.86,monload-611_runway,,,,,,,,2.4,,,0.9478583333333334
61,0.0,,114.007,,0.0,27.1001,114.006,27.1001,-65.994,2366.63,monload-611_runway,,,,,,,,2.4,,,0.9860958333333334
62,0.0,,113.708,,0.0,27.5835,113.712,27.5835,-66.2884,2354.38,monload-611_runway,,,,,,,,2.4,,,0.9809916666666667
63,0.0,,112.834,,0.0,27.9419,112.835,27.9419,-67.1647,2318.2,monload-611_runway,,,,,,,,2.4,,,0.9659166666666666
64,0.0,,112.265,,0.0,28.0794,112.266,28.0794,-67.734,2294.25,monload-611_runway,,,,,,,,2.4,,,0.9559375
65,0.0,,112.51899999999999,,0.0,28.5183,112.521,28.5183,-67.4787,2302.39,monload-611_runway,,,,,,,,2.4,,,0.9593291666666666
66,0.0,,111.23100000000001,,0.0,32.1053,111.23299999999999,32.1053,-68.7665,2247.28,monload-611_runway,,,,,,,,2.4,,,0.9363666666666668
67,0.0,,112.459,,0.0,38.728,112.461,38.728,-67.5393,2299.23,monload-611_runway,,,,,,,,2.4,,,0.9580125
68,0.0,,110.676,,0.0,39.8307,110.675,39.8307,-69.3248,2225.05,monload-611_runway,,,,,,,,2.4,,,0.9271041666666667
69,0.0,,109.551,,0.0,42.6893,109.55,42.6893,-70.4501,2178.02,monload-611_runway,,,,,,,,2.4,,,0.9075083333333334
70,0.0,,109.895,,0.0,40.2671,109.89399999999999,40.2671,-70.1061,2193.34,monload-611_runway,,,,,,,,2.4,,,0.9138916666666668
71,0.0,,112.76,,0.0,30.874000000000002,112.762,30.874000000000002,-67.2376,2314.12,monload-611_runway,,,,,,,,2.4,,,0.9642166666666666
72,0.0,,113.13600000000001,,0.0,21.1947,113.132,21.1947,-66.8677,2329.97,monload-611_runway,,,,,,,,2.4,,,0.9708208333333332
73,0.0,,113.36200000000001,,0.0,18.5785,113.36,18.5785,-66.6399,2339.53,monload-611_runway,,,,,,,,2.4,,,0.9748041666666668
74,0.0,,113.39200000000001,,0.0,17.7129,113.389,17.7129,-66.6113,2340.76,monload-611_runway,,,,,,,,2.4,,,0.9753166666666667
75,0.0,,113.42299999999999,,0.0,16.7422,113.42,16.7422,-66.5801,2342.07,monload-611_runway,,,,,,,,2.4,,,0.9758625000000001
76,0.0,,113.42,,0.0,16.8093,113.42,16.8093,-66.5798,2341.94,monload-611_runway,,,,,,,,2.4,,,0.9758083333333334
77,0.0,,112.58,,0.0,17.5128,112.581,17.5128,-67.4189,2306.84,monload-611_runway,,,,,,,,2.4,,,0.9611833333333334
78,0.0,,112.37299999999999,,0.0,20.9229,112.375,20.9229,-67.6252,2297.92,monload-611_runway,,,,,,,,2.4,,,0.9574666666666667
79,0.0,,112.36399999999999,,0.0,32.7171,112.361,32.7171,-67.6387,2295.74,monload-611_runway,,,,,,,,2.4,,,0.9565583333333333
80,0.0,,111.589,,0.0,34.7204,111.588,34.7204,-68.4122,2263.15,monload-611_runway,,,,,,,,2.4,,,0.9429791666666667
81,0.0,,112.31299999999999,,0.0,30.82,112.31200000000001,30.82,-67.6878,2296.29,monload-611_runway,,,,,,,,2.4,,,0.9567875
82,0.0,,115.068,,0.0,30.1071,115.068,30.1071,-64.9315,2392.54,monload-611_runway,,,,,,,,2.4,,,0.9968916666666666
83,0.0,,116.976,,0.0,23.08,116.976,23.08,-63.0243,2456.1,monload-611_runway,,,,,,,,2.4,,,1.023375
84,0.0,,118.609,,0.0,23.6213,118.609,23.6213,-61.3911,2517.34,monload-611_runway,,,,,,,,2.4,,,1.0488916666666668
85,0.0,,119.4,,0.0,24.8342,119.398,24.8342,-60.6024,2530.38,monload-611_runway,,,,,,,,2.4,,,1.054325
86,0.0,,120.435,,0.0,26.5271,120.43299999999999,26.5271,-59.5666,2565.09,monload-611_runway,,,,,,,,2.4,,,1.0687875
87,0.0,,119.13799999999999,,0.0,26.4039,119.13799999999999,26.4039,-60.8618,2518.73,monload-611_runway,,,,,,,,2.4,,,1.0494708333333334
88,0.0,,116.665,,0.0,26.3335,116.66799999999999,26.3335,-63.3317,2426.87,monload-611_runway,,,,,,,,2.4,,,1.0111958333333333
89,0.0,,112.836,,0.0,27.5633,112.833,27.5633,-67.1667,2303.91,monload-611_runway,,,,,,,,2.4,,,0.9599624999999999
90,0.0,,112.081,,0.0,33.6905,112.08200000000001,33.6905,-67.918,2271.48,monload-611_runway,,,,,,,,2.4,,,0.94645
91,0.0,,111.94,,0.0,41.1391,111.94,41.1391,-68.0601,2263.13,monload-611_runway,,,,,,,,2.4,,,0.9429708333333334
92,0.0,,111.958,,0.0,44.2164,111.96,44.2164,-68.0404,2263.98,monload-611_runway,,,,,,,,2.4,,,0.943325
93,0.0,,110.935,,0.0,48.2838,110.939,48.2838,-69.0611,2236.46,monload-611_runway,,,,,,,,2.4,,,0.9318583333333333
94,0.0,,109.461,,0.0,44.1482,109.46,44.1482,-70.54,2174.39,monload-611_runway,,,,,,,,2.4,,,0.9059958333333333
95,0.0,,110.39399999999999,,0.0,33.36,110.389,33.36,-69.6106,2215.32,monload-611_runway,,,,,,,,2.4,,,0.92305
96,0.0,,110.742,,0.0,23.4627,110.74,23.4627,-69.2598,2230.54,monload-611_runway,,,,,,,,2.4,,,0.9293916666666666
97,0.0,,112.89,,0.0,21.7964,112.889,21.7964,-67.1106,2320.14,monload-611_runway,,,,,,,,2.4,,,0.966725
98,0.0,,112.943,,0.0,20.8093,112.93799999999999,20.8093,-67.0617,2322.37,monload-611_runway,,,,,,,,2.4,,,0.9676541666666666
99,0.0,,112.988,,0.0,19.5335,112.984,19.5335,-67.0163,2324.23,monload-611_runway,,,,,,,,2.4,,,0.9684291666666667
100,0.0,,113.05,,0.0,19.3539,113.044,19.3539,-66.9562,2326.82,monload-611_runway,,,,,,,,2.4,,,0.9695083333333334
101,0.0,,112.3,,0.0,19.795,112.301,19.795,-67.6993,2295.28,monload-611_runway,,,,,,,,2.4,,,0.9563666666666667
102,0.0,,111.992,,0.0,23.6849,111.995,23.6849,-68.0049,2282.07,monload-611_runway,,,,,,,,2.4,,,0.9508625
103,0.0,,111.896,,0.0,38.3471,111.89,38.3471,-68.1103,2275.99,monload-611_runway,,,,,,,,2.4,,,0.9483291666666666
104,0.0,,111.131,,0.0,41.9915,111.13600000000001,41.9915,-68.8639,2243.81,monload-611_runway,,,,,,,,2.4,,,0.9349208333333333
105,0.0,,111.91,,0.0,39.7547,111.90899999999999,39.7547,-68.0908,2279.48,monload-611_runway,,,,,,,,2.4,,,0.9497833333333333
106,0.0,,115.28299999999999,,0.0,42.458999999999996,115.28299999999999,42.458999999999996,-64.717,2402.99,monload-611_runway,,,,,,,,2.4,,,1.0012458333333332
107,0.0,,115.273,,0.0,36.7749,115.273,36.7749,-64.7266,2402.18,monload-611_runway,,,,,,,,2.4,,,1.0009083333333333
108,0.0,,118.05,,0.0,34.924,118.05,34.924,-61.9502,2495.45,monload-611_runway,,,,,,,,2.4,,,1.0397708333333333
109,0.0,,118.98700000000001,,0.0,35.3309,118.98899999999999,35.3309,-61.0114,2513.98,monload-611_runway,,,,,,,,2.4,,,1.0474916666666667
110,0.0,,119.949,,0.0,36.5336,119.958,36.5336,-60.0423,2546.43,monload-611_runway,,,,,,,,2.4,,,1.0610125
111,0.0,,118.561,,0.0,36.556999999999995,118.561,36.556999999999995,-61.4388,2496.25,monload-611_runway,,,,,,,,2.4,,,1.0401041666666666
112,0.0,,116.152,,0.0,35.8436,116.154,35.8436,-63.8457,2405.89,monload-611_runway,,,,,,,,2.4,,,1.0024541666666666
113,0.0,,112.42200000000001,,0.0,37.3236,112.426,37.3236,-67.5741,2285.5,monload-611_runway,,,,,,,,2.4,,,0.9522916666666666
114,0.0,,111.943,,0.0,42.0512,111.93799999999999,42.0512,-68.0625,2264.77,monload-611_runway,,,,,,,,2.4,,,0.9436541666666667
115,0.0,,112.015,,0.0,47.9707,112.015,47.9707,-67.9849,2265.53,monload-611_runway,,,,,,,,2.4,,,0.9439708333333334
116,0.0,,112.066,,0.0,50.6027,112.066,50.6027,-67.9338,2268.11,monload-611_runway,,,,,,,,2.4,,,0.9450458333333334
117,0.0,,111.045,,0.0,54.107,111.04799999999999,54.107,-68.952,2240.8,monload-611_runway,,,,,,,,2.4,,,0.9336666666666668
118,0.0,,111.428,,0.0,51.9114,111.428,51.9114,-68.5719,2257.53,monload-611_runway,,,,,,,,2.4,,,0.9406375000000001
119,0.0,,112.476,,0.0,40.733000000000004,112.46700000000001,40.733000000000004,-67.5328,2302.16,monload-611_runway,,,,,,,,2.4,,,0.9592333333333333
120,0.0,,112.927,,0.0,29.5798,112.92,29.5798,-67.0803,2321.3,monload-611_runway,,,,,,,,2.4,,,0.9672083333333334
121,0.0,,113.242,,0.0,25.8806,113.23700000000001,25.8806,-66.7631,2334.71,monload-611_runway,,,,,,,,2.4,,,0.9727958333333333
122,0.0,,113.294,,0.0,24.5759,113.287,24.5759,-66.7135,2336.89,monload-611_runway,,,,,,,,2.4,,,0.9737041666666666
123,0.0,,113.34299999999999,,0.0,22.9971,113.337,22.9971,-66.6635,2338.95,monload-611_runway,,,,,,,,2.4,,,0.9745624999999999
124,0.0,,113.367,,0.0,22.3842,113.363,22.3842,-66.6368,2339.94,monload-611_runway,,,,,,,,2.4,,,0.974975
125,0.0,,112.521,,0.0,22.8134,112.523,22.8134,-67.4769,2304.58,monload-611_runway,,,,,,,,2.4,,,0.9602416666666667
126,0.0,,112.264,,0.0,26.7316,112.26799999999999,26.7316,-67.7316,2293.52,monload-611_runway,,,,,,,,2.4,,,0.9556333333333333
127,0.0,,110.395,,0.0,40.0306,110.395,40.0306,-69.6055,2213.46,monload-611_runway,,,,,,,,2.4,,,0.9222750000000001
128,0.0,,109.595,,0.0,43.4131,109.598,43.4131,-70.4022,2178.68,monload-611_runway,,,,,,,,2.4,,,0.9077833333333333
129,0.0,,111.286,,0.0,43.4868,111.287,43.4868,-68.7133,2252.01,monload-611_runway,,,,,,,,2.4,,,0.9383375
130,0.0,,114.28399999999999,,0.0,44.3574,114.28299999999999,44.3574,-65.7168,2376.93,monload-611_runway,,,,,,,,2.4,,,0.9903875
131,0.0,,114.79899999999999,,0.0,38.3172,114.79899999999999,38.3172,-65.2008,2382.61,monload-611_runway,,,,,,,,2.4,,,0.9927541666666667
132,0.0,,114.51299999999999,,0.0,39.0492,114.514,39.0492,-65.4862,2373.18,monload-611_runway,,,,,,,,2.4,,,0.988825
133,0.0,,115.79,,0.0,39.7514,115.789,39.7514,-64.2105,2423.19,monload-611_runway,,,,,,,,2.4,,,1.0096625000000001
134,0.0,,117.618,,0.0,40.3209,117.618,40.3209,-62.3819,2475.57,monload-611_runway,,,,,,,,2.4,,,1.0314875000000001
135,0.0,,117.685,,0.0,40.0177,117.685,40.0177,-62.3153,2478.37,monload-611_runway,,,,,,,,2.4,,,1.0326541666666667
136,0.0,,115.456,,0.0,38.751,115.456,38.751,-64.5438,2393.05,monload-611_runway,,,,,,,,2.4,,,0.9971041666666668
137,0.0,,112.088,,0.0,37.6999,112.085,37.6999,-67.9155,2271.12,monload-611_runway,,,,,,,,2.4,,,0.9462999999999999
138,0.0,,111.814,,0.0,42.4804,111.811,42.4804,-68.1893,2259.0,monload-611_runway,,,,,,,,2.4,,,0.94125
139,0.0,,111.792,,0.0,49.4155,111.79299999999999,49.4155,-68.2073,2255.7,monload-611_runway,,,,,,,,2.4,,,0.9398749999999999
140,0.0,,111.831,,0.0,52.1351,111.831,52.1351,-68.1688,2257.75,monload-611_runway,,,,,,,,2.4,,,0.9407291666666666
141,0.0,,110.781,,0.0,55.8408,110.78399999999999,55.8408,-69.2157,2228.97,monload-611_runway,,,,,,,,2.4,,,0.9287374999999999
142,0.0,,111.415,,0.0,51.108999999999995,111.414,51.108999999999995,-68.5855,2256.89,monload-611_runway,,,,,,,,2.4,,,0.9403708333333333
143,0.0,,112.675,,0.0,37.0848,112.67399999999999,37.0848,-67.32600000000001,2310.75,monload-611_runway,,,,,,,,2.4,,,0.9628125
144,0.0,,113.113,,0.0,25.3175,113.10600000000001,25.3175,-66.8944,2329.27,monload-611_runway,,,,,,,,2.4,,,0.9705291666666667
145,0.0,,113.324,,0.0,23.1146,113.32,23.1146,-66.6796,2338.2,monload-611_runway,,,,,,,,2.4,,,0.97425
146,0.0,,113.314,,0.0,22.7156,113.315,22.7156,-66.6847,2337.77,monload-611_runway,,,,,,,,2.4,,,0.9740708333333333
147,0.0,,113.375,,0.0,19.4987,113.367,19.4987,-66.6335,2340.34,monload-611_runway,,,,,,,,2.4,,,0.9751416666666667
148,0.0,,113.391,,0.0,19.1538,113.389,19.1538,-66.6112,2340.97,monload-611_runway,,,,,,,,2.4,,,0.9754041666666666
149,0.0,,113.16,,0.0,19.44,113.164,19.44,-66.8359,2331.23,monload-611_runway,,,,,,,,2.4,,,0.9713458333333334
150,0.0,,113.01100000000001,,0.0,20.7921,113.01299999999999,20.7921,-66.9867,2324.77,monload-611_runway,,,,,,,,2.4,,,0.9686541666666667
151,0.0,,112.126,,0.0,30.6613,112.12700000000001,30.6613,-67.8725,2287.59,monload-611_runway,,,,,,,,2.4,,,0.9531625
152,0.0,,111.523,,0.0,32.2872,111.524,32.2872,-68.4762,2262.05,monload-611_runway,,,,,,,,2.4,,,0.9425208333333334
153,0.0,,113.934,,0.0,45.5458,113.932,45.5458,-66.0682,2363.54,monload-611_runway,,,,,,,,2.4,,,0.9848083333333333
154,0.0,,113.367,,0.0,40.6198,113.37700000000001,40.6198,-66.6227,2340.32,monload-611_runway,,,,,,,,2.4,,,0.9751333333333334
155,0.0,,117.206,,0.0,31.8176,117.209,31.8176,-62.7907,2462.97,monload-611_runway,,,,,,,,2.4,,,1.0262375
156,0.0,,119.309,,0.0,31.4281,119.30799999999999,31.4281,-60.6922,2526.89,monload-611_runway,,,,,,,,2.4,,,1.0528708333333332
157,0.0,,118.44,,0.0,32.0281,118.44,32.0281,-61.5597,2494.96,monload-611_runway,,,,,,,,2.4,,,1.0395666666666667
158,0.0,,119.869,,0.0,32.0852,119.87299999999999,32.0852,-60.1271,2545.2,monload-611_runway,,,,,,,,2.4,,,1.0605
159,0.0,,118.561,,0.0,32.0361,118.571,32.0361,-61.428999999999995,2497.68,monload-611_runway,,,,,,,,2.4,,,1.0407
160,0.0,,115.228,,0.0,33.0122,115.23,33.0122,-64.7703,2370.42,monload-611_runway,,,,,,,,2.4,,,0.9876750000000001
161,0.0,,113.262,,0.0,33.2851,113.259,33.2851,-66.741,2305.81,monload-611_runway,,,,,,,,2.4,,,0.9607541666666667
162,0.0,,111.5,,0.0,35.9784,111.505,35.9784,-68.4952,2246.24,monload-611_runway,,,,,,,,2.4,,,0.9359333333333333
163,0.0,,111.16,,0.0,46.806000000000004,111.163,46.806000000000004,-68.8369,2245.78,monload-611_runway,,,,,,,,2.4,,,0.9357416666666668
164,0.0,,111.2,,0.0,48.5601,111.2,48.5601,-68.7999,2247.6,monload-611_runway,,,,,,,,2.4,,,0.9365
165,0.0,,111.81700000000001,,0.0,51.7446,111.816,51.7446,-68.1835,2273.98,monload-611_runway,,,,,,,,2.4,,,0.9474916666666666
166,0.0,,111.986,,0.0,51.0972,111.985,51.0972,-68.0149,2281.45,monload-611_runway,,,,,,,,2.4,,,0.9506041666666666
167,0.0,,112.60799999999999,,0.0,40.8171,112.60700000000001,40.8171,-67.3927,2307.97,monload-611_runway,,,,,,,,2.4,,,0.9616541666666666
168,0.0,,113.07600000000001,,0.0,27.8677,113.071,27.8677,-66.9293,2327.75,monload-611_runway,,,,,,,,2.4,,,0.9698958333333333
169,0.0,,113.449,,0.0,23.6005,113.445,23.6005,-66.5555,2343.4,monload-611_runway,,,,,,,,2.4,,,0.9764166666666667
