hour,t(sec),P1(kW),Q1(kvar),P2(kW),Q2(kvar),P3(kW),Name,Q3(kvar),P4(kW),Q4(kvar)
1,0.0,0.8022100000000001,-8.46525e-06,,0.0,,mongenerator-battery_634_existing,,,
2,0.0,0.8012,-1.6207e-05,,0.0,,mongenerator-battery_634_existing,,,
3,0.0,0.800849,-5.083380000000001e-06,,0.0,,mongenerator-battery_634_existing,,,
4,0.0,0.800713,-2.0341e-06,,0.0,,mongenerator-battery_634_existing,,,
5,0.0,0.799932,-4.79368e-07,,0.0,,mongenerator-battery_634_existing,,,
6,0.0,0.799744,-1.54622e-07,,0.0,,mongenerator-battery_634_existing,,,
7,0.0,0.7992560000000001,-2.82529e-07,,0.0,,mongenerator-battery_634_existing,,,
8,0.0,0.7995770000000001,5.67745e-06,,0.0,,mongenerator-battery_634_existing,,,
9,0.0,0.799589,-1.7323e-07,,0.0,,mongenerator-battery_634_existing,,,
10,0.0,0.799772,-4.14045e-07,,0.0,,mongenerator-battery_634_existing,,,
11,0.0,0.799833,7.3054e-07,,0.0,,mongenerator-battery_634_existing,,,
12,0.0,0.8057989999999999,-7.20831e-08,,0.0,,mongenerator-battery_634_existing,,,
13,0.0,0.7998569999999999,-2.2862e-07,,0.0,,mongenerator-battery_634_existing,,,
14,0.0,0.7998069999999999,4.49302e-07,,0.0,,mongenerator-battery_634_existing,,,
15,0.0,0.799732,2.44799e-07,,0.0,,mongenerator-battery_634_existing,,,
16,0.0,0.799653,-9.634129999999999e-09,,0.0,,mongenerator-battery_634_existing,,,
17,0.0,0.799506,-7.2218e-07,,0.0,,mongenerator-battery_634_existing,,,
18,0.0,0.7990659999999999,-4.29725e-07,,0.0,,mongenerator-battery_634_existing,,,
19,0.0,0.798795,-3.42148e-06,,0.0,,mongenerator-battery_634_existing,,,
20,0.0,0.798851,7.192849999999999e-07,,0.0,,mongenerator-battery_634_existing,,,
21,0.0,0.798975,1.51715e-06,,0.0,,mongenerator-battery_634_existing,,,
22,0.0,0.799276,-5.02757e-08,,0.0,,mongenerator-battery_634_existing,,,
23,0.0,0.802161,1.1462700000000002e-06,,0.0,,mongenerator-battery_634_existing,,,
24,0.0,0.799787,-8.7068e-07,,0.0,,mongenerator-battery_634_existing,,,
25,0.0,0.801638,7.47929e-07,,0.0,,mongenerator-battery_634_existing,,,
26,0.0,0.803509,2.72569e-05,,0.0,,mongenerator-battery_634_existing,,,
27,0.0,0.804135,8.934680000000001e-06,,0.0,,mongenerator-battery_634_existing,,,
28,0.0,0.804495,5.19947e-06,,0.0,,mongenerator-battery_634_existing,,,
29,0.0,0.803067,-6.06092e-07,,0.0,,mongenerator-battery_634_existing,,,
30,0.0,0.8029649999999999,-8.17977e-07,,0.0,,mongenerator-battery_634_existing,,,
31,0.0,0.798059,-2.1665900000000003e-06,,0.0,,mongenerator-battery_634_existing,,,
32,0.0,0.797682,-5.492240000000001e-06,,0.0,,mongenerator-battery_634_existing,,,
33,0.0,0.797451,1.3650999999999999e-06,,0.0,,mongenerator-battery_634_existing,,,
34,0.0,0.797347,-5.09906e-06,,0.0,,mongenerator-battery_634_existing,,,
35,0.0,0.7974399999999999,8.33181e-07,,0.0,,mongenerator-battery_634_existing,,,
36,0.0,0.788601,-6.36064e-06,,0.0,,mongenerator-battery_634_existing,,,
37,0.0,0.805758,3.6993099999999997e-06,,0.0,,mongenerator-battery_634_existing,,,
38,0.0,0.782474,-5.89138e-07,,0.0,,mongenerator-battery_634_existing,,,
39,0.0,0.81844,1.5664e-06,,0.0,,mongenerator-battery_634_existing,,,
40,0.0,0.802847,7.73957e-08,,0.0,,mongenerator-battery_634_existing,,,
41,0.0,0.797007,-2.41732e-06,,0.0,,mongenerator-battery_634_existing,,,
42,0.0,0.792355,-2.67844e-06,,0.0,,mongenerator-battery_634_existing,,,
43,0.0,0.793033,4.6551900000000003e-07,,0.0,,mongenerator-battery_634_existing,,,
44,0.0,0.791532,-2.1075399999999998e-05,,0.0,,mongenerator-battery_634_existing,,,
45,0.0,0.7791939999999999,-1.42769e-05,,0.0,,mongenerator-battery_634_existing,,,
46,0.0,0.792975,8.45129e-06,,0.0,,mongenerator-battery_634_existing,,,
47,0.0,0.8043,3.5296199999999998e-06,,0.0,,mongenerator-battery_634_existing,,,
48,0.0,0.798944,-7.74841e-05,,0.0,,mongenerator-battery_634_existing,,,
49,0.0,0.803999,7.414430000000001e-05,,0.0,,mongenerator-battery_634_existing,,,
50,0.0,0.805351,1.87662e-05,,0.0,,mongenerator-battery_634_existing,,,
51,0.0,0.805451,1.265e-06,,0.0,,mongenerator-battery_634_existing,,,
52,0.0,0.805515,9.33102e-07,,0.0,,mongenerator-battery_634_existing,,,
53,0.0,0.801327,-5.91227e-05,,0.0,,mongenerator-battery_634_existing,,,
54,0.0,0.801117,-1.6643599999999999e-06,,0.0,,mongenerator-battery_634_existing,,,
55,0.0,0.790884,-6.5686399999999995e-06,,0.0,,mongenerator-battery_634_existing,,,
56,0.0,0.793112,3.15382e-05,,0.0,,mongenerator-battery_634_existing,,,
57,0.0,0.793818,2.6985700000000003e-07,,0.0,,mongenerator-battery_634_existing,,,
58,0.0,0.805478,2.62198e-06,,0.0,,mongenerator-battery_634_existing,,,
59,0.0,0.817419,1.6659099999999999e-07,,0.0,,mongenerator-battery_634_existing,,,
60,0.0,0.78651,-5.26182e-07,,0.0,,mongenerator-battery_634_existing,,,
61,0.0,0.803912,4.3383e-06,,0.0,,mongenerator-battery_634_existing,,,
62,0.0,0.803972,1.19017e-07,,0.0,,mongenerator-battery_634_existing,,,
63,0.0,0.798642,-1.92562e-06,,0.0,,mongenerator-battery_634_existing,,,
64,0.0,0.797149,-2.0949899999999997e-05,,0.0,,mongenerator-battery_634_existing,,,
65,0.0,0.796855,-2.5847900000000004e-06,,0.0,,mongenerator-battery_634_existing,,,
66,0.0,0.794251,-1.31166e-06,,0.0,,mongenerator-battery_634_existing,,,
67,0.0,0.782031,-1.22671e-05,,0.0,,mongenerator-battery_634_existing,,,
68,0.0,0.777758,-5.20559e-06,,0.0,,mongenerator-battery_634_existing,,,
69,0.0,0.7817930000000001,4.21519e-06,,0.0,,mongenerator-battery_634_existing,,,
70,0.0,0.79519,7.25659e-06,,0.0,,mongenerator-battery_634_existing,,,
71,0.0,0.806029,2.8884500000000003e-06,,0.0,,mongenerator-battery_634_existing,,,
72,0.0,0.800396,-2.12807e-06,,0.0,,mongenerator-battery_634_existing,,,
73,0.0,0.805439,1.55407e-06,,0.0,,mongenerator-battery_634_existing,,,
74,0.0,0.806711,1.85927e-05,,0.0,,mongenerator-battery_634_existing,,,
75,0.0,0.806525,-2.78053e-06,,0.0,,mongenerator-battery_634_existing,,,
76,0.0,0.806301,-3.2489099999999998e-06,,0.0,,mongenerator-battery_634_existing,,,
77,0.0,0.804449,-6.56406e-07,,0.0,,mongenerator-battery_634_existing,,,
78,0.0,0.804076,-4.9124e-06,,0.0,,mongenerator-battery_634_existing,,,
79,0.0,0.793463,-5.941040000000001e-06,,0.0,,mongenerator-battery_634_existing,,,
80,0.0,0.794081,9.73682e-06,,0.0,,mongenerator-battery_634_existing,,,
81,0.0,0.795165,4.1582499999999995e-08,,0.0,,mongenerator-battery_634_existing,,,
82,0.0,0.822476,-9.22354e-07,,0.0,,mongenerator-battery_634_existing,,,
83,0.0,0.8531340000000001,-2.3468900000000002e-07,,0.0,,mongenerator-battery_634_existing,,,
84,0.0,0.8715229999999999,-1.9634400000000004e-06,,0.0,,mongenerator-battery_634_existing,,,
85,0.0,0.883519,8.31316e-05,,0.0,,mongenerator-battery_634_existing,,,
86,0.0,0.8766200000000001,-4.5899600000000004e-05,,0.0,,mongenerator-battery_634_existing,,,
87,0.0,0.856776,-5.10993e-06,,0.0,,mongenerator-battery_634_existing,,,
88,0.0,0.8224520000000001,3.7784500000000003e-07,,0.0,,mongenerator-battery_634_existing,,,
89,0.0,0.786989,3.15751e-07,,0.0,,mongenerator-battery_634_existing,,,
90,0.0,0.7827109999999999,-6.49522e-05,,0.0,,mongenerator-battery_634_existing,,,
91,0.0,0.778425,-3.24889e-06,,0.0,,mongenerator-battery_634_existing,,,
92,0.0,0.780087,2.67878e-05,,0.0,,mongenerator-battery_634_existing,,,
93,0.0,0.785619,3.0294599999999997e-06,,0.0,,mongenerator-battery_634_existing,,,
94,0.0,0.788273,4.36241e-05,,0.0,,mongenerator-battery_634_existing,,,
95,0.0,0.7891020000000001,5.02797e-07,,0.0,,mongenerator-battery_634_existing,,,
96,0.0,0.784212,-2.94758e-06,,0.0,,mongenerator-battery_634_existing,,,
97,0.0,0.7876380000000001,5.69193e-05,,0.0,,mongenerator-battery_634_existing,,,
98,0.0,0.789402,2.8261e-05,,0.0,,mongenerator-battery_634_existing,,,
99,0.0,0.789428,7.44035e-08,,0.0,,mongenerator-battery_634_existing,,,
100,0.0,0.789453,4.22599e-07,,0.0,,mongenerator-battery_634_existing,,,
101,0.0,0.787632,-3.00239e-05,,0.0,,mongenerator-battery_634_existing,,,
102,0.0,0.787349,-4.75184e-06,,0.0,,mongenerator-battery_634_existing,,,
103,0.0,0.7763260000000001,-9.41787e-06,,0.0,,mongenerator-battery_634_existing,,,
104,0.0,0.775341,2.92468e-07,,0.0,,mongenerator-battery_634_existing,,,
105,0.0,0.77792,1.40779e-06,,0.0,,mongenerator-battery_634_existing,,,
106,0.0,0.802616,8.66691e-06,,0.0,,mongenerator-battery_634_existing,,,
107,0.0,0.840802,-2.83192e-07,,0.0,,mongenerator-battery_634_existing,,,
108,0.0,0.8644219999999999,-1.10318e-06,,0.0,,mongenerator-battery_634_existing,,,
109,0.0,0.876366,-4.332200000000001e-06,,0.0,,mongenerator-battery_634_existing,,,
110,0.0,0.866877,3.12199e-07,,0.0,,mongenerator-battery_634_existing,,,
111,0.0,0.846297,-5.712090000000001e-06,,0.0,,mongenerator-battery_634_existing,,,
112,0.0,0.812229,3.06952e-07,,0.0,,mongenerator-battery_634_existing,,,
113,0.0,0.785718,2.75412e-07,,0.0,,mongenerator-battery_634_existing,,,
114,0.0,0.776508,-7.31933e-06,,0.0,,mongenerator-battery_634_existing,,,
115,0.0,0.773872,-4.1335e-05,,0.0,,mongenerator-battery_634_existing,,,
116,0.0,0.775706,3.1591300000000004e-05,,0.0,,mongenerator-battery_634_existing,,,
117,0.0,0.781417,3.94098e-06,,0.0,,mongenerator-battery_634_existing,,,
118,0.0,0.788213,3.38911e-06,,0.0,,mongenerator-battery_634_existing,,,
119,0.0,0.788906,4.91295e-07,,0.0,,mongenerator-battery_634_existing,,,
120,0.0,0.789234,6.486e-06,,0.0,,mongenerator-battery_634_existing,,,
121,0.0,0.789537,5.0897100000000004e-06,,0.0,,mongenerator-battery_634_existing,,,
122,0.0,0.789573,1.0899600000000001e-06,,0.0,,mongenerator-battery_634_existing,,,
123,0.0,0.789589,1.18571e-06,,0.0,,mongenerator-battery_634_existing,,,
124,0.0,0.78962,8.21286e-07,,0.0,,mongenerator-battery_634_existing,,,
125,0.0,0.789149,-3.92082e-07,,0.0,,mongenerator-battery_634_existing,,,
126,0.0,0.788914,-4.55964e-06,,0.0,,mongenerator-battery_634_existing,,,
127,0.0,0.787747,-7.217919999999999e-07,,0.0,,mongenerator-battery_634_existing,,,
128,0.0,0.77923,-6.4038099999999994e-06,,0.0,,mongenerator-battery_634_existing,,,
129,0.0,0.776307,3.09027e-07,,0.0,,mongenerator-battery_634_existing,,,
130,0.0,0.786693,5.111980000000001e-06,,0.0,,mongenerator-battery_634_existing,,,
131,0.0,0.829449,-1.25691e-07,,0.0,,mongenerator-battery_634_existing,,,
132,0.0,0.810773,-1.97551e-07,,0.0,,mongenerator-battery_634_existing,,,
133,0.0,0.827275,2.56673e-07,,0.0,,mongenerator-battery_634_existing,,,
134,0.0,0.828206,-5.603819999999999e-06,,0.0,,mongenerator-battery_634_existing,,,
135,0.0,0.830743,2.27501e-07,,0.0,,mongenerator-battery_634_existing,,,
136,0.0,0.800742,-7.80242e-07,,0.0,,mongenerator-battery_634_existing,,,
137,0.0,0.785508,2.6543e-07,,0.0,,mongenerator-battery_634_existing,,,
138,0.0,0.774834,-9.31578e-06,,0.0,,mongenerator-battery_634_existing,,,
139,0.0,0.772505,-2.2362900000000002e-06,,0.0,,mongenerator-battery_634_existing,,,
140,0.0,0.776105,3.11928e-06,,0.0,,mongenerator-battery_634_existing,,,
141,0.0,0.781443,3.62777e-06,,0.0,,mongenerator-battery_634_existing,,,
142,0.0,0.788177,3.47577e-06,,0.0,,mongenerator-battery_634_existing,,,
143,0.0,0.789528,9.05284e-07,,0.0,,mongenerator-battery_634_existing,,,
144,0.0,0.788122,-2.28143e-05,,0.0,,mongenerator-battery_634_existing,,,
145,0.0,0.789253,2.01135e-05,,0.0,,mongenerator-battery_634_existing,,,
146,0.0,0.790895,2.72737e-05,,0.0,,mongenerator-battery_634_existing,,,
147,0.0,0.7909430000000001,1.8365599999999999e-06,,0.0,,mongenerator-battery_634_existing,,,
148,0.0,0.79097,6.97143e-07,,0.0,,mongenerator-battery_634_existing,,,
149,0.0,0.789504,-8.88127e-07,,0.0,,mongenerator-battery_634_existing,,,
150,0.0,0.7894,-2.3633000000000003e-06,,0.0,,mongenerator-battery_634_existing,,,
151,0.0,0.782233,-4.978719999999999e-06,,0.0,,mongenerator-battery_634_existing,,,
152,0.0,0.782119,-2.09936e-07,,0.0,,mongenerator-battery_634_existing,,,
153,0.0,0.789115,5.386889999999999e-06,,0.0,,mongenerator-battery_634_existing,,,
154,0.0,0.7766529999999999,-9.49364e-06,,0.0,,mongenerator-battery_634_existing,,,
155,0.0,0.8565299999999999,-6.36617e-07,,0.0,,mongenerator-battery_634_existing,,,
156,0.0,0.8700370000000001,1.31378e-07,,0.0,,mongenerator-battery_634_existing,,,
157,0.0,0.858516,2.8793200000000002e-06,,0.0,,mongenerator-battery_634_existing,,,
158,0.0,0.853562,2.04562e-06,,0.0,,mongenerator-battery_634_existing,,,
159,0.0,0.834148,4.09519e-07,,0.0,,mongenerator-battery_634_existing,,,
160,0.0,0.788316,8.581649999999999e-08,,0.0,,mongenerator-battery_634_existing,,,
161,0.0,0.788316,-1.0853400000000001e-07,,0.0,,mongenerator-battery_634_existing,,,
162,0.0,0.777424,-9.20572e-06,,0.0,,mongenerator-battery_634_existing,,,
163,0.0,0.780946,6.08497e-05,,0.0,,mongenerator-battery_634_existing,,,
164,0.0,0.7880020000000001,3.4828300000000003e-06,,0.0,,mongenerator-battery_634_existing,,,
165,0.0,0.788397,6.710169999999999e-06,,0.0,,mongenerator-battery_634_existing,,,
166,0.0,0.788665,4.65833e-06,,0.0,,mongenerator-battery_634_existing,,,
167,0.0,0.789742,3.60797e-07,,0.0,,mongenerator-battery_634_existing,,,
168,0.0,0.789446,-1.13011e-08,,0.0,,mongenerator-battery_634_existing,,,
169,0.0,0.789674,2.2177800000000002e-07,,0.0,,mongenerator-battery_634_existing,,,
170,0.0,0.790607,1.6656600000000002e-05,,0.0,,mongenerator-battery_634_existing,,,
171,0.0,0.790651,4.06114e-08,,0.0,,mongenerator-battery_634_existing,,,
172,0.0,0.790611,-6.724729999999999e-07,,0.0,,mongenerator-battery_634_existing,,,
173,0.0,0.789555,-6.05848e-07,,0.0,,mongenerator-battery_634_existing,,,
174,0.0,0.789352,-3.84054e-06,,0.0,,mongenerator-battery_634_existing,,,
175,0.0,0.7821020000000001,-5.1136699999999994e-06,,0.0,,mongenerator-battery_634_existing,,,
176,0.0,0.782211,4.04078e-07,,0.0,,mongenerator-battery_634_existing,,,
177,0.0,0.790196,4.01094e-06,,0.0,,mongenerator-battery_634_existing,,,
178,0.0,0.838261,-9.07284e-08,,0.0,,mongenerator-battery_634_existing,,,
179,0.0,0.7807729999999999,6.818300000000001e-07,,0.0,,mongenerator-battery_634_existing,,,
180,0.0,0.774813,-2.97629e-08,,0.0,,mongenerator-battery_634_existing,,,
181,0.0,0.798373,1.4275499999999999e-05,,0.0,,mongenerator-battery_634_existing,,,
182,0.0,0.807879,5.932480000000001e-06,,0.0,,mongenerator-battery_634_existing,,,
183,0.0,0.7932680000000001,-8.936010000000001e-06,,0.0,,mongenerator-battery_634_existing,,,
184,0.0,0.787688,-3.66404e-06,,0.0,,mongenerator-battery_634_existing,,,
185,0.0,0.787694,-3.53796e-08,,0.0,,mongenerator-battery_634_existing,,,
186,0.0,0.787724,9.70787e-07,,0.0,,mongenerator-battery_634_existing,,,
187,0.0,0.7878,2.66578e-06,,0.0,,mongenerator-battery_634_existing,,,
188,0.0,0.775231,-1.44605e-05,,0.0,,mongenerator-battery_634_existing,,,
189,0.0,0.773301,-4.60086e-05,,0.0,,mongenerator-battery_634_existing,,,
190,0.0,0.778357,5.48394e-06,,0.0,,mongenerator-battery_634_existing,,,
191,0.0,0.790812,9.148739999999999e-06,,0.0,,mongenerator-battery_634_existing,,,
192,0.0,0.7862520000000001,-4.04601e-06,,0.0,,mongenerator-battery_634_existing,,,
193,0.0,0.79119,3.3097500000000004e-06,,0.0,,mongenerator-battery_634_existing,,,
194,0.0,0.793905,6.86401e-05,,0.0,,mongenerator-battery_634_existing,,,
195,0.0,0.794933,2.5426e-05,,0.0,,mongenerator-battery_634_existing,,,
196,0.0,0.795489,1.3761300000000002e-05,,0.0,,mongenerator-battery_634_existing,,,
197,0.0,0.7940560000000001,-7.94054e-07,,0.0,,mongenerator-battery_634_existing,,,
198,0.0,0.793882,-4.80739e-06,,0.0,,mongenerator-battery_634_existing,,,
199,0.0,0.7830729999999999,-9.2108e-06,,0.0,,mongenerator-battery_634_existing,,,
200,0.0,0.783339,6.310369999999999e-06,,0.0,,mongenerator-battery_634_existing,,,
201,0.0,0.787027,4.08192e-07,,0.0,,mongenerator-battery_634_existing,,,
202,0.0,0.802175,2.60538e-06,,0.0,,mongenerator-battery_634_existing,,,
203,0.0,0.7791680000000001,-6.72045e-07,,0.0,,mongenerator-battery_634_existing,,,
204,0.0,0.801746,3.60173e-06,,0.0,,mongenerator-battery_634_existing,,,
205,0.0,0.789909,-4.74069e-06,,0.0,,mongenerator-battery_634_existing,,,
206,0.0,0.785937,-6.573980000000001e-08,,0.0,,mongenerator-battery_634_existing,,,
207,0.0,0.785723,-3.31541e-06,,0.0,,mongenerator-battery_634_existing,,,
208,0.0,0.785838,1.85672e-06,,0.0,,mongenerator-battery_634_existing,,,
209,0.0,0.782833,-5.06734e-05,,0.0,,mongenerator-battery_634_existing,,,
210,0.0,0.777174,-4.3447300000000005e-06,,0.0,,mongenerator-battery_634_existing,,,
211,0.0,0.775517,-2.66183e-05,,0.0,,mongenerator-battery_634_existing,,,
212,0.0,0.777992,4.24189e-05,,0.0,,mongenerator-battery_634_existing,,,
213,0.0,0.783974,3.63256e-06,,0.0,,mongenerator-battery_634_existing,,,
214,0.0,0.788181,7.15926e-05,,0.0,,mongenerator-battery_634_existing,,,
215,0.0,0.788884,4.55114e-07,,0.0,,mongenerator-battery_634_existing,,,
216,0.0,0.789169,5.53252e-06,,0.0,,mongenerator-battery_634_existing,,,
217,0.0,0.789423,4.71707e-06,,0.0,,mongenerator-battery_634_existing,,,
218,0.0,0.789489,1.1512999999999999e-06,,0.0,,mongenerator-battery_634_existing,,,
219,0.0,0.789542,9.62312e-07,,0.0,,mongenerator-battery_634_existing,,,
220,0.0,0.789565,4.13105e-07,,0.0,,mongenerator-battery_634_existing,,,
221,0.0,0.789092,-8.12653e-06,,0.0,,mongenerator-battery_634_existing,,,
222,0.0,0.7888390000000001,-4.62343e-06,,0.0,,mongenerator-battery_634_existing,,,
223,0.0,0.787716,-6.8846e-07,,0.0,,mongenerator-battery_634_existing,,,
224,0.0,0.7872859999999999,-4.99276e-07,,0.0,,mongenerator-battery_634_existing,,,
225,0.0,0.786782,-1.44104e-07,,0.0,,mongenerator-battery_634_existing,,,
226,0.0,0.786429,-4.1945599999999997e-07,,0.0,,mongenerator-battery_634_existing,,,
227,0.0,0.7811899999999999,-2.4986900000000005e-06,,0.0,,mongenerator-battery_634_existing,,,
228,0.0,0.8135399999999999,-4.5370399999999994e-07,,0.0,,mongenerator-battery_634_existing,,,
229,0.0,0.785989,-4.71128e-07,,0.0,,mongenerator-battery_634_existing,,,
230,0.0,0.793957,2.28007e-06,,0.0,,mongenerator-battery_634_existing,,,
231,0.0,0.7957029999999999,3.02048e-05,,0.0,,mongenerator-battery_634_existing,,,
232,0.0,0.7880729999999999,-3.3806300000000003e-06,,0.0,,mongenerator-battery_634_existing,,,
233,0.0,0.785619,-1.23228e-06,,0.0,,mongenerator-battery_634_existing,,,
234,0.0,0.771875,-6.09181e-07,,0.0,,mongenerator-battery_634_existing,,,
235,0.0,0.77431,3.47726e-06,,0.0,,mongenerator-battery_634_existing,,,
236,0.0,0.777863,5.9163199999999996e-05,,0.0,,mongenerator-battery_634_existing,,,
237,0.0,0.7836810000000001,3.51911e-06,,0.0,,mongenerator-battery_634_existing,,,
238,0.0,0.7880550000000001,7.44222e-05,,0.0,,mongenerator-battery_634_existing,,,
239,0.0,0.788904,5.6073e-07,,0.0,,mongenerator-battery_634_existing,,,
240,0.0,0.788914,9.712139999999999e-07,,0.0,,mongenerator-battery_634_existing,,,
241,0.0,0.787683,-2.04783e-05,,0.0,,mongenerator-battery_634_existing,,,
242,0.0,0.78979,3.6657e-05,,0.0,,mongenerator-battery_634_existing,,,
243,0.0,0.790072,4.40462e-06,,0.0,,mongenerator-battery_634_existing,,,
244,0.0,0.790269,4.05742e-06,,0.0,,mongenerator-battery_634_existing,,,
245,0.0,0.788691,-9.443399999999999e-07,,0.0,,mongenerator-battery_634_existing,,,
246,0.0,0.788626,-1.5422999999999998e-06,,0.0,,mongenerator-battery_634_existing,,,
247,0.0,0.777885,-8.70405e-06,,0.0,,mongenerator-battery_634_existing,,,
248,0.0,0.7774300000000001,-7.72789e-06,,0.0,,mongenerator-battery_634_existing,,,
249,0.0,0.7841100000000001,3.0718900000000003e-06,,0.0,,mongenerator-battery_634_existing,,,
250,0.0,0.811541,3.64975e-06,,0.0,,mongenerator-battery_634_existing,,,
251,0.0,0.851764,-4.67086e-07,,0.0,,mongenerator-battery_634_existing,,,
252,0.0,0.8707530000000001,-1.26364e-06,,0.0,,mongenerator-battery_634_existing,,,
253,0.0,0.8788600000000001,-4.19041e-06,,0.0,,mongenerator-battery_634_existing,,,
254,0.0,0.8659950000000001,8.06664e-07,,0.0,,mongenerator-battery_634_existing,,,
255,0.0,0.843462,-1.00712e-05,,0.0,,mongenerator-battery_634_existing,,,
256,0.0,0.810064,2.12761e-07,,0.0,,mongenerator-battery_634_existing,,,
257,0.0,0.785246,2.72466e-07,,0.0,,mongenerator-battery_634_existing,,,
258,0.0,0.779802,-3.80075e-06,,0.0,,mongenerator-battery_634_existing,,,
259,0.0,0.773805,-5.4095000000000005e-06,,0.0,,mongenerator-battery_634_existing,,,
