hour,t(sec),V1,VAngle1,V2,VAngle2,V3,VAngle3,I1,IAngle1,I2,IAngle2,I3,IAngle3,Name,P1(kW),P2(kW),P3(kW)
1,0.0,159.92600000000002,1.93668e-08,159.92600000000002,-120.0,159.92600000000002,120.0,1.16415e-10,0.0,5.206249999999999e-10,26.5651,4.65661e-10,180.0,monvsource-lead_gen_634_1,1.8617785290000004e-11,8.326147375e-11,7.447130108600001e-11
2,0.0,159.92600000000002,1.93668e-08,159.92600000000002,-120.0,159.92600000000002,120.0,1.16415e-10,0.0,5.206249999999999e-10,26.5651,4.65661e-10,180.0,monvsource-lead_gen_634_1,1.8617785290000004e-11,8.326147375e-11,7.447130108600001e-11
3,0.0,159.92600000000002,1.93668e-08,159.92600000000002,-120.0,159.92600000000002,120.0,1.16415e-10,0.0,5.206249999999999e-10,26.5651,4.65661e-10,180.0,monvsource-lead_gen_634_1,1.8617785290000004e-11,8.326147375e-11,7.447130108600001e-11
4,0.0,159.92600000000002,1.93668e-08,159.92600000000002,-120.0,159.92600000000002,120.0,1.16415e-10,0.0,5.206249999999999e-10,26.5651,4.65661e-10,180.0,monvsource-lead_gen_634_1,1.8617785290000004e-11,8.326147375e-11,7.447130108600001e-11
5,0.0,159.92600000000002,1.93668e-08,159.92600000000002,-120.0,159.92600000000002,120.0,1.16415e-10,0.0,5.206249999999999e-10,26.5651,4.65661e-10,180.0,monvsource-lead_gen_634_1,1.8617785290000004e-11,8.326147375e-11,7.447130108600001e-11
6,0.0,159.92600000000002,1.93668e-08,159.92600000000002,-120.0,159.92600000000002,120.0,1.16415e-10,0.0,5.206249999999999e-10,26.5651,4.65661e-10,180.0,monvsource-lead_gen_634_1,1.8617785290000004e-11,8.326147375e-11,7.447130108600001e-11
7,0.0,159.92600000000002,1.93668e-08,159.92600000000002,-120.0,159.92600000000002,120.0,1.16415e-10,0.0,5.206249999999999e-10,26.5651,4.65661e-10,180.0,monvsource-lead_gen_634_1,1.8617785290000004e-11,8.326147375e-11,7.447130108600001e-11
8,0.0,159.92600000000002,1.93668e-08,159.92600000000002,-120.0,159.92600000000002,120.0,1.16415e-10,0.0,5.206249999999999e-10,26.5651,4.65661e-10,180.0,monvsource-lead_gen_634_1,1.8617785290000004e-11,8.326147375e-11,7.447130108600001e-11
9,0.0,159.92600000000002,1.93668e-08,159.92600000000002,-120.0,159.92600000000002,120.0,1.16415e-10,0.0,5.206249999999999e-10,26.5651,4.65661e-10,180.0,monvsource-lead_gen_634_1,1.8617785290000004e-11,8.326147375e-11,7.447130108600001e-11
10,0.0,159.92600000000002,1.93668e-08,159.92600000000002,-120.0,159.92600000000002,120.0,1.16415e-10,0.0,5.206249999999999e-10,26.5651,4.65661e-10,180.0,monvsource-lead_gen_634_1,1.8617785290000004e-11,8.326147375e-11,7.447130108600001e-11
11,0.0,159.92600000000002,1.93668e-08,159.92600000000002,-120.0,159.92600000000002,120.0,1.16415e-10,0.0,5.206249999999999e-10,26.5651,4.65661e-10,180.0,monvsource-lead_gen_634_1,1.8617785290000004e-11,8.326147375e-11,7.447130108600001e-11
12,0.0,159.92600000000002,1.93668e-08,159.92600000000002,-120.0,159.92600000000002,120.0,1.16415e-10,0.0,5.206249999999999e-10,26.5651,4.65661e-10,180.0,monvsource-lead_gen_634_1,1.8617785290000004e-11,8.326147375e-11,7.447130108600001e-11
13,0.0,159.92600000000002,1.93668e-08,159.92600000000002,-120.0,159.92600000000002,120.0,1.16415e-10,0.0,5.206249999999999e-10,26.5651,4.65661e-10,180.0,monvsource-lead_gen_634_1,1.8617785290000004e-11,8.326147375e-11,7.447130108600001e-11
14,0.0,159.92600000000002,1.93668e-08,159.92600000000002,-120.0,159.92600000000002,120.0,1.16415e-10,0.0,5.206249999999999e-10,26.5651,4.65661e-10,180.0,monvsource-lead_gen_634_1,1.8617785290000004e-11,8.326147375e-11,7.447130108600001e-11
15,0.0,159.92600000000002,1.93668e-08,159.92600000000002,-120.0,159.92600000000002,120.0,1.16415e-10,0.0,5.206249999999999e-10,26.5651,4.65661e-10,180.0,monvsource-lead_gen_634_1,1.8617785290000004e-11,8.326147375e-11,7.447130108600001e-11
16,0.0,159.92600000000002,1.93668e-08,159.92600000000002,-120.0,159.92600000000002,120.0,1.16415e-10,0.0,5.206249999999999e-10,26.5651,4.65661e-10,180.0,monvsource-lead_gen_634_1,1.8617785290000004e-11,8.326147375e-11,7.447130108600001e-11
17,0.0,159.92600000000002,1.93668e-08,159.92600000000002,-120.0,159.92600000000002,120.0,1.16415e-10,0.0,5.206249999999999e-10,26.5651,4.65661e-10,180.0,monvsource-lead_gen_634_1,1.8617785290000004e-11,8.326147375e-11,7.447130108600001e-11
18,0.0,159.92600000000002,1.93668e-08,159.92600000000002,-120.0,159.92600000000002,120.0,1.16415e-10,0.0,5.206249999999999e-10,26.5651,4.65661e-10,180.0,monvsource-lead_gen_634_1,1.8617785290000004e-11,8.326147375e-11,7.447130108600001e-11
19,0.0,159.92600000000002,1.93668e-08,159.92600000000002,-120.0,159.92600000000002,120.0,1.16415e-10,0.0,5.206249999999999e-10,26.5651,4.65661e-10,180.0,monvsource-lead_gen_634_1,1.8617785290000004e-11,8.326147375e-11,7.447130108600001e-11
20,0.0,159.92600000000002,1.93668e-08,159.92600000000002,-120.0,159.92600000000002,120.0,1.16415e-10,0.0,5.206249999999999e-10,26.5651,4.65661e-10,180.0,monvsource-lead_gen_634_1,1.8617785290000004e-11,8.326147375e-11,7.447130108600001e-11
21,0.0,159.92600000000002,1.93668e-08,159.92600000000002,-120.0,159.92600000000002,120.0,1.16415e-10,0.0,5.206249999999999e-10,26.5651,4.65661e-10,180.0,monvsource-lead_gen_634_1,1.8617785290000004e-11,8.326147375e-11,7.447130108600001e-11
22,0.0,159.92600000000002,1.93668e-08,159.92600000000002,-120.0,159.92600000000002,120.0,1.16415e-10,0.0,5.206249999999999e-10,26.5651,4.65661e-10,180.0,monvsource-lead_gen_634_1,1.8617785290000004e-11,8.326147375e-11,7.447130108600001e-11
23,0.0,159.92600000000002,1.93668e-08,159.92600000000002,-120.0,159.92600000000002,120.0,1.16415e-10,0.0,5.206249999999999e-10,26.5651,4.65661e-10,180.0,monvsource-lead_gen_634_1,1.8617785290000004e-11,8.326147375e-11,7.447130108600001e-11
24,0.0,159.92600000000002,1.93668e-08,159.92600000000002,-120.0,159.92600000000002,120.0,1.16415e-10,0.0,5.206249999999999e-10,26.5651,4.65661e-10,180.0,monvsource-lead_gen_634_1,1.8617785290000004e-11,8.326147375e-11,7.447130108600001e-11
25,0.0,159.92600000000002,1.93668e-08,159.92600000000002,-120.0,159.92600000000002,120.0,1.16415e-10,0.0,5.206249999999999e-10,26.5651,4.65661e-10,180.0,monvsource-lead_gen_634_1,1.8617785290000004e-11,8.326147375e-11,7.447130108600001e-11
26,0.0,159.92600000000002,1.93668e-08,159.92600000000002,-120.0,159.92600000000002,120.0,1.16415e-10,0.0,5.206249999999999e-10,26.5651,4.65661e-10,180.0,monvsource-lead_gen_634_1,1.8617785290000004e-11,8.326147375e-11,7.447130108600001e-11
27,0.0,159.92600000000002,1.93668e-08,159.92600000000002,-120.0,159.92600000000002,120.0,1.16415e-10,0.0,5.206249999999999e-10,26.5651,4.65661e-10,180.0,monvsource-lead_gen_634_1,1.8617785290000004e-11,8.326147375e-11,7.447130108600001e-11
28,0.0,159.92600000000002,1.93668e-08,159.92600000000002,-120.0,159.92600000000002,120.0,1.16415e-10,0.0,5.206249999999999e-10,26.5651,4.65661e-10,180.0,monvsource-lead_gen_634_1,1.8617785290000004e-11,8.326147375e-11,7.447130108600001e-11
29,0.0,159.92600000000002,1.93668e-08,159.92600000000002,-120.0,159.92600000000002,120.0,1.16415e-10,0.0,5.206249999999999e-10,26.5651,4.65661e-10,180.0,monvsource-lead_gen_634_1,1.8617785290000004e-11,8.326147375e-11,7.447130108600001e-11
30,0.0,159.92600000000002,1.93668e-08,159.92600000000002,-120.0,159.92600000000002,120.0,1.16415e-10,0.0,5.206249999999999e-10,26.5651,4.65661e-10,180.0,monvsource-lead_gen_634_1,1.8617785290000004e-11,8.326147375e-11,7.447130108600001e-11
31,0.0,159.92600000000002,1.93668e-08,159.92600000000002,-120.0,159.92600000000002,120.0,1.16415e-10,0.0,5.206249999999999e-10,26.5651,4.65661e-10,180.0,monvsource-lead_gen_634_1,1.8617785290000004e-11,8.326147375e-11,7.447130108600001e-11
32,0.0,159.92600000000002,1.93668e-08,159.92600000000002,-120.0,159.92600000000002,120.0,1.16415e-10,0.0,5.206249999999999e-10,26.5651,4.65661e-10,180.0,monvsource-lead_gen_634_1,1.8617785290000004e-11,8.326147375e-11,7.447130108600001e-11
33,0.0,159.92600000000002,1.93668e-08,159.92600000000002,-120.0,159.92600000000002,120.0,1.16415e-10,0.0,5.206249999999999e-10,26.5651,4.65661e-10,180.0,monvsource-lead_gen_634_1,1.8617785290000004e-11,8.326147375e-11,7.447130108600001e-11
34,0.0,159.92600000000002,1.93668e-08,159.92600000000002,-120.0,159.92600000000002,120.0,1.16415e-10,0.0,5.206249999999999e-10,26.5651,4.65661e-10,180.0,monvsource-lead_gen_634_1,1.8617785290000004e-11,8.326147375e-11,7.447130108600001e-11
35,0.0,159.92600000000002,1.93668e-08,159.92600000000002,-120.0,159.92600000000002,120.0,1.16415e-10,0.0,5.206249999999999e-10,26.5651,4.65661e-10,180.0,monvsource-lead_gen_634_1,1.8617785290000004e-11,8.326147375e-11,7.447130108600001e-11
36,0.0,159.92600000000002,1.93668e-08,159.92600000000002,-120.0,159.92600000000002,120.0,1.16415e-10,0.0,5.206249999999999e-10,26.5651,4.65661e-10,180.0,monvsource-lead_gen_634_1,1.8617785290000004e-11,8.326147375e-11,7.447130108600001e-11
37,0.0,159.92600000000002,1.93668e-08,159.92600000000002,-120.0,159.92600000000002,120.0,1.16415e-10,0.0,5.206249999999999e-10,26.5651,4.65661e-10,180.0,monvsource-lead_gen_634_1,1.8617785290000004e-11,8.326147375e-11,7.447130108600001e-11
38,0.0,159.92600000000002,1.93668e-08,159.92600000000002,-120.0,159.92600000000002,120.0,1.16415e-10,0.0,5.206249999999999e-10,26.5651,4.65661e-10,180.0,monvsource-lead_gen_634_1,1.8617785290000004e-11,8.326147375e-11,7.447130108600001e-11
39,0.0,159.92600000000002,1.93668e-08,159.92600000000002,-120.0,159.92600000000002,120.0,1.16415e-10,0.0,5.206249999999999e-10,26.5651,4.65661e-10,180.0,monvsource-lead_gen_634_1,1.8617785290000004e-11,8.326147375e-11,7.447130108600001e-11
40,0.0,159.92600000000002,1.93668e-08,159.92600000000002,-120.0,159.92600000000002,120.0,1.16415e-10,0.0,5.206249999999999e-10,26.5651,4.65661e-10,180.0,monvsource-lead_gen_634_1,1.8617785290000004e-11,8.326147375e-11,7.447130108600001e-11
41,0.0,159.92600000000002,1.93668e-08,159.92600000000002,-120.0,159.92600000000002,120.0,1.16415e-10,0.0,5.206249999999999e-10,26.5651,4.65661e-10,180.0,monvsource-lead_gen_634_1,1.8617785290000004e-11,8.326147375e-11,7.447130108600001e-11
42,0.0,159.92600000000002,1.93668e-08,159.92600000000002,-120.0,159.92600000000002,120.0,1.16415e-10,0.0,5.206249999999999e-10,26.5651,4.65661e-10,180.0,monvsource-lead_gen_634_1,1.8617785290000004e-11,8.326147375e-11,7.447130108600001e-11
43,0.0,159.92600000000002,1.93668e-08,159.92600000000002,-120.0,159.92600000000002,120.0,1.16415e-10,0.0,5.206249999999999e-10,26.5651,4.65661e-10,180.0,monvsource-lead_gen_634_1,1.8617785290000004e-11,8.326147375e-11,7.447130108600001e-11
44,0.0,159.92600000000002,1.93668e-08,159.92600000000002,-120.0,159.92600000000002,120.0,1.16415e-10,0.0,5.206249999999999e-10,26.5651,4.65661e-10,180.0,monvsource-lead_gen_634_1,1.8617785290000004e-11,8.326147375e-11,7.447130108600001e-11
45,0.0,159.92600000000002,1.93668e-08,159.92600000000002,-120.0,159.92600000000002,120.0,1.16415e-10,0.0,5.206249999999999e-10,26.5651,4.65661e-10,180.0,monvsource-lead_gen_634_1,1.8617785290000004e-11,8.326147375e-11,7.447130108600001e-11
46,0.0,159.92600000000002,1.93668e-08,159.92600000000002,-120.0,159.92600000000002,120.0,1.16415e-10,0.0,5.206249999999999e-10,26.5651,4.65661e-10,180.0,monvsource-lead_gen_634_1,1.8617785290000004e-11,8.326147375e-11,7.447130108600001e-11
47,0.0,159.92600000000002,1.93668e-08,159.92600000000002,-120.0,159.92600000000002,120.0,1.16415e-10,0.0,5.206249999999999e-10,26.5651,4.65661e-10,180.0,monvsource-lead_gen_634_1,1.8617785290000004e-11,8.326147375e-11,7.447130108600001e-11
48,0.0,159.92600000000002,1.93668e-08,159.92600000000002,-120.0,159.92600000000002,120.0,1.16415e-10,0.0,5.206249999999999e-10,26.5651,4.65661e-10,180.0,monvsource-lead_gen_634_1,1.8617785290000004e-11,8.326147375e-11,7.447130108600001e-11
49,0.0,159.92600000000002,1.93668e-08,159.92600000000002,-120.0,159.92600000000002,120.0,1.16415e-10,0.0,5.206249999999999e-10,26.5651,4.65661e-10,180.0,monvsource-lead_gen_634_1,1.8617785290000004e-11,8.326147375e-11,7.447130108600001e-11
50,0.0,159.92600000000002,1.93668e-08,159.92600000000002,-120.0,159.92600000000002,120.0,1.16415e-10,0.0,5.206249999999999e-10,26.5651,4.65661e-10,180.0,monvsource-lead_gen_634_1,1.8617785290000004e-11,8.326147375e-11,7.447130108600001e-11
51,0.0,159.92600000000002,1.93668e-08,159.92600000000002,-120.0,159.92600000000002,120.0,1.16415e-10,0.0,5.206249999999999e-10,26.5651,4.65661e-10,180.0,monvsource-lead_gen_634_1,1.8617785290000004e-11,8.326147375e-11,7.447130108600001e-11
52,0.0,159.92600000000002,1.93668e-08,159.92600000000002,-120.0,159.92600000000002,120.0,1.16415e-10,0.0,5.206249999999999e-10,26.5651,4.65661e-10,180.0,monvsource-lead_gen_634_1,1.8617785290000004e-11,8.326147375e-11,7.447130108600001e-11
53,0.0,159.92600000000002,1.93668e-08,159.92600000000002,-120.0,159.92600000000002,120.0,1.16415e-10,0.0,5.206249999999999e-10,26.5651,4.65661e-10,180.0,monvsource-lead_gen_634_1,1.8617785290000004e-11,8.326147375e-11,7.447130108600001e-11
54,0.0,159.92600000000002,1.93668e-08,159.92600000000002,-120.0,159.92600000000002,120.0,1.16415e-10,0.0,5.206249999999999e-10,26.5651,4.65661e-10,180.0,monvsource-lead_gen_634_1,1.8617785290000004e-11,8.326147375e-11,7.447130108600001e-11
55,0.0,159.92600000000002,1.93668e-08,159.92600000000002,-120.0,159.92600000000002,120.0,1.16415e-10,0.0,5.206249999999999e-10,26.5651,4.65661e-10,180.0,monvsource-lead_gen_634_1,1.8617785290000004e-11,8.326147375e-11,7.447130108600001e-11
56,0.0,159.92600000000002,1.93668e-08,159.92600000000002,-120.0,159.92600000000002,120.0,1.16415e-10,0.0,5.206249999999999e-10,26.5651,4.65661e-10,180.0,monvsource-lead_gen_634_1,1.8617785290000004e-11,8.326147375e-11,7.447130108600001e-11
57,0.0,159.92600000000002,1.93668e-08,159.92600000000002,-120.0,159.92600000000002,120.0,1.16415e-10,0.0,5.206249999999999e-10,26.5651,4.65661e-10,180.0,monvsource-lead_gen_634_1,1.8617785290000004e-11,8.326147375e-11,7.447130108600001e-11
58,0.0,159.92600000000002,1.93668e-08,159.92600000000002,-120.0,159.92600000000002,120.0,1.16415e-10,0.0,5.206249999999999e-10,26.5651,4.65661e-10,180.0,monvsource-lead_gen_634_1,1.8617785290000004e-11,8.326147375e-11,7.447130108600001e-11
59,0.0,159.92600000000002,1.93668e-08,159.92600000000002,-120.0,159.92600000000002,120.0,1.16415e-10,0.0,5.206249999999999e-10,26.5651,4.65661e-10,180.0,monvsource-lead_gen_634_1,1.8617785290000004e-11,8.326147375e-11,7.447130108600001e-11
60,0.0,159.924,-0.00325402,159.92600000000002,-120.0,159.92700000000002,120.0,257.907,179.90400000000002,0.000346995,-29.9982,0.00034699599999999997,-149.998,monvsource-lead_gen_634_1,41.245519068,5.5493522370000004e-05,5.5494029292e-05
61,0.0,159.925,-0.00107759,159.92600000000002,-120.0,159.92600000000002,120.0,85.3836,179.968,0.000346994,-29.9981,0.000346995,-149.998,monvsource-lead_gen_634_1,13.654972230000002,5.5493362444e-05,5.5493522370000004e-05
62,0.0,159.925,-0.00105102,159.92600000000002,-120.0,159.92600000000002,120.0,83.2777,179.96900000000002,0.000346995,-29.9981,0.000346995,-149.998,monvsource-lead_gen_634_1,13.318186172499999,5.5493522370000004e-05,5.5493522370000004e-05
63,0.0,159.925,-0.00176058,159.92600000000002,-120.0,159.92600000000002,120.0,139.512,179.94799999999998,0.000346994,-29.9982,0.000346995,-149.998,monvsource-lead_gen_634_1,22.3114566,5.5493362444e-05,5.5493522370000004e-05
64,0.0,159.924,-0.00217633,159.92600000000002,-120.0,159.92600000000002,120.0,172.467,179.93599999999998,0.000346995,-29.998,0.00034699599999999997,-149.998,monvsource-lead_gen_634_1,27.581612508000003,5.5493522370000004e-05,5.5493682296e-05
65,0.0,159.923,-0.0036493000000000003,159.92600000000002,-120.0,159.92700000000002,120.0,289.252,179.893,0.000346994,-29.9982,0.00034699599999999997,-149.998,monvsource-lead_gen_634_1,46.258047596000004,5.5493362444e-05,5.5494029292e-05
66,0.0,159.922,-0.00522827,159.925,-120.0,159.92700000000002,120.0,414.494,179.84599999999998,0.00034699300000000003,-29.9983,0.000346997,-149.998,monvsource-lead_gen_634_1,66.286709468,5.549285552500001e-05,5.549418921900001e-05
67,0.0,159.922,-0.0052114,159.925,-120.0,159.92700000000002,120.0,413.156,179.847,0.00034699300000000003,-29.9983,0.00034699599999999997,-149.998,monvsource-lead_gen_634_1,66.072733832,5.549285552500001e-05,5.5494029292e-05
68,0.0,159.922,-0.00482774,159.925,-120.0,159.92700000000002,120.0,382.719,179.858,0.000346994,-29.9981,0.000346997,-149.998,monvsource-lead_gen_634_1,61.20518791799999,5.549301545e-05,5.549418921900001e-05
69,0.0,159.923,-0.00425468,159.92600000000002,-120.0,159.92700000000002,120.0,337.264,179.875,0.00034699300000000003,-29.9983,0.00034699599999999997,-149.998,monvsource-lead_gen_634_1,53.936270672,5.549320251800001e-05,5.5494029292e-05
70,0.0,159.924,-0.00288072,159.92600000000002,-120.0,159.92600000000002,120.0,228.30900000000003,179.915,0.000346995,-29.998,0.00034699599999999997,-149.998,monvsource-lead_gen_634_1,36.512088516000006,5.5493522370000004e-05,5.5493682296e-05
71,0.0,159.925,-0.00178612,159.92600000000002,-120.0,159.92600000000002,120.0,141.537,179.947,0.000346994,-29.9982,0.00034699599999999997,-149.998,monvsource-lead_gen_634_1,22.635304725,5.5493362444e-05,5.5493682296e-05
72,0.0,159.924,-0.00241732,159.92600000000002,-120.0,159.92600000000002,120.0,191.57,179.929,0.000346994,-29.9981,0.000346995,-149.998,monvsource-lead_gen_634_1,30.63664068,5.5493362444e-05,5.5493522370000004e-05
73,0.0,159.925,-0.00189199,159.92600000000002,-120.0,159.92600000000002,120.0,149.928,179.94400000000002,0.000346994,-29.9981,0.000346995,-149.998,monvsource-lead_gen_634_1,23.9772354,5.5493362444e-05,5.5493522370000004e-05
74,0.0,159.925,-0.00175447,159.92600000000002,-120.0,159.92600000000002,120.0,139.028,179.94799999999998,0.000346994,-29.9981,0.000346995,-149.998,monvsource-lead_gen_634_1,22.2340529,5.5493362444e-05,5.5493522370000004e-05
75,0.0,159.925,-0.0017777000000000001,159.92600000000002,-120.0,159.92600000000002,120.0,140.869,179.94799999999998,0.000346994,-29.9981,0.00034699599999999997,-149.998,monvsource-lead_gen_634_1,22.528474825,5.5493362444e-05,5.5493682296e-05
76,0.0,159.925,-0.00180213,159.92600000000002,-120.0,159.92600000000002,120.0,142.805,179.947,0.000346994,-29.9982,0.00034699599999999997,-149.998,monvsource-lead_gen_634_1,22.838089625000006,5.5493362444e-05,5.5493682296e-05
77,0.0,159.925,-0.00195179,159.92600000000002,-120.0,159.92600000000002,120.0,154.668,179.94299999999998,0.000346994,-29.9982,0.00034699599999999997,-149.998,monvsource-lead_gen_634_1,24.735279900000002,5.5493362444e-05,5.5493682296e-05
78,0.0,159.925,-0.00197103,159.92600000000002,-120.0,159.92600000000002,120.0,156.19299999999998,179.942,0.000346994,-29.9981,0.00034699599999999997,-149.998,monvsource-lead_gen_634_1,24.979165525,5.5493362444e-05,5.5493682296e-05
79,0.0,159.924,-0.00299233,159.92600000000002,-120.0,159.92600000000002,120.0,237.158,179.912,0.00034699300000000003,-29.9982,0.00034699599999999997,-149.998,monvsource-lead_gen_634_1,37.927255992,5.549320251800001e-05,5.5493682296e-05
80,0.0,159.924,-0.00288324,159.92600000000002,-120.0,159.92600000000002,120.0,228.50900000000001,179.915,0.000346995,-29.9982,0.00034699599999999997,-149.998,monvsource-lead_gen_634_1,36.544073316,5.5493522370000004e-05,5.5493682296e-05
81,0.0,159.925,-0.0017296,159.92600000000002,-120.0,159.92600000000002,120.0,137.05700000000002,179.949,0.000346994,-29.9983,0.00034699599999999997,-149.998,monvsource-lead_gen_634_1,21.918840725000006,5.5493362444e-05,5.5493682296e-05
82,0.0,159.92700000000002,0.00102398,159.92600000000002,-120.0,159.92600000000002,120.0,81.1093,0.028861400000000002,0.000346994,-29.9981,0.000346994,-149.998,monvsource-lead_gen_634_1,12.971567021100004,5.5493362444e-05,5.5493362444e-05
83,0.0,159.929,0.00385081,159.92600000000002,-120.0,159.925,120.0,304.911,0.11205699999999999,0.00034699599999999997,-29.998,0.000346994,-149.998,monvsource-lead_gen_634_1,48.764111319,5.5493682296e-05,5.549301545e-05
