hour,t(sec),P1(kW),Q1(kvar),P2(kW),Q2(kvar),P3(kW),Name,Q3(kvar),P4(kW),Q4(kvar),V1,VAngle1,V2,VAngle2,V3,VAngle3,I1,IAngle1,I2,IAngle2,I3,IAngle3
1,0.0,0.0,0.0,,0.0,,mongenerator-battery_634_existing,,,,,,,,,,,,,,,
2,0.0,0.0,0.0,,0.0,,mongenerator-battery_634_existing,,,,,,,,,,,,,,,
3,0.0,0.0,0.0,,0.0,,mongenerator-battery_634_existing,,,,,,,,,,,,,,,
4,0.0,0.0,0.0,,0.0,,mongenerator-battery_634_existing,,,,,,,,,,,,,,,
5,0.0,0.0,0.0,,0.0,,mongenerator-battery_634_existing,,,,,,,,,,,,,,,
6,0.0,0.0,0.0,,0.0,,mongenerator-battery_634_existing,,,,,,,,,,,,,,,
7,0.0,0.0,0.0,,0.0,,mongenerator-battery_634_existing,,,,,,,,,,,,,,,
8,0.0,0.0,0.0,,0.0,,mongenerator-battery_634_existing,,,,,,,,,,,,,,,
9,0.0,0.0,0.0,,0.0,,mongenerator-battery_634_existing,,,,,,,,,,,,,,,
10,0.0,0.0,0.0,,0.0,,mongenerator-battery_634_existing,,,,,,,,,,,,,,,
11,0.0,0.0,0.0,,0.0,,mongenerator-battery_634_existing,,,,,,,,,,,,,,,
12,0.0,0.0,0.0,,0.0,,mongenerator-battery_634_existing,,,,,,,,,,,,,,,
13,0.0,0.0,0.0,,0.0,,mongenerator-battery_634_existing,,,,,,,,,,,,,,,
14,0.0,0.0,0.0,,0.0,,mongenerator-battery_634_existing,,,,,,,,,,,,,,,
15,0.0,0.0,0.0,,0.0,,mongenerator-battery_634_existing,,,,,,,,,,,,,,,
16,0.0,0.0,0.0,,0.0,,mongenerator-battery_634_existing,,,,,,,,,,,,,,,
17,0.0,0.0,0.0,,0.0,,mongenerator-battery_634_existing,,,,,,,,,,,,,,,
18,0.0,0.0,0.0,,0.0,,mongenerator-battery_634_existing,,,,,,,,,,,,,,,
19,0.0,0.0,0.0,,0.0,,mongenerator-battery_634_existing,,,,,,,,,,,,,,,
20,0.0,0.0,0.0,,0.0,,mongenerator-battery_634_existing,,,,,,,,,,,,,,,
21,0.0,0.0,0.0,,0.0,,mongenerator-battery_634_existing,,,,,,,,,,,,,,,
22,0.0,0.0,0.0,,0.0,,mongenerator-battery_634_existing,,,,,,,,,,,,,,,
23,0.0,0.0,0.0,,0.0,,mongenerator-battery_634_existing,,,,,,,,,,,,,,,
24,0.0,0.0,0.0,,0.0,,mongenerator-battery_634_existing,,,,,,,,,,,,,,,
25,0.0,0.0,0.0,,0.0,,mongenerator-battery_634_existing,,,,,,,,,,,,,,,
26,0.0,0.0,0.0,,0.0,,mongenerator-battery_634_existing,,,,,,,,,,,,,,,
27,0.0,0.0,0.0,,0.0,,mongenerator-battery_634_existing,,,,,,,,,,,,,,,
28,0.0,0.0,0.0,,0.0,,mongenerator-battery_634_existing,,,,,,,,,,,,,,,
29,0.0,0.0,0.0,,0.0,,mongenerator-battery_634_existing,,,,,,,,,,,,,,,
30,0.0,0.0,0.0,,0.0,,mongenerator-battery_634_existing,,,,,,,,,,,,,,,
31,0.0,0.0,0.0,,0.0,,mongenerator-battery_634_existing,,,,,,,,,,,,,,,
32,0.0,0.0,0.0,,0.0,,mongenerator-battery_634_existing,,,,,,,,,,,,,,,
33,0.0,0.0,0.0,,0.0,,mongenerator-battery_634_existing,,,,,,,,,,,,,,,
34,0.0,0.0,0.0,,0.0,,mongenerator-battery_634_existing,,,,,,,,,,,,,,,
35,0.0,0.0,0.0,,0.0,,mongenerator-battery_634_existing,,,,,,,,,,,,,,,
36,0.0,-32.0261,-0.00011585600000000001,,0.0,,mongenerator-battery_634_existing,,,,,,,,,,,,,,,
37,0.0,33.52,-1.11211e-05,,0.0,,mongenerator-battery_634_existing,,,,,,,,,,,,,,,
38,0.0,-58.7714,-0.00040687599999999997,,0.0,,mongenerator-battery_634_existing,,,,,,,,,,,,,,,
39,0.0,79.0,-5.1963699999999995e-06,,0.0,,mongenerator-battery_634_existing,,,,,,,,,,,,,,,
40,0.0,0.0,0.0,,0.0,,mongenerator-battery_634_existing,,,,,,,,,,,,,,,
41,0.0,0.0,0.0,,0.0,,mongenerator-battery_634_existing,,,,,,,,,,,,,,,
42,0.0,-19.157,-5.69864e-06,,0.0,,mongenerator-battery_634_existing,,,,,,,,,,,,,,,
43,0.0,-19.007,2.1766300000000002e-05,,0.0,,mongenerator-battery_634_existing,,,,,,,,,,,,,,,
44,0.0,-25.1632,-0.000226823,,0.0,,mongenerator-battery_634_existing,,,,,,,,,,,,,,,
45,0.0,-74.72800000000001,-5.81247e-05,,0.0,,mongenerator-battery_634_existing,,,,,,,,,,,,,,,
46,0.0,-22.471,-1.6182399999999999e-06,,0.0,,mongenerator-battery_634_existing,,,,,,,,,,,,,,,
47,0.0,19.98,-9.035e-06,,0.0,,mongenerator-battery_634_existing,,,,,,,,,,,,,,,
48,0.0,-2.56796,3.90326e-05,,0.0,,mongenerator-battery_634_existing,,,,,,,,,,,,,,,
49,0.0,17.5521,0.00064084,,0.0,,mongenerator-battery_634_existing,,,,,,,,,,,,,,,
50,0.0,22.7181,0.000150113,,0.0,,mongenerator-battery_634_existing,,,,,,,,,,,,,,,
51,0.0,23.055999999999997,9.21166e-05,,0.0,,mongenerator-battery_634_existing,,,,,,,,,,,,,,,
52,0.0,23.325,1.65196e-05,,0.0,,mongenerator-battery_634_existing,,,,,,,,,,,,,,,
53,0.0,8.397,-2.32977e-06,,0.0,,mongenerator-battery_634_existing,,,,,,,,,,,,,,,
54,0.0,8.848989999999999,-2.65959e-05,,0.0,,mongenerator-battery_634_existing,,,,,,,,,,,,,,,
55,0.0,-27.3829,0.00019082900000000003,,0.0,,mongenerator-battery_634_existing,,,,,,,,,,,,,,,
56,0.0,-17.029,-1.16995e-05,,0.0,,mongenerator-battery_634_existing,,,,,,,,,,,,,,,
57,0.0,-14.104000000000001,6.67932e-06,,0.0,,mongenerator-battery_634_existing,,,,,,,,,,,,,,,
58,0.0,33.069,-1.21355e-05,,0.0,,mongenerator-battery_634_existing,,,,,,,,,,,,,,,
59,0.0,78.9999,0.00109326,,0.0,,mongenerator-battery_634_existing,,,,,,,,,,,,,,,
60,0.0,-43.00899999999999,4.5660400000000004e-10,,0.0,,mongenerator-battery_634_existing,,,,,,,,,,,,,,,
61,0.0,65.4897,0.000296269,,0.0,,mongenerator-battery_634_existing,,,,,,,,,,,,,,,
62,0.0,0.0,0.0,,0.0,,mongenerator-battery_634_existing,,,,,,,,,,,,,,,
63,0.0,0.0,0.0,,0.0,,mongenerator-battery_634_existing,,,,,,,,,,,,,,,
64,0.0,0.0,0.0,,0.0,,mongenerator-battery_634_existing,,,,,,,,,,,,,,,
65,0.0,0.0,0.0,,0.0,,mongenerator-battery_634_existing,,,,,,,,,,,,,,,
66,0.0,0.0,0.0,,0.0,,mongenerator-battery_634_existing,,,,,,,,,,,,,,,
67,0.0,0.0,0.0,,0.0,,mongenerator-battery_634_existing,,,,,,,,,,,,,,,
68,0.0,0.0,0.0,,0.0,,mongenerator-battery_634_existing,,,,,,,,,,,,,,,
69,0.0,0.0,0.0,,0.0,,mongenerator-battery_634_existing,,,,,,,,,,,,,,,
70,0.0,0.0,0.0,,0.0,,mongenerator-battery_634_existing,,,,,,,,,,,,,,,
71,0.0,0.0,0.0,,0.0,,mongenerator-battery_634_existing,,,,,,,,,,,,,,,
72,0.0,0.0,0.0,,0.0,,mongenerator-battery_634_existing,,,,,,,,,,,,,,,
73,0.0,0.0,0.0,,0.0,,mongenerator-battery_634_existing,,,,,,,,,,,,,,,
74,0.0,0.0,0.0,,0.0,,mongenerator-battery_634_existing,,,,,,,,,,,,,,,
75,0.0,0.0,0.0,,0.0,,mongenerator-battery_634_existing,,,,,,,,,,,,,,,
76,0.0,0.0,0.0,,0.0,,mongenerator-battery_634_existing,,,,,,,,,,,,,,,
77,0.0,0.0,0.0,,0.0,,mongenerator-battery_634_existing,,,,,,,,,,,,,,,
78,0.0,0.0,0.0,,0.0,,mongenerator-battery_634_existing,,,,,,,,,,,,,,,
79,0.0,0.0,0.0,,0.0,,mongenerator-battery_634_existing,,,,,,,,,,,,,,,
80,0.0,0.0,0.0,,0.0,,mongenerator-battery_634_existing,,,,,,,,,,,,,,,
81,0.0,0.0,0.0,,0.0,,mongenerator-battery_634_existing,,,,,,,,,,,,,,,
82,0.0,0.0,0.0,,0.0,,mongenerator-battery_634_existing,,,,,,,,,,,,,,,
83,0.0,-86.4116,-0.000858173,,0.0,,mongenerator-battery_634_existing,,,,,,,,,,,,,,,
84,0.0,-114.39399999999999,0.000439502,,0.0,,mongenerator-battery_634_existing,,,,,,,,,,,,,,,
85,0.0,-106.195,0.00012715100000000002,,0.0,,mongenerator-battery_634_existing,,,,,,,,,,,,,,,
86,0.0,0.0,0.0,,0.0,,mongenerator-battery_634_existing,,,,,,,,,,,,,,,
87,0.0,0.0,0.0,,0.0,,mongenerator-battery_634_existing,,,,,,,,,,,,,,,
88,0.0,0.0,0.0,,0.0,,mongenerator-battery_634_existing,,,,,,,,,,,,,,,
89,0.0,79.0009,0.00086505,,0.0,,mongenerator-battery_634_existing,,,,,,,,,,,,,,,
90,0.0,78.9992,-0.000838375,,0.0,,mongenerator-battery_634_existing,,,,,,,,,,,,,,,
91,0.0,78.9998,-0.000160241,,0.0,,mongenerator-battery_634_existing,,,,,,,,,,,,,,,
92,0.0,70.0001,0.000113005,,0.0,,mongenerator-battery_634_existing,,,,,,,,,,,,,,,
93,0.0,0.0,0.0,,0.0,,mongenerator-battery_634_existing,,,,,,,,,,,,,,,
94,0.0,0.0,0.0,,0.0,,mongenerator-battery_634_existing,,,,,,,,,,,,,,,
95,0.0,0.0,0.0,,0.0,,mongenerator-battery_634_existing,,,,,,,,,,,,,,,
96,0.0,0.0,0.0,,0.0,,mongenerator-battery_634_existing,,,,,,,,,,,,,,,
97,0.0,0.0,0.0,,0.0,,mongenerator-battery_634_existing,,,,,,,,,,,,,,,
98,0.0,0.0,0.0,,0.0,,mongenerator-battery_634_existing,,,,,,,,,,,,,,,
99,0.0,0.0,0.0,,0.0,,mongenerator-battery_634_existing,,,,,,,,,,,,,,,
100,0.0,0.0,0.0,,0.0,,mongenerator-battery_634_existing,,,,,,,,,,,,,,,
101,0.0,0.0,0.0,,0.0,,mongenerator-battery_634_existing,,,,,,,,,,,,,,,
102,0.0,0.0,0.0,,0.0,,mongenerator-battery_634_existing,,,,,,,,,,,,,,,
103,0.0,0.0,0.0,,0.0,,mongenerator-battery_634_existing,,,,,,,,,,,,,,,
104,0.0,0.0,0.0,,0.0,,mongenerator-battery_634_existing,,,,,,,,,,,,,,,
105,0.0,0.0,0.0,,0.0,,mongenerator-battery_634_existing,,,,,,,,,,,,,,,
106,0.0,0.0,0.0,,0.0,,mongenerator-battery_634_existing,,,,,,,,,,,,,,,
107,0.0,-59.1457,0.00042155,,0.0,,mongenerator-battery_634_existing,,,,,,,,,,,,,,,
108,0.0,-100.536,0.000530806,,0.0,,mongenerator-battery_634_existing,,,,,,,,,,,,,,,
109,0.0,-123.553,0.00036216199999999997,,0.0,,mongenerator-battery_634_existing,,,,,,,,,,,,,,,
110,0.0,0.0,0.0,,0.0,,mongenerator-battery_634_existing,,,,,,,,,,,,,,,
111,0.0,0.0,0.0,,0.0,,mongenerator-battery_634_existing,,,,,,,,,,,,,,,
112,0.0,3.45305,1.91087e-05,,0.0,,mongenerator-battery_634_existing,,,,,,,,,,,,,,,
113,0.0,79.0,1.4825700000000002e-08,,0.0,,mongenerator-battery_634_existing,,,,,,,,,,,,,,,
114,0.0,78.9991,-0.000576806,,0.0,,mongenerator-battery_634_existing,,,,,,,,,,,,,,,
115,0.0,78.9999,-0.00012614,,0.0,,mongenerator-battery_634_existing,,,,,,,,,,,,,,,
116,0.0,66.5471,0.000143999,,0.0,,mongenerator-battery_634_existing,,,,,,,,,,,,,,,
117,0.0,0.0,0.0,,0.0,,mongenerator-battery_634_existing,,,,,,,,,,,,,,,
118,0.0,0.0,0.0,,0.0,,mongenerator-battery_634_existing,,,,,,,,,,,,,,,
119,0.0,0.0,0.0,,0.0,,mongenerator-battery_634_existing,,,,,,,,,,,,,,,
120,0.0,0.0,0.0,,0.0,,mongenerator-battery_634_existing,,,,,,,,,,,,,,,
121,0.0,0.0,0.0,,0.0,,mongenerator-battery_634_existing,,,,,,,,,,,,,,,
122,0.0,0.0,0.0,,0.0,,mongenerator-battery_634_existing,,,,,,,,,,,,,,,
123,0.0,0.0,0.0,,0.0,,mongenerator-battery_634_existing,,,,,,,,,,,,,,,
124,0.0,0.0,0.0,,0.0,,mongenerator-battery_634_existing,,,,,,,,,,,,,,,
125,0.0,0.0,0.0,,0.0,,mongenerator-battery_634_existing,,,,,,,,,,,,,,,
126,0.0,0.0,0.0,,0.0,,mongenerator-battery_634_existing,,,,,,,,,,,,,,,
127,0.0,0.0,0.0,,0.0,,mongenerator-battery_634_existing,,,,,,,,,,,,,,,
128,0.0,0.0,0.0,,0.0,,mongenerator-battery_634_existing,,,,,,,,,,,,,,,
129,0.0,0.0,0.0,,0.0,,mongenerator-battery_634_existing,,,,,,,,,,,,,,,
130,0.0,0.0,0.0,,0.0,,mongenerator-battery_634_existing,,,,,,,,,,,,,,,
131,0.0,-33.4737,-0.00024207799999999998,,0.0,,mongenerator-battery_634_existing,,,,,,,,,,,,,,,
132,0.0,9.45222,-2.54129e-05,,0.0,,mongenerator-battery_634_existing,,,,,,,,,,,,,,,
133,0.0,-21.7756,-0.000148231,,0.0,,mongenerator-battery_634_existing,,,,,,,,,,,,,,,
134,0.0,-28.5957,1.39752e-05,,0.0,,mongenerator-battery_634_existing,,,,,,,,,,,,,,,
135,0.0,-36.4273,2.04351e-05,,0.0,,mongenerator-battery_634_existing,,,,,,,,,,,,,,,
136,0.0,28.8966,0.00022952400000000002,,0.0,,mongenerator-battery_634_existing,,,,,,,,,,,,,,,
137,0.0,79.0005,0.000553648,,0.0,,mongenerator-battery_634_existing,,,,,,,,,,,,,,,
138,0.0,2.92351,-7.27066e-06,,0.0,,mongenerator-battery_634_existing,,,,,,,,,,,,,,,
139,0.0,0.0,0.0,,0.0,,mongenerator-battery_634_existing,,,,,,,,,,,,,,,
140,0.0,0.0,0.0,,0.0,,mongenerator-battery_634_existing,,,,,,,,,,,,,,,
141,0.0,0.0,0.0,,0.0,,mongenerator-battery_634_existing,,,,,,,,,,,,,,,
142,0.0,0.0,0.0,,0.0,,mongenerator-battery_634_existing,,,,,,,,,,,,,,,
143,0.0,0.0,0.0,,0.0,,mongenerator-battery_634_existing,,,,,,,,,,,,,,,
144,0.0,0.0,0.0,,0.0,,mongenerator-battery_634_existing,,,,,,,,,,,,,,,
145,0.0,0.0,0.0,,0.0,,mongenerator-battery_634_existing,,,,,,,,,,,,,,,
146,0.0,0.0,0.0,,0.0,,mongenerator-battery_634_existing,,,,,,,,,,,,,,,
147,0.0,0.0,0.0,,0.0,,mongenerator-battery_634_existing,,,,,,,,,,,,,,,
148,0.0,0.0,0.0,,0.0,,mongenerator-battery_634_existing,,,,,,,,,,,,,,,
149,0.0,0.0,0.0,,0.0,,mongenerator-battery_634_existing,,,,,,,,,,,,,,,
150,0.0,0.0,0.0,,0.0,,mongenerator-battery_634_existing,,,,,,,,,,,,,,,
151,0.0,0.0,0.0,,0.0,,mongenerator-battery_634_existing,,,,,,,,,,,,,,,
152,0.0,0.0,0.0,,0.0,,mongenerator-battery_634_existing,,,,,,,,,,,,,,,
153,0.0,0.0,0.0,,0.0,,mongenerator-battery_634_existing,,,,,,,,,,,,,,,
154,0.0,0.0,0.0,,0.0,,mongenerator-battery_634_existing,,,,,,,,,,,,,,,
155,0.0,-50.9035,-0.0008728089999999999,,0.0,,mongenerator-battery_634_existing,,,,,,,,,,,,,,,
156,0.0,-72.4636,0.000168157,,0.0,,mongenerator-battery_634_existing,,,,,,,,,,,,,,,
157,0.0,-47.2044,-0.000128346,,0.0,,mongenerator-battery_634_existing,,,,,,,,,,,,,,,
158,0.0,-35.4101,-4.4999799999999996e-05,,0.0,,mongenerator-battery_634_existing,,,,,,,,,,,,,,,
159,0.0,2.92875,1.98294e-05,,0.0,,mongenerator-battery_634_existing,,,,,,,,,,,,,,,
160,0.0,79.0006,0.00056742,,0.0,,mongenerator-battery_634_existing,,,,,,,,,,,,,,,
161,0.0,78.9996,-0.000291873,,0.0,,mongenerator-battery_634_existing,,,,,,,,,,,,,,,
162,0.0,45.0522,-0.000115581,,0.0,,mongenerator-battery_634_existing,,,,,,,,,,,,,,,
163,0.0,0.0,0.0,,0.0,,mongenerator-battery_634_existing,,,,,,,,,,,,,,,
164,0.0,0.0,0.0,,0.0,,mongenerator-battery_634_existing,,,,,,,,,,,,,,,
165,0.0,0.0,0.0,,0.0,,mongenerator-battery_634_existing,,,,,,,,,,,,,,,
166,0.0,0.0,0.0,,0.0,,mongenerator-battery_634_existing,,,,,,,,,,,,,,,
167,0.0,0.0,0.0,,0.0,,mongenerator-battery_634_existing,,,,,,,,,,,,,,,
168,0.0,0.0,0.0,,0.0,,mongenerator-battery_634_existing,,,,,,,,,,,,,,,
169,0.0,0.0,0.0,,0.0,,mongenerator-battery_634_existing,,,,,,,,,,,,,,,
170,0.0,0.0,0.0,,0.0,,mongenerator-battery_634_existing,,,,,,,,,,,,,,,
171,0.0,0.0,0.0,,0.0,,mongenerator-battery_634_existing,,,,,,,,,,,,,,,
172,0.0,0.0,0.0,,0.0,,mongenerator-battery_634_existing,,,,,,,,,,,,,,,
173,0.0,0.0,0.0,,0.0,,mongenerator-battery_634_existing,,,,,,,,,,,,,,,
174,0.0,0.0,0.0,,0.0,,mongenerator-battery_634_existing,,,,,,,,,,,,,,,
175,0.0,0.0,0.0,,0.0,,mongenerator-battery_634_existing,,,,,,,,,,,,,,,
176,0.0,0.0,0.0,,0.0,,mongenerator-battery_634_existing,,,,,,,,,,,,,,,
177,0.0,0.0,0.0,,0.0,,mongenerator-battery_634_existing,,,,,,,,,,,,,,,
178,0.0,-46.0651,0.000326587,,0.0,,mongenerator-battery_634_existing,,,,,,,,,,,,,,,
179,0.0,46.0647,-0.000845403,,0.0,,mongenerator-battery_634_existing,,,,,,,,,,,,,,,
180,0.0,0.0,0.0,,0.0,,mongenerator-battery_634_existing,,,,,,,,,,,,,,,
181,0.0,24.0359,-0.00030385,,0.0,,mongenerator-battery_634_existing,,,,,,,,,,,,,,,
182,0.0,45.155,-4.74144e-06,,0.0,,mongenerator-battery_634_existing,,,,,,,,,,,,,,,
183,0.0,0.0,0.0,,0.0,,mongenerator-battery_634_existing,,,,,,,,,,,,,,,
184,0.0,0.0,0.0,,0.0,,mongenerator-battery_634_existing,,,,,,,,,,,,,,,
185,0.0,0.0,0.0,,0.0,,mongenerator-battery_634_existing,,,,,,,,,,,,,,,
186,0.0,0.0,0.0,,0.0,,mongenerator-battery_634_existing,,,,,,,,,,,,,,,
187,0.0,0.0,0.0,,0.0,,mongenerator-battery_634_existing,,,,,,,,,,,,,,,
188,0.0,-50.555,0.0009731960000000001,,0.0,,mongenerator-battery_634_existing,,,,,,,,,,,,,,,
189,0.0,-59.2253,-0.000343695,,0.0,,mongenerator-battery_634_existing,,,,,,,,,,,,,,,
190,0.0,-40.659,-8.999190000000001e-05,,0.0,,mongenerator-battery_634_existing,,,,,,,,,,,,,,,
191,0.0,6.307,1.8624800000000001e-07,,0.0,,mongenerator-battery_634_existing,,,,,,,,,,,,,,,
192,0.0,-12.7528,0.00020401599999999998,,0.0,,mongenerator-battery_634_existing,,,,,,,,,,,,,,,
193,0.0,6.247000000000001,4.12013e-06,,0.0,,mongenerator-battery_634_existing,,,,,,,,,,,,,,,
194,0.0,17.192999999999998,-4.90963e-05,,0.0,,mongenerator-battery_634_existing,,,,,,,,,,,,,,,
195,0.0,21.3269,-0.00016920299999999999,,0.0,,mongenerator-battery_634_existing,,,,,,,,,,,,,,,
196,0.0,23.6439,-0.000248836,,0.0,,mongenerator-battery_634_existing,,,,,,,,,,,,,,,
197,0.0,19.721,-4.21218e-06,,0.0,,mongenerator-battery_634_existing,,,,,,,,,,,,,,,
198,0.0,19.874000000000002,-4.56175e-05,,0.0,,mongenerator-battery_634_existing,,,,,,,,,,,,,,,
199,0.0,-18.6668,0.000169079,,0.0,,mongenerator-battery_634_existing,,,,,,,,,,,,,,,
200,0.0,-16.018,-2.37938e-06,,0.0,,mongenerator-battery_634_existing,,,,,,,,,,,,,,,
201,0.0,-0.782,2.9861e-07,,0.0,,mongenerator-battery_634_existing,,,,,,,,,,,,,,,
202,0.0,62.535,-1.15551e-05,,0.0,,mongenerator-battery_634_existing,,,,,,,,,,,,,,,
203,0.0,-25.905,-4.63279e-06,,0.0,,mongenerator-battery_634_existing,,,,,,,,,,,,,,,
204,0.0,58.166000000000004,-1.5998599999999999e-06,,0.0,,mongenerator-battery_634_existing,,,,,,,,,,,,,,,
205,0.0,14.902999999999999,-0.000164473,,0.0,,mongenerator-battery_634_existing,,,,,,,,,,,,,,,
206,0.0,0.0,0.0,,0.0,,mongenerator-battery_634_existing,,,,,,,,,,,,,,,
207,0.0,0.0,0.0,,0.0,,mongenerator-battery_634_existing,,,,,,,,,,,,,,,
208,0.0,0.0,0.0,,0.0,,mongenerator-battery_634_existing,,,,,,,,,,,,,,,
209,0.0,-11.669,-5.01093e-06,,0.0,,mongenerator-battery_634_existing,,,,,,,,,,,,,,,
210,0.0,-36.0331,-8.866370000000001e-05,,0.0,,mongenerator-battery_634_existing,,,,,,,,,,,,,,,
211,0.0,-46.0298,0.000164216,,0.0,,mongenerator-battery_634_existing,,,,,,,,,,,,,,,
212,0.0,-36.7309,-0.00205524,,0.0,,mongenerator-battery_634_existing,,,,,,,,,,,,,,,
213,0.0,-15.484000000000002,-1.30729e-05,,0.0,,mongenerator-battery_634_existing,,,,,,,,,,,,,,,
214,0.0,0.0,0.0,,0.0,,mongenerator-battery_634_existing,,,,,,,,,,,,,,,
215,0.0,0.0,0.0,,0.0,,mongenerator-battery_634_existing,,,,,,,,,,,,,,,
216,0.0,0.0,0.0,,0.0,,mongenerator-battery_634_existing,,,,,,,,,,,,,,,
217,0.0,0.0,0.0,,0.0,,mongenerator-battery_634_existing,,,,,,,,,,,,,,,
218,0.0,0.0,0.0,,0.0,,mongenerator-battery_634_existing,,,,,,,,,,,,,,,
219,0.0,0.0,0.0,,0.0,,mongenerator-battery_634_existing,,,,,,,,,,,,,,,
220,0.0,0.0,0.0,,0.0,,mongenerator-battery_634_existing,,,,,,,,,,,,,,,
221,0.0,0.0,0.0,,0.0,,mongenerator-battery_634_existing,,,,,,,,,,,,,,,
222,0.0,0.0,0.0,,0.0,,mongenerator-battery_634_existing,,,,,,,,,,,,,,,
223,0.0,0.0,0.0,,0.0,,mongenerator-battery_634_existing,,,,,,,,,,,,,,,
224,0.0,0.0,0.0,,0.0,,mongenerator-battery_634_existing,,,,,,,,,,,,,,,
225,0.0,0.0,0.0,,0.0,,mongenerator-battery_634_existing,,,,,,,,,,,,,,,
226,0.0,0.0,0.0,,0.0,,mongenerator-battery_634_existing,,,,,,,,,,,,,,,
227,0.0,0.0,0.0,,0.0,,mongenerator-battery_634_existing,,,,,,,,,,,,,,,
228,0.0,79.0,-6.3266e-06,,0.0,,mongenerator-battery_634_existing,,,,,,,,,,,,,,,
229,0.0,0.0,0.0,,0.0,,mongenerator-battery_634_existing,,,,,,,,,,,,,,,
230,0.0,33.247,-6.777810000000001e-05,,0.0,,mongenerator-battery_634_existing,,,,,,,,,,,,,,,
231,0.0,40.449,2.01396e-05,,0.0,,mongenerator-battery_634_existing,,,,,,,,,,,,,,,
232,0.0,8.894,-2.6584500000000004e-06,,0.0,,mongenerator-battery_634_existing,,,,,,,,,,,,,,,
233,0.0,0.0,0.0,,0.0,,mongenerator-battery_634_existing,,,,,,,,,,,,,,,
234,0.0,-43.957,-1.6575e-05,,0.0,,mongenerator-battery_634_existing,,,,,,,,,,,,,,,
235,0.0,-48.9695,0.000480344,,0.0,,mongenerator-battery_634_existing,,,,,,,,,,,,,,,
236,0.0,-35.6464,-0.00271963,,0.0,,mongenerator-battery_634_existing,,,,,,,,,,,,,,,
237,0.0,-15.472000000000001,-1.55821e-05,,0.0,,mongenerator-battery_634_existing,,,,,,,,,,,,,,,
238,0.0,0.0,0.0,,0.0,,mongenerator-battery_634_existing,,,,,,,,,,,,,,,
239,0.0,0.0,0.0,,0.0,,mongenerator-battery_634_existing,,,,,,,,,,,,,,,
240,0.0,-1.266,8.471250000000001e-07,,0.0,,mongenerator-battery_634_existing,,,,,,,,,,,,,,,
241,0.0,-7.170030000000001,-2.4486100000000003e-05,,0.0,,mongenerator-battery_634_existing,,,,,,,,,,,,,,,
242,0.0,1.057,-5.26209e-07,,0.0,,mongenerator-battery_634_existing,,,,,,,,,,,,,,,
243,0.0,1.88,1.3125799999999998e-06,,0.0,,mongenerator-battery_634_existing,,,,,,,,,,,,,,,
244,0.0,2.5610000000000004,-3.50827e-06,,0.0,,mongenerator-battery_634_existing,,,,,,,,,,,,,,,
245,0.0,-2.004,1.71286e-07,,0.0,,mongenerator-battery_634_existing,,,,,,,,,,,,,,,
246,0.0,-1.331,1.20289e-06,,0.0,,mongenerator-battery_634_existing,,,,,,,,,,,,,,,
247,0.0,-39.147,-4.61549e-06,,0.0,,mongenerator-battery_634_existing,,,,,,,,,,,,,,,
248,0.0,-39.315,-5.95365e-06,,0.0,,mongenerator-battery_634_existing,,,,,,,,,,,,,,,
249,0.0,-2.727,1.5016e-06,,0.0,,mongenerator-battery_634_existing,,,,,,,,,,,,,,,
250,0.0,0.0,0.0,,0.0,,mongenerator-battery_634_existing,,,,,,,,,,,,,,,
251,0.0,77.1449,-1.1740499999999999e-05,,0.0,,mongenerator-battery_634_existing,,,,,,,,,,,,,,,
252,0.0,78.9999,-3.00728e-05,,0.0,,mongenerator-battery_634_existing,,,,,,,,,,,,,,,
253,0.0,79.0001,0.00012405899999999999,,0.0,,mongenerator-battery_634_existing,,,,,,,,,,,,,,,
