hour,t(sec),P1(kW),Q1(kvar),P2(kW),Q2(kvar),P3(kW),Name,Q3(kvar),P4(kW),Q4(kvar)
1,0.0,0.79,4.50019e-07,,0.0,,mongenerator-battery_634_existing,,,
2,0.0,0.7899970000000001,5.5026e-06,,0.0,,mongenerator-battery_634_existing,,,
3,0.0,0.79,6.06235e-08,,0.0,,mongenerator-battery_634_existing,,,
4,0.0,0.79,1.24582e-08,,0.0,,mongenerator-battery_634_existing,,,
5,0.0,0.79,1.0624e-08,,0.0,,mongenerator-battery_634_existing,,,
6,0.0,0.79,-1.94879e-09,,0.0,,mongenerator-battery_634_existing,,,
7,0.0,0.7900010000000001,3.3690199999999996e-07,,0.0,,mongenerator-battery_634_existing,,,
8,0.0,0.79,9.188370000000001e-07,,0.0,,mongenerator-battery_634_existing,,,
9,0.0,0.79,1.41513e-06,,0.0,,mongenerator-battery_634_existing,,,
10,0.0,0.789995,-2.9622700000000004e-06,,0.0,,mongenerator-battery_634_existing,,,
11,0.0,0.7900010000000001,2.69927e-07,,0.0,,mongenerator-battery_634_existing,,,
12,0.0,0.7900229999999999,4.0275700000000005e-05,,0.0,,mongenerator-battery_634_existing,,,
13,0.0,0.789992,-4.6671100000000005e-06,,0.0,,mongenerator-battery_634_existing,,,
14,0.0,0.789992,-4.1162e-06,,0.0,,mongenerator-battery_634_existing,,,
15,0.0,0.790008,3.72092e-06,,0.0,,mongenerator-battery_634_existing,,,
16,0.0,0.7900020000000001,1.1048e-06,,0.0,,mongenerator-battery_634_existing,,,
17,0.0,0.789992,6.887660000000001e-06,,0.0,,mongenerator-battery_634_existing,,,
18,0.0,0.789994,2.26521e-05,,0.0,,mongenerator-battery_634_existing,,,
19,0.0,0.789996,2.8780599999999998e-06,,0.0,,mongenerator-battery_634_existing,,,
20,0.0,0.79,-4.86917e-07,,0.0,,mongenerator-battery_634_existing,,,
21,0.0,0.789999,-5.06159e-07,,0.0,,mongenerator-battery_634_existing,,,
22,0.0,0.79,-1.81096e-07,,0.0,,mongenerator-battery_634_existing,,,
23,0.0,0.7900020000000001,1.8240400000000003e-06,,0.0,,mongenerator-battery_634_existing,,,
24,0.0,0.790003,2.06877e-06,,0.0,,mongenerator-battery_634_existing,,,
25,0.0,0.7900010000000001,6.20454e-07,,0.0,,mongenerator-battery_634_existing,,,
26,0.0,0.79,3.27135e-07,,0.0,,mongenerator-battery_634_existing,,,
27,0.0,0.79,2.84561e-07,,0.0,,mongenerator-battery_634_existing,,,
28,0.0,0.79,1.70609e-07,,0.0,,mongenerator-battery_634_existing,,,
29,0.0,0.79,1.26699e-07,,0.0,,mongenerator-battery_634_existing,,,
30,0.0,0.789999,1.47699e-08,,0.0,,mongenerator-battery_634_existing,,,
31,0.0,0.7899970000000001,-2.68564e-07,,0.0,,mongenerator-battery_634_existing,,,
32,0.0,0.789999,2.12201e-06,,0.0,,mongenerator-battery_634_existing,,,
33,0.0,0.7900020000000001,-3.52049e-06,,0.0,,mongenerator-battery_634_existing,,,
34,0.0,0.790007,-4.8663599999999994e-06,,0.0,,mongenerator-battery_634_existing,,,
35,0.0,0.790007,-1.90472e-06,,0.0,,mongenerator-battery_634_existing,,,
36,0.0,-79.0,4.6181400000000005e-05,,0.0,,mongenerator-battery_634_existing,,,
37,0.0,0.789999,-9.74798e-07,,0.0,,mongenerator-battery_634_existing,,,
38,0.0,0.7900010000000001,-4.88983e-07,,0.0,,mongenerator-battery_634_existing,,,
39,0.0,0.7900020000000001,1.99154e-06,,0.0,,mongenerator-battery_634_existing,,,
40,0.0,0.7899649999999999,-1.17772e-05,,0.0,,mongenerator-battery_634_existing,,,
41,0.0,0.789974,2.15681e-05,,0.0,,mongenerator-battery_634_existing,,,
42,0.0,-78.9999,7.87683e-05,,0.0,,mongenerator-battery_634_existing,,,
43,0.0,-78.9998,-0.00011308200000000001,,0.0,,mongenerator-battery_634_existing,,,
44,0.0,-78.9975,0.00283215,,0.0,,mongenerator-battery_634_existing,,,
45,0.0,0.7899930000000001,-4.87069e-06,,0.0,,mongenerator-battery_634_existing,,,
46,0.0,0.79,1.73336e-07,,0.0,,mongenerator-battery_634_existing,,,
47,0.0,0.7900010000000001,3.51242e-07,,0.0,,mongenerator-battery_634_existing,,,
48,0.0,0.7900010000000001,2.70141e-07,,0.0,,mongenerator-battery_634_existing,,,
49,0.0,0.79,7.411189999999999e-08,,0.0,,mongenerator-battery_634_existing,,,
50,0.0,0.79,3.25847e-09,,0.0,,mongenerator-battery_634_existing,,,
51,0.0,0.79,-4.19533e-08,,0.0,,mongenerator-battery_634_existing,,,
52,0.0,0.79,1.61624e-09,,0.0,,mongenerator-battery_634_existing,,,
53,0.0,0.79,-1.20822e-07,,0.0,,mongenerator-battery_634_existing,,,
54,0.0,0.789999,-1.54396e-07,,0.0,,mongenerator-battery_634_existing,,,
55,0.0,0.789998,-4.52374e-07,,0.0,,mongenerator-battery_634_existing,,,
56,0.0,0.79,-2.05367e-07,,0.0,,mongenerator-battery_634_existing,,,
57,0.0,0.790014,2.19175e-05,,0.0,,mongenerator-battery_634_existing,,,
58,0.0,0.79,1.3581799999999998e-06,,0.0,,mongenerator-battery_634_existing,,,
59,0.0,0.79,1.0597799999999999e-06,,0.0,,mongenerator-battery_634_existing,,,
60,0.0,0.79,-6.20724e-07,,0.0,,mongenerator-battery_634_existing,,,
61,0.0,0.790036,7.04395e-05,,0.0,,mongenerator-battery_634_existing,,,
62,0.0,0.7899970000000001,-4.9995999999999995e-06,,0.0,,mongenerator-battery_634_existing,,,
63,0.0,0.789988,-2.21146e-05,,0.0,,mongenerator-battery_634_existing,,,
64,0.0,0.7899930000000001,-1.14764e-05,,0.0,,mongenerator-battery_634_existing,,,
65,0.0,0.789986,-1.88054e-05,,0.0,,mongenerator-battery_634_existing,,,
66,0.0,0.789987,-3.63089e-06,,0.0,,mongenerator-battery_634_existing,,,
67,0.0,0.79,-1.60848e-07,,0.0,,mongenerator-battery_634_existing,,,
68,0.0,0.7900010000000001,5.935779999999999e-07,,0.0,,mongenerator-battery_634_existing,,,
69,0.0,0.79,-1.1174799999999999e-07,,0.0,,mongenerator-battery_634_existing,,,
70,0.0,0.79,1.6923100000000002e-07,,0.0,,mongenerator-battery_634_existing,,,
71,0.0,0.7900010000000001,3.55745e-07,,0.0,,mongenerator-battery_634_existing,,,
72,0.0,0.7900010000000001,3.2233100000000003e-07,,0.0,,mongenerator-battery_634_existing,,,
73,0.0,0.79,1.20267e-07,,0.0,,mongenerator-battery_634_existing,,,
74,0.0,0.79,2.59354e-08,,0.0,,mongenerator-battery_634_existing,,,
75,0.0,0.79,2.75034e-08,,0.0,,mongenerator-battery_634_existing,,,
76,0.0,0.79,5.5308900000000005e-09,,0.0,,mongenerator-battery_634_existing,,,
77,0.0,0.79,-9.08981e-08,,0.0,,mongenerator-battery_634_existing,,,
78,0.0,0.789999,-1.5564e-07,,0.0,,mongenerator-battery_634_existing,,,
79,0.0,0.789998,-5.03245e-07,,0.0,,mongenerator-battery_634_existing,,,
80,0.0,0.789999,-2.34648e-07,,0.0,,mongenerator-battery_634_existing,,,
81,0.0,0.79,6.03541e-07,,0.0,,mongenerator-battery_634_existing,,,
82,0.0,0.789996,-2.56767e-06,,0.0,,mongenerator-battery_634_existing,,,
83,0.0,78.9999,-0.000204995,,0.0,,mongenerator-battery_634_existing,,,
84,0.0,79.0,1.4895699999999999e-05,,0.0,,mongenerator-battery_634_existing,,,
85,0.0,79.0002,0.000215685,,0.0,,mongenerator-battery_634_existing,,,
86,0.0,79.0,-1.644e-05,,0.0,,mongenerator-battery_634_existing,,,
87,0.0,0.79,-2.79839e-08,,0.0,,mongenerator-battery_634_existing,,,
88,0.0,0.790013,-3.8022800000000003e-06,,0.0,,mongenerator-battery_634_existing,,,
89,0.0,0.7900149999999999,-6.07361e-06,,0.0,,mongenerator-battery_634_existing,,,
90,0.0,-79.0005,-0.0006721030000000001,,0.0,,mongenerator-battery_634_existing,,,
91,0.0,-79.0027,-0.00796783,,0.0,,mongenerator-battery_634_existing,,,
92,0.0,-78.999,0.00201456,,0.0,,mongenerator-battery_634_existing,,,
93,0.0,-78.9953,0.00612323,,0.0,,mongenerator-battery_634_existing,,,
94,0.0,0.789994,-3.91977e-06,,0.0,,mongenerator-battery_634_existing,,,
95,0.0,0.7900010000000001,4.14298e-07,,0.0,,mongenerator-battery_634_existing,,,
96,0.0,0.7900010000000001,3.33123e-07,,0.0,,mongenerator-battery_634_existing,,,
97,0.0,0.79,1.28272e-07,,0.0,,mongenerator-battery_634_existing,,,
98,0.0,0.79,3.21802e-08,,0.0,,mongenerator-battery_634_existing,,,
99,0.0,0.79,3.0382700000000005e-08,,0.0,,mongenerator-battery_634_existing,,,
100,0.0,0.79,6.72016e-09,,0.0,,mongenerator-battery_634_existing,,,
101,0.0,0.79,-5.63553e-08,,0.0,,mongenerator-battery_634_existing,,,
102,0.0,0.789999,-1.78096e-07,,0.0,,mongenerator-battery_634_existing,,,
103,0.0,0.789998,-5.79027e-07,,0.0,,mongenerator-battery_634_existing,,,
104,0.0,0.789999,-7.48513e-07,,0.0,,mongenerator-battery_634_existing,,,
105,0.0,0.79,-1.3521100000000002e-06,,0.0,,mongenerator-battery_634_existing,,,
106,0.0,0.789994,-5.01177e-06,,0.0,,mongenerator-battery_634_existing,,,
107,0.0,78.9997,-0.000213849,,0.0,,mongenerator-battery_634_existing,,,
108,0.0,79.0,2.3031700000000003e-06,,0.0,,mongenerator-battery_634_existing,,,
109,0.0,79.0001,0.000132242,,0.0,,mongenerator-battery_634_existing,,,
110,0.0,79.0,4.86161e-06,,0.0,,mongenerator-battery_634_existing,,,
111,0.0,0.789999,-1.20683e-06,,0.0,,mongenerator-battery_634_existing,,,
112,0.0,0.790007,-3.0864299999999998e-06,,0.0,,mongenerator-battery_634_existing,,,
113,0.0,0.790009,-3.6164599999999998e-06,,0.0,,mongenerator-battery_634_existing,,,
114,0.0,-79.0002,-0.000239498,,0.0,,mongenerator-battery_634_existing,,,
115,0.0,-79.0011,-0.004131,,0.0,,mongenerator-battery_634_existing,,,
116,0.0,-78.9993,0.00147912,,0.0,,mongenerator-battery_634_existing,,,
117,0.0,-78.99600000000001,0.00413152,,0.0,,mongenerator-battery_634_existing,,,
118,0.0,78.9997,-0.00037021300000000004,,0.0,,mongenerator-battery_634_existing,,,
119,0.0,0.789994,-3.4130300000000006e-06,,0.0,,mongenerator-battery_634_existing,,,
120,0.0,0.7900010000000001,3.9599400000000005e-07,,0.0,,mongenerator-battery_634_existing,,,
121,0.0,0.7900010000000001,2.1025300000000002e-07,,0.0,,mongenerator-battery_634_existing,,,
122,0.0,0.79,4.4150400000000003e-08,,0.0,,mongenerator-battery_634_existing,,,
123,0.0,0.79,4.1933499999999996e-08,,0.0,,mongenerator-battery_634_existing,,,
124,0.0,0.79,3.19162e-08,,0.0,,mongenerator-battery_634_existing,,,
125,0.0,0.79,-5.84637e-08,,0.0,,mongenerator-battery_634_existing,,,
126,0.0,0.789999,-1.9285199999999999e-07,,0.0,,mongenerator-battery_634_existing,,,
127,0.0,0.789998,-6.001530000000001e-07,,0.0,,mongenerator-battery_634_existing,,,
128,0.0,0.789999,-2.29456e-07,,0.0,,mongenerator-battery_634_existing,,,
129,0.0,0.7900229999999999,3.8368099999999996e-05,,0.0,,mongenerator-battery_634_existing,,,
130,0.0,0.7899970000000001,-1.9234e-06,,0.0,,mongenerator-battery_634_existing,,,
131,0.0,78.9997,-0.000283709,,0.0,,mongenerator-battery_634_existing,,,
132,0.0,0.79,1.9137899999999998e-07,,0.0,,mongenerator-battery_634_existing,,,
133,0.0,79.0003,0.00028815599999999997,,0.0,,mongenerator-battery_634_existing,,,
134,0.0,79.002,0.00246949,,0.0,,mongenerator-battery_634_existing,,,
135,0.0,0.7900010000000001,1.33834e-06,,0.0,,mongenerator-battery_634_existing,,,
136,0.0,0.79,-8.751009999999999e-07,,0.0,,mongenerator-battery_634_existing,,,
137,0.0,0.790003,-1.58622e-06,,0.0,,mongenerator-battery_634_existing,,,
138,0.0,-79.0001,-9.865879999999999e-05,,0.0,,mongenerator-battery_634_existing,,,
139,0.0,-79.0008,-0.00312478,,0.0,,mongenerator-battery_634_existing,,,
140,0.0,-78.9983,0.00237522,,0.0,,mongenerator-battery_634_existing,,,
141,0.0,-78.9959,0.00331921,,0.0,,mongenerator-battery_634_existing,,,
142,0.0,0.789996,-3.24165e-06,,0.0,,mongenerator-battery_634_existing,,,
143,0.0,0.7900020000000001,6.54294e-07,,0.0,,mongenerator-battery_634_existing,,,
144,0.0,0.7900010000000001,3.84465e-07,,0.0,,mongenerator-battery_634_existing,,,
145,0.0,0.79,1.34601e-07,,0.0,,mongenerator-battery_634_existing,,,
146,0.0,0.79,2.2884900000000004e-08,,0.0,,mongenerator-battery_634_existing,,,
147,0.0,0.79,6.40625e-08,,0.0,,mongenerator-battery_634_existing,,,
148,0.0,0.79,8.439040000000001e-09,,0.0,,mongenerator-battery_634_existing,,,
149,0.0,0.79,-5.70851e-08,,0.0,,mongenerator-battery_634_existing,,,
150,0.0,0.79,-1.35329e-07,,0.0,,mongenerator-battery_634_existing,,,
151,0.0,0.789999,-3.2450000000000003e-07,,0.0,,mongenerator-battery_634_existing,,,
152,0.0,0.79,4.4555599999999997e-07,,0.0,,mongenerator-battery_634_existing,,,
153,0.0,0.790026,5.8488e-05,,0.0,,mongenerator-battery_634_existing,,,
154,0.0,0.79,-1.42286e-07,,0.0,,mongenerator-battery_634_existing,,,
155,0.0,79.0,1.1315699999999999e-05,,0.0,,mongenerator-battery_634_existing,,,
156,0.0,79.0,1.80388e-05,,0.0,,mongenerator-battery_634_existing,,,
157,0.0,79.0,-2.6523000000000003e-05,,0.0,,mongenerator-battery_634_existing,,,
158,0.0,79.0,2.7326e-06,,0.0,,mongenerator-battery_634_existing,,,
159,0.0,0.789999,-1.0996e-06,,0.0,,mongenerator-battery_634_existing,,,
160,0.0,0.7900020000000001,-1.2498700000000001e-06,,0.0,,mongenerator-battery_634_existing,,,
161,0.0,0.789984,6.008899999999999e-05,,0.0,,mongenerator-battery_634_existing,,,
162,0.0,-79.0001,-8.36791e-05,,0.0,,mongenerator-battery_634_existing,,,
163,0.0,-78.9978,0.00176689,,0.0,,mongenerator-battery_634_existing,,,
164,0.0,79.0007,0.0008749039999999999,,0.0,,mongenerator-battery_634_existing,,,
165,0.0,79.0022,0.00353073,,0.0,,mongenerator-battery_634_existing,,,
166,0.0,78.997,-0.00383289,,0.0,,mongenerator-battery_634_existing,,,
167,0.0,0.790007,4.3802800000000005e-06,,0.0,,mongenerator-battery_634_existing,,,
168,0.0,0.7900010000000001,4.14867e-07,,0.0,,mongenerator-battery_634_existing,,,
169,0.0,0.79,1.76863e-07,,0.0,,mongenerator-battery_634_existing,,,
170,0.0,0.79,2.74798e-08,,0.0,,mongenerator-battery_634_existing,,,
171,0.0,0.79,6.79665e-08,,0.0,,mongenerator-battery_634_existing,,,
172,0.0,0.79,6.38944e-09,,0.0,,mongenerator-battery_634_existing,,,
173,0.0,0.79,-5.626930000000001e-08,,0.0,,mongenerator-battery_634_existing,,,
174,0.0,0.79,-1.27607e-07,,0.0,,mongenerator-battery_634_existing,,,
175,0.0,0.789999,-3.1467300000000003e-07,,0.0,,mongenerator-battery_634_existing,,,
176,0.0,0.789999,-5.0667e-07,,0.0,,mongenerator-battery_634_existing,,,
177,0.0,0.79,-1.47481e-07,,0.0,,mongenerator-battery_634_existing,,,
178,0.0,0.7900010000000001,1.28447e-06,,0.0,,mongenerator-battery_634_existing,,,
179,0.0,0.7899609999999999,-2.2617399999999998e-05,,0.0,,mongenerator-battery_634_existing,,,
180,0.0,0.789995,-2.60897e-06,,0.0,,mongenerator-battery_634_existing,,,
181,0.0,0.79004,6.1413e-05,,0.0,,mongenerator-battery_634_existing,,,
182,0.0,0.790013,6.96793e-06,,0.0,,mongenerator-battery_634_existing,,,
183,0.0,0.789985,-1.4042700000000003e-06,,0.0,,mongenerator-battery_634_existing,,,
184,0.0,0.789982,1.6829500000000002e-05,,0.0,,mongenerator-battery_634_existing,,,
185,0.0,0.78999,2.9008e-05,,0.0,,mongenerator-battery_634_existing,,,
186,0.0,0.7899930000000001,4.60221e-05,,0.0,,mongenerator-battery_634_existing,,,
187,0.0,0.789994,9.97883e-06,,0.0,,mongenerator-battery_634_existing,,,
188,0.0,0.79,-1.26823e-06,,0.0,,mongenerator-battery_634_existing,,,
189,0.0,0.79,-1.3277200000000001e-06,,0.0,,mongenerator-battery_634_existing,,,
190,0.0,0.7900010000000001,-4.81045e-07,,0.0,,mongenerator-battery_634_existing,,,
191,0.0,0.7900050000000001,3.1368e-06,,0.0,,mongenerator-battery_634_existing,,,
192,0.0,0.790006,4.42264e-06,,0.0,,mongenerator-battery_634_existing,,,
193,0.0,0.7900020000000001,1.62033e-06,,0.0,,mongenerator-battery_634_existing,,,
194,0.0,0.7900010000000001,1.5171e-06,,0.0,,mongenerator-battery_634_existing,,,
195,0.0,0.7900010000000001,1.2226899999999999e-06,,0.0,,mongenerator-battery_634_existing,,,
196,0.0,0.79,4.885840000000001e-07,,0.0,,mongenerator-battery_634_existing,,,
197,0.0,0.79,4.6348599999999997e-07,,0.0,,mongenerator-battery_634_existing,,,
198,0.0,0.789998,-5.47044e-07,,0.0,,mongenerator-battery_634_existing,,,
199,0.0,0.789994,-4.56522e-07,,0.0,,mongenerator-battery_634_existing,,,
200,0.0,0.789998,3.59165e-06,,0.0,,mongenerator-battery_634_existing,,,
201,0.0,0.79,3.8511899999999997e-07,,0.0,,mongenerator-battery_634_existing,,,
202,0.0,0.7900010000000001,8.76183e-07,,0.0,,mongenerator-battery_634_existing,,,
203,0.0,0.79,-4.4021e-07,,0.0,,mongenerator-battery_634_existing,,,
204,0.0,0.7900020000000001,1.57835e-06,,0.0,,mongenerator-battery_634_existing,,,
205,0.0,0.79,-2.8347e-07,,0.0,,mongenerator-battery_634_existing,,,
206,0.0,0.7900010000000001,-6.33207e-07,,0.0,,mongenerator-battery_634_existing,,,
207,0.0,0.79001,-7.476239999999999e-06,,0.0,,mongenerator-battery_634_existing,,,
208,0.0,0.7899930000000001,7.73438e-06,,0.0,,mongenerator-battery_634_existing,,,
209,0.0,-78.9999,0.000148723,,0.0,,mongenerator-battery_634_existing,,,
210,0.0,-79.0019,-0.00715587,,0.0,,mongenerator-battery_634_existing,,,
211,0.0,-79.0006,-0.00492959,,0.0,,mongenerator-battery_634_existing,,,
212,0.0,-78.999,0.0032,,0.0,,mongenerator-battery_634_existing,,,
213,0.0,0.7899649999999999,-4.4596400000000006e-05,,0.0,,mongenerator-battery_634_existing,,,
214,0.0,79.0024,0.00315807,,0.0,,mongenerator-battery_634_existing,,,
215,0.0,78.9998,-0.00017051299999999999,,0.0,,mongenerator-battery_634_existing,,,
216,0.0,0.789995,-2.4937e-06,,0.0,,mongenerator-battery_634_existing,,,
217,0.0,0.79,1.5713900000000001e-07,,0.0,,mongenerator-battery_634_existing,,,
218,0.0,0.79,4.01422e-08,,0.0,,mongenerator-battery_634_existing,,,
219,0.0,0.79,4.83452e-08,,0.0,,mongenerator-battery_634_existing,,,
220,0.0,0.79,1.09096e-08,,0.0,,mongenerator-battery_634_existing,,,
221,0.0,0.79,-5.66135e-08,,0.0,,mongenerator-battery_634_existing,,,
222,0.0,0.789999,-1.7607700000000002e-07,,0.0,,mongenerator-battery_634_existing,,,
223,0.0,0.789998,-5.45924e-07,,0.0,,mongenerator-battery_634_existing,,,
224,0.0,0.789999,-1.81098e-07,,0.0,,mongenerator-battery_634_existing,,,
225,0.0,0.790006,7.2294100000000005e-06,,0.0,,mongenerator-battery_634_existing,,,
226,0.0,0.790021,3.40007e-05,,0.0,,mongenerator-battery_634_existing,,,
227,0.0,0.79,1.1990299999999999e-06,,0.0,,mongenerator-battery_634_existing,,,
228,0.0,78.9989,-0.00114925,,0.0,,mongenerator-battery_634_existing,,,
229,0.0,0.7900010000000001,4.75978e-07,,0.0,,mongenerator-battery_634_existing,,,
230,0.0,0.790031,2.9304499999999997e-05,,0.0,,mongenerator-battery_634_existing,,,
231,0.0,0.7900020000000001,2.2182599999999997e-06,,0.0,,mongenerator-battery_634_existing,,,
232,0.0,0.789975,-1.6353800000000003e-05,,0.0,,mongenerator-battery_634_existing,,,
233,0.0,0.79,-2.26266e-07,,0.0,,mongenerator-battery_634_existing,,,
234,0.0,-79.0,4.49806e-06,,0.0,,mongenerator-battery_634_existing,,,
235,0.0,-78.9992,0.0013277999999999999,,0.0,,mongenerator-battery_634_existing,,,
236,0.0,-78.9978,0.00185327,,0.0,,mongenerator-battery_634_existing,,,
237,0.0,0.789964,-4.5759899999999995e-05,,0.0,,mongenerator-battery_634_existing,,,
238,0.0,0.789999,1.2083399999999999e-05,,0.0,,mongenerator-battery_634_existing,,,
239,0.0,0.7900010000000001,8.71278e-07,,0.0,,mongenerator-battery_634_existing,,,
240,0.0,0.7900010000000001,6.798430000000001e-07,,0.0,,mongenerator-battery_634_existing,,,
241,0.0,0.79,3.74292e-07,,0.0,,mongenerator-battery_634_existing,,,
242,0.0,0.79,1.14458e-07,,0.0,,mongenerator-battery_634_existing,,,
243,0.0,0.79,7.10931e-08,,0.0,,mongenerator-battery_634_existing,,,
244,0.0,0.79,2.5580500000000002e-08,,0.0,,mongenerator-battery_634_existing,,,
245,0.0,0.79,-1.3334899999999999e-07,,0.0,,mongenerator-battery_634_existing,,,
246,0.0,0.79,-3.4623399999999995e-07,,0.0,,mongenerator-battery_634_existing,,,
247,0.0,0.789998,-1.76955e-06,,0.0,,mongenerator-battery_634_existing,,,
248,0.0,0.789999,-1.05514e-06,,0.0,,mongenerator-battery_634_existing,,,
249,0.0,0.79,1.0712200000000001e-06,,0.0,,mongenerator-battery_634_existing,,,
250,0.0,0.789994,-5.650359999999999e-06,,0.0,,mongenerator-battery_634_existing,,,
251,0.0,79.0002,0.00015617,,0.0,,mongenerator-battery_634_existing,,,
252,0.0,79.0,1.03097e-05,,0.0,,mongenerator-battery_634_existing,,,
253,0.0,79.0001,0.00017821099999999998,,0.0,,mongenerator-battery_634_existing,,,
254,0.0,79.0,-2.32268e-05,,0.0,,mongenerator-battery_634_existing,,,
255,0.0,0.789999,-1.2174600000000002e-06,,0.0,,mongenerator-battery_634_existing,,,
256,0.0,0.790007,-2.94702e-06,,0.0,,mongenerator-battery_634_existing,,,
257,0.0,0.790008,-3.09691e-06,,0.0,,mongenerator-battery_634_existing,,,
258,0.0,-79.0003,-0.0003877,,0.0,,mongenerator-battery_634_existing,,,
259,0.0,-79.0016,-0.0103107,,0.0,,mongenerator-battery_634_existing,,,
260,0.0,-78.999,0.00286097,,0.0,,mongenerator-battery_634_existing,,,
261,0.0,-78.9944,0.00704849,,0.0,,mongenerator-battery_634_existing,,,
262,0.0,0.789995,-3.60324e-06,,0.0,,mongenerator-battery_634_existing,,,
263,0.0,0.7900010000000001,4.33009e-07,,0.0,,mongenerator-battery_634_existing,,,
