hour,t(sec),P1(kW),Q1(kvar),P2(kW),Q2(kvar),P3(kW),Name,Q3(kvar),P4(kW),Q4(kvar)
1,0.0,0.79,8.32374e-07,,0.0,,mongenerator-battery_634_existing,,,
2,0.0,0.7899970000000001,1.2045599999999999e-05,,0.0,,mongenerator-battery_634_existing,,,
3,0.0,0.79,-6.15613e-09,,0.0,,mongenerator-battery_634_existing,,,
4,0.0,0.79,-2.0833899999999998e-09,,0.0,,mongenerator-battery_634_existing,,,
5,0.0,0.79,6.659180000000001e-08,,0.0,,mongenerator-battery_634_existing,,,
6,0.0,0.79,1.41391e-07,,0.0,,mongenerator-battery_634_existing,,,
7,0.0,0.79,1.47741e-07,,0.0,,mongenerator-battery_634_existing,,,
8,0.0,0.79,-2.2991e-08,,0.0,,mongenerator-battery_634_existing,,,
9,0.0,0.7900010000000001,-1.03104e-06,,0.0,,mongenerator-battery_634_existing,,,
10,0.0,0.789999,-4.90975e-07,,0.0,,mongenerator-battery_634_existing,,,
11,0.0,0.789998,-6.378949999999999e-07,,0.0,,mongenerator-battery_634_existing,,,
12,0.0,0.790022,3.90103e-05,,0.0,,mongenerator-battery_634_existing,,,
13,0.0,0.7900010000000001,4.25779e-07,,0.0,,mongenerator-battery_634_existing,,,
14,0.0,0.7899930000000001,-3.1503899999999997e-06,,0.0,,mongenerator-battery_634_existing,,,
15,0.0,0.790007,7.688539999999999e-06,,0.0,,mongenerator-battery_634_existing,,,
16,0.0,0.789988,-5.37821e-06,,0.0,,mongenerator-battery_634_existing,,,
17,0.0,0.7899930000000001,9.70189e-06,,0.0,,mongenerator-battery_634_existing,,,
18,0.0,0.789998,2.31046e-05,,0.0,,mongenerator-battery_634_existing,,,
19,0.0,0.79,1.95995e-06,,0.0,,mongenerator-battery_634_existing,,,
20,0.0,0.79,-1.05453e-07,,0.0,,mongenerator-battery_634_existing,,,
21,0.0,0.79,-5.3259e-08,,0.0,,mongenerator-battery_634_existing,,,
22,0.0,0.79,-4.879469999999999e-07,,0.0,,mongenerator-battery_634_existing,,,
23,0.0,0.79,-5.57957e-07,,0.0,,mongenerator-battery_634_existing,,,
24,0.0,0.79,-4.3070799999999997e-07,,0.0,,mongenerator-battery_634_existing,,,
25,0.0,0.79,-2.71983e-07,,0.0,,mongenerator-battery_634_existing,,,
26,0.0,0.79,-8.313940000000002e-09,,0.0,,mongenerator-battery_634_existing,,,
27,0.0,0.79,2.39353e-08,,0.0,,mongenerator-battery_634_existing,,,
28,0.0,0.79,1.17813e-08,,0.0,,mongenerator-battery_634_existing,,,
29,0.0,0.79,2.29699e-07,,0.0,,mongenerator-battery_634_existing,,,
30,0.0,0.79,4.45743e-07,,0.0,,mongenerator-battery_634_existing,,,
31,0.0,0.79,3.98507e-07,,0.0,,mongenerator-battery_634_existing,,,
32,0.0,0.79,-4.71357e-07,,0.0,,mongenerator-battery_634_existing,,,
33,0.0,0.79,-1.00627e-05,,0.0,,mongenerator-battery_634_existing,,,
34,0.0,0.790003,-8.222330000000001e-06,,0.0,,mongenerator-battery_634_existing,,,
35,0.0,0.790003,-2.07107e-06,,0.0,,mongenerator-battery_634_existing,,,
36,0.0,-79.0,5.765979999999999e-05,,0.0,,mongenerator-battery_634_existing,,,
37,0.0,0.789999,-3.59298e-07,,0.0,,mongenerator-battery_634_existing,,,
38,0.0,0.789989,6.76902e-05,,0.0,,mongenerator-battery_634_existing,,,
39,0.0,0.7900010000000001,1.0526700000000001e-06,,0.0,,mongenerator-battery_634_existing,,,
40,0.0,0.789979,1.30857e-06,,0.0,,mongenerator-battery_634_existing,,,
41,0.0,0.789988,3.56063e-05,,0.0,,mongenerator-battery_634_existing,,,
42,0.0,-79.0,2.78021e-05,,0.0,,mongenerator-battery_634_existing,,,
43,0.0,-79.0004,-0.000609968,,0.0,,mongenerator-battery_634_existing,,,
44,0.0,-78.9975,0.0029448,,0.0,,mongenerator-battery_634_existing,,,
45,0.0,0.789999,1.02445e-06,,0.0,,mongenerator-battery_634_existing,,,
46,0.0,0.79,5.35843e-08,,0.0,,mongenerator-battery_634_existing,,,
47,0.0,0.79,8.91023e-08,,0.0,,mongenerator-battery_634_existing,,,
48,0.0,0.79,6.67171e-08,,0.0,,mongenerator-battery_634_existing,,,
49,0.0,0.79,3.02716e-08,,0.0,,mongenerator-battery_634_existing,,,
50,0.0,0.79,-5.88302e-10,,0.0,,mongenerator-battery_634_existing,,,
51,0.0,0.79,-6.3732500000000005e-09,,0.0,,mongenerator-battery_634_existing,,,
52,0.0,0.79,-3.2169200000000005e-09,,0.0,,mongenerator-battery_634_existing,,,
53,0.0,0.79,-2.97017e-08,,0.0,,mongenerator-battery_634_existing,,,
54,0.0,0.79,-5.16829e-08,,0.0,,mongenerator-battery_634_existing,,,
55,0.0,0.79,-9.01737e-08,,0.0,,mongenerator-battery_634_existing,,,
56,0.0,0.79,-2.3729900000000003e-08,,0.0,,mongenerator-battery_634_existing,,,
57,0.0,0.790007,2.37548e-05,,0.0,,mongenerator-battery_634_existing,,,
58,0.0,0.790026,7.86654e-05,,0.0,,mongenerator-battery_634_existing,,,
59,0.0,0.790021,6.17023e-05,,0.0,,mongenerator-battery_634_existing,,,
60,0.0,0.789985,-5.6392e-05,,0.0,,mongenerator-battery_634_existing,,,
61,0.0,0.79002,6.0088000000000005e-05,,0.0,,mongenerator-battery_634_existing,,,
62,0.0,0.79,-2.56201e-07,,0.0,,mongenerator-battery_634_existing,,,
63,0.0,0.789994,-2.02724e-05,,0.0,,mongenerator-battery_634_existing,,,
64,0.0,0.7899970000000001,-1.03262e-05,,0.0,,mongenerator-battery_634_existing,,,
65,0.0,0.789996,-1.51474e-05,,0.0,,mongenerator-battery_634_existing,,,
66,0.0,0.789986,-1.72791e-06,,0.0,,mongenerator-battery_634_existing,,,
67,0.0,0.79,-1.10961e-07,,0.0,,mongenerator-battery_634_existing,,,
68,0.0,0.79,-1.56486e-07,,0.0,,mongenerator-battery_634_existing,,,
69,0.0,0.79,-8.8802e-09,,0.0,,mongenerator-battery_634_existing,,,
70,0.0,0.79,5.2341e-08,,0.0,,mongenerator-battery_634_existing,,,
71,0.0,0.79,8.989760000000001e-08,,0.0,,mongenerator-battery_634_existing,,,
72,0.0,0.79,7.8437e-08,,0.0,,mongenerator-battery_634_existing,,,
73,0.0,0.79,4.0696699999999994e-08,,0.0,,mongenerator-battery_634_existing,,,
74,0.0,0.79,5.37597e-09,,0.0,,mongenerator-battery_634_existing,,,
75,0.0,0.79,6.37096e-09,,0.0,,mongenerator-battery_634_existing,,,
76,0.0,0.79,8.360249999999999e-10,,0.0,,mongenerator-battery_634_existing,,,
77,0.0,0.79,-2.85981e-08,,0.0,,mongenerator-battery_634_existing,,,
78,0.0,0.79,-5.15707e-08,,0.0,,mongenerator-battery_634_existing,,,
79,0.0,0.79,-8.887089999999998e-08,,0.0,,mongenerator-battery_634_existing,,,
80,0.0,0.79,-3.09579e-08,,0.0,,mongenerator-battery_634_existing,,,
81,0.0,0.7900189999999999,5.72041e-05,,0.0,,mongenerator-battery_634_existing,,,
82,0.0,0.789999,-1.96399e-06,,0.0,,mongenerator-battery_634_existing,,,
83,0.0,79.0,4.1001199999999996e-05,,0.0,,mongenerator-battery_634_existing,,,
84,0.0,78.9999,-4.33858e-05,,0.0,,mongenerator-battery_634_existing,,,
85,0.0,79.0003,0.000365899,,0.0,,mongenerator-battery_634_existing,,,
86,0.0,78.9999,-0.000162657,,0.0,,mongenerator-battery_634_existing,,,
87,0.0,0.79,1.24442e-07,,0.0,,mongenerator-battery_634_existing,,,
88,0.0,0.79,-5.19723e-07,,0.0,,mongenerator-battery_634_existing,,,
89,0.0,0.790017,-6.905460000000001e-06,,0.0,,mongenerator-battery_634_existing,,,
90,0.0,-79.0005,-0.0007955530000000001,,0.0,,mongenerator-battery_634_existing,,,
91,0.0,-79.0032,-0.00884435,,0.0,,mongenerator-battery_634_existing,,,
92,0.0,-78.9991,0.00202408,,0.0,,mongenerator-battery_634_existing,,,
93,0.0,-78.9953,0.00619837,,0.0,,mongenerator-battery_634_existing,,,
94,0.0,0.79,1.2941999999999998e-06,,0.0,,mongenerator-battery_634_existing,,,
95,0.0,0.79,9.228760000000002e-08,,0.0,,mongenerator-battery_634_existing,,,
96,0.0,0.79,7.56225e-08,,0.0,,mongenerator-battery_634_existing,,,
97,0.0,0.79,4.09302e-08,,0.0,,mongenerator-battery_634_existing,,,
98,0.0,0.79,7.63992e-09,,0.0,,mongenerator-battery_634_existing,,,
99,0.0,0.79,5.172260000000001e-09,,0.0,,mongenerator-battery_634_existing,,,
100,0.0,0.79,1.8233e-09,,0.0,,mongenerator-battery_634_existing,,,
101,0.0,0.79,-2.1661500000000002e-08,,0.0,,mongenerator-battery_634_existing,,,
102,0.0,0.79,-5.1580699999999994e-08,,0.0,,mongenerator-battery_634_existing,,,
103,0.0,0.79,-8.863999999999999e-08,,0.0,,mongenerator-battery_634_existing,,,
104,0.0,0.789931,1.26554e-06,,0.0,,mongenerator-battery_634_existing,,,
105,0.0,0.789941,5.6046000000000005e-05,,0.0,,mongenerator-battery_634_existing,,,
106,0.0,0.7899970000000001,-4.16486e-06,,0.0,,mongenerator-battery_634_existing,,,
107,0.0,78.9998,-0.000187294,,0.0,,mongenerator-battery_634_existing,,,
108,0.0,79.0,1.36178e-05,,0.0,,mongenerator-battery_634_existing,,,
109,0.0,78.9999,-8.550860000000001e-05,,0.0,,mongenerator-battery_634_existing,,,
110,0.0,79.0,-6.00974e-05,,0.0,,mongenerator-battery_634_existing,,,
111,0.0,0.79,5.96599e-08,,0.0,,mongenerator-battery_634_existing,,,
112,0.0,0.79001,-1.63214e-06,,0.0,,mongenerator-battery_634_existing,,,
113,0.0,0.790011,-4.05116e-06,,0.0,,mongenerator-battery_634_existing,,,
114,0.0,-79.0002,-0.000289192,,0.0,,mongenerator-battery_634_existing,,,
115,0.0,-79.0015,-0.00479559,,0.0,,mongenerator-battery_634_existing,,,
116,0.0,-78.9993,0.00150382,,0.0,,mongenerator-battery_634_existing,,,
117,0.0,-78.99600000000001,0.00422118,,0.0,,mongenerator-battery_634_existing,,,
118,0.0,78.9998,-0.000251072,,0.0,,mongenerator-battery_634_existing,,,
119,0.0,0.789999,7.588379999999999e-07,,0.0,,mongenerator-battery_634_existing,,,
120,0.0,0.79,8.867610000000001e-08,,0.0,,mongenerator-battery_634_existing,,,
121,0.0,0.79,6.272490000000001e-08,,0.0,,mongenerator-battery_634_existing,,,
122,0.0,0.79,1.0055100000000002e-08,,0.0,,mongenerator-battery_634_existing,,,
123,0.0,0.79,7.57938e-09,,0.0,,mongenerator-battery_634_existing,,,
124,0.0,0.79,9.585540000000001e-09,,0.0,,mongenerator-battery_634_existing,,,
125,0.0,0.79,-2.18305e-08,,0.0,,mongenerator-battery_634_existing,,,
126,0.0,0.79,-5.47081e-08,,0.0,,mongenerator-battery_634_existing,,,
127,0.0,0.79,-9.01192e-08,,0.0,,mongenerator-battery_634_existing,,,
128,0.0,0.79,-4.079359999999999e-08,,0.0,,mongenerator-battery_634_existing,,,
129,0.0,0.790013,4.0214e-05,,0.0,,mongenerator-battery_634_existing,,,
130,0.0,0.789999,3.40393e-06,,0.0,,mongenerator-battery_634_existing,,,
131,0.0,78.9995,-0.0008061230000000001,,0.0,,mongenerator-battery_634_existing,,,
132,0.0,0.790003,7.267e-08,,0.0,,mongenerator-battery_634_existing,,,
133,0.0,79.0076,0.0106686,,0.0,,mongenerator-battery_634_existing,,,
134,0.0,79.0024,0.00278336,,0.0,,mongenerator-battery_634_existing,,,
135,0.0,0.7900010000000001,1.25838e-06,,0.0,,mongenerator-battery_634_existing,,,
136,0.0,0.7900020000000001,-8.25071e-07,,0.0,,mongenerator-battery_634_existing,,,
137,0.0,0.7900050000000001,-2.2165099999999997e-06,,0.0,,mongenerator-battery_634_existing,,,
138,0.0,-79.0001,-0.000139601,,0.0,,mongenerator-battery_634_existing,,,
139,0.0,-79.0012,-0.00357915,,0.0,,mongenerator-battery_634_existing,,,
140,0.0,-78.9983,0.00243086,,0.0,,mongenerator-battery_634_existing,,,
141,0.0,-78.9959,0.00338415,,0.0,,mongenerator-battery_634_existing,,,
142,0.0,0.79,7.14913e-07,,0.0,,mongenerator-battery_634_existing,,,
143,0.0,0.7900010000000001,1.7769200000000003e-07,,0.0,,mongenerator-battery_634_existing,,,
144,0.0,0.79,9.410539999999999e-08,,0.0,,mongenerator-battery_634_existing,,,
145,0.0,0.79,4.6933300000000004e-08,,0.0,,mongenerator-battery_634_existing,,,
146,0.0,0.79,7.83831e-09,,0.0,,mongenerator-battery_634_existing,,,
147,0.0,0.79,8.28987e-09,,0.0,,mongenerator-battery_634_existing,,,
148,0.0,0.79,1.7084100000000003e-09,,0.0,,mongenerator-battery_634_existing,,,
149,0.0,0.79,-2.4794400000000002e-08,,0.0,,mongenerator-battery_634_existing,,,
150,0.0,0.79,-5.36822e-08,,0.0,,mongenerator-battery_634_existing,,,
151,0.0,0.79,-8.145049999999999e-08,,0.0,,mongenerator-battery_634_existing,,,
152,0.0,0.79,6.948630000000001e-08,,0.0,,mongenerator-battery_634_existing,,,
153,0.0,0.7900189999999999,4.780479999999999e-05,,0.0,,mongenerator-battery_634_existing,,,
154,0.0,0.789976,-8.55792e-06,,0.0,,mongenerator-battery_634_existing,,,
155,0.0,79.0,7.96615e-06,,0.0,,mongenerator-battery_634_existing,,,
156,0.0,79.0,7.69521e-07,,0.0,,mongenerator-battery_634_existing,,,
157,0.0,79.0,-1.2696600000000001e-05,,0.0,,mongenerator-battery_634_existing,,,
158,0.0,79.0,-7.24603e-07,,0.0,,mongenerator-battery_634_existing,,,
159,0.0,0.789999,-7.773879999999999e-07,,0.0,,mongenerator-battery_634_existing,,,
160,0.0,0.790003,-1.6822e-06,,0.0,,mongenerator-battery_634_existing,,,
161,0.0,0.789982,7.61849e-05,,0.0,,mongenerator-battery_634_existing,,,
162,0.0,-79.0001,-0.000105688,,0.0,,mongenerator-battery_634_existing,,,
163,0.0,-78.9975,0.00219192,,0.0,,mongenerator-battery_634_existing,,,
164,0.0,79.0006,0.000819599,,0.0,,mongenerator-battery_634_existing,,,
165,0.0,79.0022,0.00348004,,0.0,,mongenerator-battery_634_existing,,,
166,0.0,78.9981,-0.00262113,,0.0,,mongenerator-battery_634_existing,,,
167,0.0,0.79,-1.5791899999999998e-06,,0.0,,mongenerator-battery_634_existing,,,
168,0.0,0.79,8.266630000000001e-08,,0.0,,mongenerator-battery_634_existing,,,
169,0.0,0.79,4.471880000000001e-08,,0.0,,mongenerator-battery_634_existing,,,
170,0.0,0.79,7.52779e-09,,0.0,,mongenerator-battery_634_existing,,,
171,0.0,0.79,8.56401e-09,,0.0,,mongenerator-battery_634_existing,,,
172,0.0,0.79,1.6320000000000002e-09,,0.0,,mongenerator-battery_634_existing,,,
173,0.0,0.79,-1.98513e-08,,0.0,,mongenerator-battery_634_existing,,,
174,0.0,0.79,-4.30849e-08,,0.0,,mongenerator-battery_634_existing,,,
175,0.0,0.79,-6.29636e-08,,0.0,,mongenerator-battery_634_existing,,,
176,0.0,0.79,-3.90899e-08,,0.0,,mongenerator-battery_634_existing,,,
177,0.0,0.789972,-1.28486e-05,,0.0,,mongenerator-battery_634_existing,,,
178,0.0,0.789999,4.29558e-06,,0.0,,mongenerator-battery_634_existing,,,
179,0.0,0.790008,3.62751e-06,,0.0,,mongenerator-battery_634_existing,,,
180,0.0,0.789995,-2.2578099999999996e-06,,0.0,,mongenerator-battery_634_existing,,,
181,0.0,0.7900010000000001,1.08741e-06,,0.0,,mongenerator-battery_634_existing,,,
182,0.0,0.789999,-8.972280000000001e-07,,0.0,,mongenerator-battery_634_existing,,,
183,0.0,0.789985,-8.43574e-07,,0.0,,mongenerator-battery_634_existing,,,
184,0.0,0.789983,1.77259e-05,,0.0,,mongenerator-battery_634_existing,,,
185,0.0,0.78999,2.9511599999999997e-05,,0.0,,mongenerator-battery_634_existing,,,
186,0.0,0.789996,4.328060000000001e-05,,0.0,,mongenerator-battery_634_existing,,,
187,0.0,0.79,4.926230000000001e-06,,0.0,,mongenerator-battery_634_existing,,,
188,0.0,0.79,-1.12991e-06,,0.0,,mongenerator-battery_634_existing,,,
189,0.0,0.79,-7.254810000000001e-07,,0.0,,mongenerator-battery_634_existing,,,
190,0.0,0.79,-1.19605e-06,,0.0,,mongenerator-battery_634_existing,,,
191,0.0,0.79,-1.3062100000000002e-06,,0.0,,mongenerator-battery_634_existing,,,
192,0.0,0.79,-9.65289e-07,,0.0,,mongenerator-battery_634_existing,,,
193,0.0,0.79,-5.827810000000001e-07,,0.0,,mongenerator-battery_634_existing,,,
194,0.0,0.79,-6.10992e-08,,0.0,,mongenerator-battery_634_existing,,,
195,0.0,0.79,8.47492e-09,,0.0,,mongenerator-battery_634_existing,,,
196,0.0,0.79,2.80115e-08,,0.0,,mongenerator-battery_634_existing,,,
197,0.0,0.79,3.74277e-07,,0.0,,mongenerator-battery_634_existing,,,
198,0.0,0.79,7.64945e-07,,0.0,,mongenerator-battery_634_existing,,,
199,0.0,0.79,5.813459999999999e-07,,0.0,,mongenerator-battery_634_existing,,,
200,0.0,0.79,-8.22502e-07,,0.0,,mongenerator-battery_634_existing,,,
201,0.0,0.790017,-4.08724e-05,,0.0,,mongenerator-battery_634_existing,,,
202,0.0,0.7900010000000001,6.71382e-07,,0.0,,mongenerator-battery_634_existing,,,
203,0.0,0.789978,3.2783e-05,,0.0,,mongenerator-battery_634_existing,,,
204,0.0,0.7900010000000001,1.21069e-06,,0.0,,mongenerator-battery_634_existing,,,
205,0.0,0.789978,-8.749370000000001e-06,,0.0,,mongenerator-battery_634_existing,,,
206,0.0,0.789981,5.00213e-05,,0.0,,mongenerator-battery_634_existing,,,
207,0.0,0.7900050000000001,-7.85471e-06,,0.0,,mongenerator-battery_634_existing,,,
208,0.0,0.7899970000000001,7.95275e-06,,0.0,,mongenerator-battery_634_existing,,,
209,0.0,-78.9999,0.00018214099999999998,,0.0,,mongenerator-battery_634_existing,,,
210,0.0,-79.003,-0.0105405,,0.0,,mongenerator-battery_634_existing,,,
211,0.0,-79.0011,-0.00595554,,0.0,,mongenerator-battery_634_existing,,,
212,0.0,-78.999,0.00335258,,0.0,,mongenerator-battery_634_existing,,,
213,0.0,0.7899689999999999,-4.18488e-05,,0.0,,mongenerator-battery_634_existing,,,
214,0.0,79.0023,0.00308324,,0.0,,mongenerator-battery_634_existing,,,
215,0.0,78.9938,-0.00411656,,0.0,,mongenerator-battery_634_existing,,,
216,0.0,0.79,9.07884e-07,,0.0,,mongenerator-battery_634_existing,,,
217,0.0,0.79,3.9178900000000004e-08,,0.0,,mongenerator-battery_634_existing,,,
218,0.0,0.79,7.82379e-09,,0.0,,mongenerator-battery_634_existing,,,
219,0.0,0.79,8.545209999999999e-09,,0.0,,mongenerator-battery_634_existing,,,
220,0.0,0.79,2.6907700000000002e-09,,0.0,,mongenerator-battery_634_existing,,,
221,0.0,0.79,-1.82864e-08,,0.0,,mongenerator-battery_634_existing,,,
222,0.0,0.79,-4.3607300000000004e-08,,0.0,,mongenerator-battery_634_existing,,,
223,0.0,0.79,-7.91602e-08,,0.0,,mongenerator-battery_634_existing,,,
224,0.0,0.79,-4.38036e-08,,0.0,,mongenerator-battery_634_existing,,,
225,0.0,0.7900020000000001,8.34175e-06,,0.0,,mongenerator-battery_634_existing,,,
226,0.0,0.790011,3.53833e-05,,0.0,,mongenerator-battery_634_existing,,,
227,0.0,0.790021,6.10158e-05,,0.0,,mongenerator-battery_634_existing,,,
228,0.0,78.999,-0.00112574,,0.0,,mongenerator-battery_634_existing,,,
229,0.0,0.79003,8.50852e-06,,0.0,,mongenerator-battery_634_existing,,,
230,0.0,0.790024,2.29708e-05,,0.0,,mongenerator-battery_634_existing,,,
231,0.0,0.7900020000000001,1.5877100000000001e-06,,0.0,,mongenerator-battery_634_existing,,,
232,0.0,0.789984,-8.10198e-06,,0.0,,mongenerator-battery_634_existing,,,
233,0.0,0.789983,2.60858e-05,,0.0,,mongenerator-battery_634_existing,,,
234,0.0,-79.0,-1.6997e-05,,0.0,,mongenerator-battery_634_existing,,,
235,0.0,-79.0,-5.7083300000000005e-06,,0.0,,mongenerator-battery_634_existing,,,
236,0.0,-78.9978,0.00190968,,0.0,,mongenerator-battery_634_existing,,,
237,0.0,0.789968,-4.2953999999999996e-05,,0.0,,mongenerator-battery_634_existing,,,
238,0.0,0.7899970000000001,1.16916e-05,,0.0,,mongenerator-battery_634_existing,,,
239,0.0,0.79,5.311e-07,,0.0,,mongenerator-battery_634_existing,,,
240,0.0,0.79,4.07444e-07,,0.0,,mongenerator-battery_634_existing,,,
241,0.0,0.79,2.58419e-07,,0.0,,mongenerator-battery_634_existing,,,
242,0.0,0.79,6.89061e-08,,0.0,,mongenerator-battery_634_existing,,,
243,0.0,0.79,3.437569999999999e-08,,0.0,,mongenerator-battery_634_existing,,,
244,0.0,0.79,1.35554e-08,,0.0,,mongenerator-battery_634_existing,,,
245,0.0,0.79,-1.08595e-07,,0.0,,mongenerator-battery_634_existing,,,
246,0.0,0.79,-2.40993e-07,,0.0,,mongenerator-battery_634_existing,,,
247,0.0,0.79,-3.2035699999999996e-07,,0.0,,mongenerator-battery_634_existing,,,
248,0.0,0.79,4.7873900000000004e-08,,0.0,,mongenerator-battery_634_existing,,,
249,0.0,0.790022,8.809530000000001e-05,,0.0,,mongenerator-battery_634_existing,,,
250,0.0,0.789999,-2.1333e-06,,0.0,,mongenerator-battery_634_existing,,,
251,0.0,79.0001,7.5014e-05,,0.0,,mongenerator-battery_634_existing,,,
252,0.0,78.9999,-5.0288100000000004e-05,,0.0,,mongenerator-battery_634_existing,,,
253,0.0,79.0002,0.000310713,,0.0,,mongenerator-battery_634_existing,,,
254,0.0,79.0,-8.96182e-05,,0.0,,mongenerator-battery_634_existing,,,
255,0.0,0.79,-2.52802e-07,,0.0,,mongenerator-battery_634_existing,,,
256,0.0,0.790009,-2.67526e-06,,0.0,,mongenerator-battery_634_existing,,,
257,0.0,0.790009,-3.4463900000000003e-06,,0.0,,mongenerator-battery_634_existing,,,
258,0.0,-79.0003,-0.000469805,,0.0,,mongenerator-battery_634_existing,,,
259,0.0,-79.0022,-0.011062200000000001,,0.0,,mongenerator-battery_634_existing,,,
260,0.0,-78.999,0.00291268,,0.0,,mongenerator-battery_634_existing,,,
261,0.0,-78.9943,0.00716434,,0.0,,mongenerator-battery_634_existing,,,
262,0.0,0.79,1.10383e-06,,0.0,,mongenerator-battery_634_existing,,,
263,0.0,0.79,9.906330000000001e-08,,0.0,,mongenerator-battery_634_existing,,,
264,0.0,0.79,8.280939999999999e-08,,0.0,,mongenerator-battery_634_existing,,,
265,0.0,0.79,4.674980000000001e-08,,0.0,,mongenerator-battery_634_existing,,,
266,0.0,0.79,8.19118e-09,,0.0,,mongenerator-battery_634_existing,,,
267,0.0,0.79,4.60134e-09,,0.0,,mongenerator-battery_634_existing,,,
268,0.0,0.79,7.84753e-10,,0.0,,mongenerator-battery_634_existing,,,
269,0.0,0.79,-2.3372900000000005e-08,,0.0,,mongenerator-battery_634_existing,,,
270,0.0,0.79,-5.23951e-08,,0.0,,mongenerator-battery_634_existing,,,
