hour,t(sec),V1,VAngle1,V2,VAngle2,I1,IAngle1,I2,IAngle2,V3,Name,VAngle3,I3,IAngle3,V4,VAngle4,I4,IAngle4,kv,V1(PU),V2(PU),V3(PU)
1,0.0,,112.824,,0.0,20.2518,112.824,20.2518,-67.1756,2462.4,monload-611_runway,,,,,,,,2.4,,,1.026
2,0.0,,112.789,,0.0,21.49,112.79,21.49,-67.2101,2461.02,monload-611_runway,,,,,,,,2.4,,,1.025425
3,0.0,,112.794,,0.0,18.735,112.794,18.735,-67.206,2461.25,monload-611_runway,,,,,,,,2.4,,,1.0255208333333334
4,0.0,,112.796,,0.0,18.1696,112.796,18.1696,-67.2044,2461.32,monload-611_runway,,,,,,,,2.4,,,1.02555
5,0.0,,112.689,,0.0,18.3433,112.69200000000001,18.3433,-67.3076,2456.23,monload-611_runway,,,,,,,,2.4,,,1.0234291666666666
6,0.0,,112.59,,0.0,19.8621,112.594,19.8621,-67.4064,2451.49,monload-611_runway,,,,,,,,2.4,,,1.0214541666666666
7,0.0,,112.256,,0.0,29.8483,112.256,29.8483,-67.7443,2435.64,monload-611_runway,,,,,,,,2.4,,,1.01485
8,0.0,,112.414,,0.0,31.8618,112.41,31.8618,-67.5903,2442.89,monload-611_runway,,,,,,,,2.4,,,1.0178708333333333
9,0.0,,112.41799999999999,,0.0,44.0268,112.417,44.0268,-67.5826,2443.26,monload-611_runway,,,,,,,,2.4,,,1.0180250000000002
10,0.0,,112.726,,0.0,37.8158,112.726,37.8158,-67.2736,2457.88,monload-611_runway,,,,,,,,2.4,,,1.0241166666666668
11,0.0,,112.96,,0.0,26.7204,112.96,26.7204,-67.0399,2468.79,monload-611_runway,,,,,,,,2.4,,,1.0286625
12,0.0,,113.906,,0.0,25.0426,113.906,25.0426,-66.0942,2512.48,monload-611_runway,,,,,,,,2.4,,,1.0468666666666666
13,0.0,,112.84299999999999,,0.0,24.9564,112.844,24.9564,-67.156,2463.43,monload-611_runway,,,,,,,,2.4,,,1.0264291666666665
14,0.0,,113.295,,0.0,24.9959,113.294,24.9959,-66.7057,2484.36,monload-611_runway,,,,,,,,2.4,,,1.03515
15,0.0,,113.666,,0.0,24.9268,113.665,24.9268,-66.3346,2501.47,monload-611_runway,,,,,,,,2.4,,,1.0422791666666666
16,0.0,,113.721,,0.0,24.7866,113.72,24.7866,-66.2797,2503.98,monload-611_runway,,,,,,,,2.4,,,1.043325
17,0.0,,112.99700000000001,,0.0,25.989,112.99700000000001,25.989,-67.0031,2470.25,monload-611_runway,,,,,,,,2.4,,,1.0292708333333334
18,0.0,,112.211,,0.0,31.4301,112.212,31.4301,-67.7884,2433.36,monload-611_runway,,,,,,,,2.4,,,1.0139
19,0.0,,112.007,,0.0,43.1551,112.007,43.1551,-67.993,2423.81,monload-611_runway,,,,,,,,2.4,,,1.0099208333333334
20,0.0,,112.02799999999999,,0.0,45.3034,112.02799999999999,45.3034,-67.9721,2424.87,monload-611_runway,,,,,,,,2.4,,,1.0103625
21,0.0,,112.09899999999999,,0.0,47.8087,112.09899999999999,47.8087,-67.9012,2428.26,monload-611_runway,,,,,,,,2.4,,,1.011775
22,0.0,,112.22,,0.0,46.4444,112.22,46.4444,-67.7798,2434.19,monload-611_runway,,,,,,,,2.4,,,1.0142458333333333
23,0.0,,112.45,,0.0,35.6973,112.45,35.6973,-67.5503,2445.18,monload-611_runway,,,,,,,,2.4,,,1.0188249999999999
24,0.0,,112.61200000000001,,0.0,22.9122,112.61399999999999,22.9122,-67.3862,2452.82,monload-611_runway,,,,,,,,2.4,,,1.0220083333333334
25,0.0,,112.682,,0.0,18.6667,112.68299999999999,18.6667,-67.317,2456.23,monload-611_runway,,,,,,,,2.4,,,1.0234291666666666
26,0.0,,112.68,,0.0,17.8494,112.68,17.8494,-67.3201,2456.13,monload-611_runway,,,,,,,,2.4,,,1.0233875000000001
27,0.0,,112.679,,0.0,16.9263,112.679,16.9263,-67.3209,2456.08,monload-611_runway,,,,,,,,2.4,,,1.0233666666666665
28,0.0,,112.675,,0.0,17.0116,112.675,17.0116,-67.3251,2455.89,monload-611_runway,,,,,,,,2.4,,,1.0232875
29,0.0,,112.354,,0.0,17.6802,112.354,17.6802,-67.6459,2440.75,monload-611_runway,,,,,,,,2.4,,,1.0169791666666668
30,0.0,,112.196,,0.0,21.26,112.191,21.26,-67.8088,2433.2,monload-611_runway,,,,,,,,2.4,,,1.0138333333333334
31,0.0,,111.46600000000001,,0.0,33.1809,111.46600000000001,33.1809,-68.5338,2399.11,monload-611_runway,,,,,,,,2.4,,,0.9996291666666667
32,0.0,,111.184,,0.0,34.8528,111.186,34.8528,-68.8145,2385.82,monload-611_runway,,,,,,,,2.4,,,0.9940916666666667
33,0.0,,111.322,,0.0,30.7756,111.321,30.7756,-68.6787,2392.8,monload-611_runway,,,,,,,,2.4,,,0.9970000000000001
34,0.0,,111.64399999999999,,0.0,31.0977,111.64299999999999,31.0977,-68.3567,2408.4,monload-611_runway,,,,,,,,2.4,,,1.0035
35,0.0,,111.96700000000001,,0.0,25.135,111.96700000000001,25.135,-68.0334,2423.77,monload-611_runway,,,,,,,,2.4,,,1.0099041666666666
36,0.0,,110.98100000000001,,0.0,26.0047,110.98100000000001,26.0047,-69.01899999999999,2376.77,monload-611_runway,,,,,,,,2.4,,,0.9903208333333333
37,0.0,,113.105,,0.0,26.4116,113.103,26.4116,-66.8966,2476.94,monload-611_runway,,,,,,,,2.4,,,1.0320583333333333
38,0.0,,111.684,,0.0,25.3752,111.684,25.3752,-68.3159,2410.39,monload-611_runway,,,,,,,,2.4,,,1.0043291666666667
39,0.0,,113.67,,0.0,24.5082,113.66799999999999,24.5082,-66.3318,2503.22,monload-611_runway,,,,,,,,2.4,,,1.0430083333333333
40,0.0,,112.77600000000001,,0.0,24.748,112.777,24.748,-67.2229,2461.77,monload-611_runway,,,,,,,,2.4,,,1.0257375
41,0.0,,111.74799999999999,,0.0,25.8685,111.75,25.8685,-68.2499,2413.13,monload-611_runway,,,,,,,,2.4,,,1.0054708333333333
42,0.0,,110.84100000000001,,0.0,31.6633,110.845,31.6633,-69.1551,2369.33,monload-611_runway,,,,,,,,2.4,,,0.9872208333333333
43,0.0,,111.37700000000001,,0.0,38.7986,111.375,38.7986,-68.6249,2394.23,monload-611_runway,,,,,,,,2.4,,,0.9975958333333333
44,0.0,,111.385,,0.0,41.1781,111.385,41.1781,-68.6147,2394.71,monload-611_runway,,,,,,,,2.4,,,0.9977958333333333
45,0.0,,111.682,,0.0,45.1231,111.681,45.1231,-68.3187,2408.83,monload-611_runway,,,,,,,,2.4,,,1.0036791666666667
46,0.0,,111.875,,0.0,42.3023,111.875,42.3023,-68.125,2418.22,monload-611_runway,,,,,,,,2.4,,,1.0075916666666667
47,0.0,,112.28,,0.0,30.8497,112.28,30.8497,-67.7201,2437.18,monload-611_runway,,,,,,,,2.4,,,1.0154916666666667
48,0.0,,112.43299999999999,,0.0,21.1497,112.436,21.1497,-67.564,2444.43,monload-611_runway,,,,,,,,2.4,,,1.0185125
49,0.0,,112.509,,0.0,18.8942,112.51100000000001,18.8942,-67.4893,2448.13,monload-611_runway,,,,,,,,2.4,,,1.0200541666666667
50,0.0,,112.522,,0.0,18.3946,112.523,18.3946,-67.4774,2448.73,monload-611_runway,,,,,,,,2.4,,,1.0203041666666666
51,0.0,,112.53299999999999,,0.0,17.8874,112.53299999999999,17.8874,-67.4673,2449.2,monload-611_runway,,,,,,,,2.4,,,1.0205
52,0.0,,112.53,,0.0,18.4384,112.53,18.4384,-67.4697,2449.11,monload-611_runway,,,,,,,,2.4,,,1.0204625
53,0.0,,112.20100000000001,,0.0,19.6598,112.20100000000001,19.6598,-67.7986,2433.57,monload-611_runway,,,,,,,,2.4,,,1.0139875
54,0.0,,112.045,,0.0,23.9779,112.039,23.9779,-67.9606,2426.03,monload-611_runway,,,,,,,,2.4,,,1.0108458333333334
55,0.0,,111.32600000000001,,0.0,35.7182,111.32600000000001,35.7182,-68.6741,2392.34,monload-611_runway,,,,,,,,2.4,,,0.9968083333333334
56,0.0,,111.057,,0.0,35.9782,111.05799999999999,35.9782,-68.9423,2379.6,monload-611_runway,,,,,,,,2.4,,,0.9914999999999999
57,0.0,,111.742,,0.0,31.5574,111.74,31.5574,-68.2598,2412.75,monload-611_runway,,,,,,,,2.4,,,1.0053125
58,0.0,,112.728,,0.0,31.2533,112.728,31.2533,-67.2723,2459.49,monload-611_runway,,,,,,,,2.4,,,1.0247875
59,0.0,,113.444,,0.0,24.7817,113.444,24.7817,-66.5564,2492.79,monload-611_runway,,,,,,,,2.4,,,1.0386625
60,0.0,,59.8758,,0.0,7.48335,59.8758,7.48335,-120.124,693.191,monload-611_runway,,,,,,,,2.4,,,0.28882958333333336
61,0.0,,59.873999999999995,,0.0,7.82705,59.873999999999995,7.82705,-120.126,693.168,monload-611_runway,,,,,,,,2.4,,,0.28882
62,0.0,,59.8732,,0.0,7.966539999999999,59.8732,7.966539999999999,-120.12700000000001,693.1569999999999,monload-611_runway,,,,,,,,2.4,,,0.28881541666666666
63,0.0,,59.8723,,0.0,8.069939999999999,59.8723,8.069939999999999,-120.12799999999999,693.148,monload-611_runway,,,,,,,,2.4,,,0.2888116666666667
64,0.0,,59.872,,0.0,8.10961,59.872,8.10961,-120.12799999999999,693.145,monload-611_runway,,,,,,,,2.4,,,0.2888104166666667
65,0.0,,59.8708,,0.0,8.23625,59.8708,8.23625,-120.12899999999999,693.133,monload-611_runway,,,,,,,,2.4,,,0.2888054166666667
66,0.0,,59.8628,,0.0,9.41387,59.8628,9.41387,-120.137,693.04,monload-611_runway,,,,,,,,2.4,,,0.28876666666666667
67,0.0,,59.8517,,0.0,11.1812,59.8516,11.1812,-120.148,692.9060000000001,monload-611_runway,,,,,,,,2.4,,,0.28871083333333336
68,0.0,,59.8477,,0.0,11.7991,59.8477,11.7991,-120.152,692.8589999999999,monload-611_runway,,,,,,,,2.4,,,0.28869124999999995
69,0.0,,59.8405,,0.0,12.9335,59.8405,12.9335,-120.16,692.773,monload-611_runway,,,,,,,,2.4,,,0.28865541666666666
70,0.0,,59.8457,,0.0,12.1106,59.8457,12.1106,-120.154,692.835,monload-611_runway,,,,,,,,2.4,,,0.28868125
71,0.0,,59.8657,,0.0,8.91584,59.8658,8.91584,-120.134,693.077,monload-611_runway,,,,,,,,2.4,,,0.28878208333333333
72,0.0,,59.8834,,0.0,6.1225,59.8834,6.1225,-120.117,693.288,monload-611_runway,,,,,,,,2.4,,,0.28887
73,0.0,,59.8881,,0.0,5.36721,59.8881,5.36721,-120.11200000000001,693.345,monload-611_runway,,,,,,,,2.4,,,0.28889375
74,0.0,,59.8897,,0.0,5.11728,59.8897,5.11728,-120.11,693.3639999999999,monload-611_runway,,,,,,,,2.4,,,0.2889016666666666
75,0.0,,59.8915,,0.0,4.83701,59.8915,4.83701,-120.109,693.385,monload-611_runway,,,,,,,,2.4,,,0.28891041666666667
76,0.0,,59.8914,,0.0,4.856380000000001,59.8914,4.856380000000001,-120.109,693.3839999999999,monload-611_runway,,,,,,,,2.4,,,0.28890999999999994
77,0.0,,59.8902,,0.0,5.0595,59.8902,5.0595,-120.11,693.3689999999999,monload-611_runway,,,,,,,,2.4,,,0.28890374999999996
78,0.0,,59.8839,,0.0,6.04407,59.8839,6.04407,-120.116,693.295,monload-611_runway,,,,,,,,2.4,,,0.28887291666666665
79,0.0,,59.8626,,0.0,9.447569999999999,59.8626,9.447569999999999,-120.137,693.038,monload-611_runway,,,,,,,,2.4,,,0.28876583333333333
80,0.0,,59.8586,,0.0,10.1044,59.8586,10.1044,-120.141,692.9889999999999,monload-611_runway,,,,,,,,2.4,,,0.28874541666666664
81,0.0,,59.8669,,0.0,8.90034,59.8669,8.90034,-120.133,693.084,monload-611_runway,,,,,,,,2.4,,,0.28878499999999996
82,0.0,,59.8691,,0.0,8.69476,59.8691,8.69476,-120.131,693.105,monload-611_runway,,,,,,,,2.4,,,0.28879375
83,0.0,,59.8864,,0.0,6.6671,59.8864,6.6671,-120.11399999999999,693.2860000000001,monload-611_runway,,,,,,,,2.4,,,0.2888691666666667
84,0.0,,59.8883,,0.0,6.823519999999999,59.8883,6.823519999999999,-120.11200000000001,693.2919999999999,monload-611_runway,,,,,,,,2.4,,,0.28887166666666664
85,0.0,,59.8876,,0.0,7.144489999999999,59.8876,7.144489999999999,-120.11200000000001,693.2760000000001,monload-611_runway,,,,,,,,2.4,,,0.28886500000000004
86,0.0,,59.8842,,0.0,7.5277899999999995,59.8842,7.5277899999999995,-120.116,693.2410000000001,monload-611_runway,,,,,,,,2.4,,,0.2888504166666667
87,0.0,,59.8809,,0.0,7.626519999999999,59.8809,7.626519999999999,-120.119,693.217,monload-611_runway,,,,,,,,2.4,,,0.28884041666666666
88,0.0,,59.8766,,0.0,7.6059,59.8766,7.6059,-120.12299999999999,693.192,monload-611_runway,,,,,,,,2.4,,,0.28883
89,0.0,,59.8732,,0.0,7.96073,59.8732,7.96073,-120.12700000000001,693.158,monload-611_runway,,,,,,,,2.4,,,0.2888158333333333
90,0.0,,59.861000000000004,,0.0,9.76675,59.861000000000004,9.76675,-120.139,693.0160000000001,monload-611_runway,,,,,,,,2.4,,,0.2887566666666667
91,0.0,,59.8467,,0.0,11.9698,59.8467,11.9698,-120.15299999999999,692.847,monload-611_runway,,,,,,,,2.4,,,0.28868625
92,0.0,,59.8411,,0.0,12.8583,59.8411,12.8583,-120.15899999999999,692.779,monload-611_runway,,,,,,,,2.4,,,0.2886579166666667
93,0.0,,59.8324,,0.0,14.220999999999998,59.8324,14.220999999999998,-120.16799999999999,692.676,monload-611_runway,,,,,,,,2.4,,,0.288615
94,0.0,,59.8376,,0.0,13.3982,59.8376,13.3982,-120.162,692.738,monload-611_runway,,,,,,,,2.4,,,0.28864083333333335
95,0.0,,59.8594,,0.0,9.93078,59.8594,9.93078,-120.141,693.0,monload-611_runway,,,,,,,,2.4,,,0.28875
96,0.0,,59.8783,,0.0,6.93605,59.8783,6.93605,-120.12200000000001,693.227,monload-611_runway,,,,,,,,2.4,,,0.28884458333333335
97,0.0,,59.8823,,0.0,6.2962,59.8823,6.2962,-120.118,693.275,monload-611_runway,,,,,,,,2.4,,,0.2888645833333333
98,0.0,,59.8841,,0.0,6.01126,59.8841,6.01126,-120.116,693.297,monload-611_runway,,,,,,,,2.4,,,0.28887375
99,0.0,,59.8864,,0.0,5.642930000000001,59.8864,5.642930000000001,-120.11399999999999,693.325,monload-611_runway,,,,,,,,2.4,,,0.2888854166666667
100,0.0,,59.8868,,0.0,5.59109,59.8868,5.59109,-120.113,693.329,monload-611_runway,,,,,,,,2.4,,,0.2888870833333333
101,0.0,,59.886,,0.0,5.71845,59.886,5.71845,-120.11399999999999,693.319,monload-611_runway,,,,,,,,2.4,,,0.28888291666666666
102,0.0,,59.879,,0.0,6.841310000000001,59.879,6.841310000000001,-120.12100000000001,693.2339999999999,monload-611_runway,,,,,,,,2.4,,,0.2888475
103,0.0,,59.8523,,0.0,11.0931,59.8523,11.0931,-120.148,692.913,monload-611_runway,,,,,,,,2.4,,,0.28871375
104,0.0,,59.8439,,0.0,12.3272,59.8439,12.3272,-120.156,692.816,monload-611_runway,,,,,,,,2.4,,,0.28867333333333334
105,0.0,,59.8507,,0.0,11.4803,59.8507,11.4803,-120.149,692.8889999999999,monload-611_runway,,,,,,,,2.4,,,0.28870375
106,0.0,,59.8462,,0.0,12.2571,59.8462,12.2571,-120.154,692.8330000000001,monload-611_runway,,,,,,,,2.4,,,0.2886804166666667
107,0.0,,59.8606,,0.0,10.6185,59.8606,10.6185,-120.139,692.982,monload-611_runway,,,,,,,,2.4,,,0.2887425
108,0.0,,59.8673,,0.0,10.0849,59.8673,10.0849,-120.133,693.0419999999999,monload-611_runway,,,,,,,,2.4,,,0.28876749999999995
109,0.0,,59.8681,,0.0,10.2024,59.8681,10.2024,-120.132,693.043,monload-611_runway,,,,,,,,2.4,,,0.2887679166666667
110,0.0,,59.8655,,0.0,10.4389,59.8655,10.4389,-120.134,693.018,monload-611_runway,,,,,,,,2.4,,,0.2887575
111,0.0,,59.8621,,0.0,10.5557,59.8621,10.5557,-120.13799999999999,692.993,monload-611_runway,,,,,,,,2.4,,,0.2887470833333334
112,0.0,,59.858999999999995,,0.0,10.3496,59.858999999999995,10.3496,-120.141,692.982,monload-611_runway,,,,,,,,2.4,,,0.2887425
113,0.0,,59.8554,,0.0,10.7763,59.8554,10.7763,-120.145,692.944,monload-611_runway,,,,,,,,2.4,,,0.28872666666666663
114,0.0,,59.8455,,0.0,12.2267,59.8455,12.2267,-120.155,692.829,monload-611_runway,,,,,,,,2.4,,,0.28867875
115,0.0,,59.8343,,0.0,13.9389,59.8343,13.9389,-120.166,692.697,monload-611_runway,,,,,,,,2.4,,,0.28862375
116,0.0,,59.8295,,0.0,14.6847,59.8295,14.6847,-120.17,692.6410000000001,monload-611_runway,,,,,,,,2.4,,,0.2886004166666667
117,0.0,,59.8218,,0.0,15.9007,59.8218,15.9007,-120.178,692.548,monload-611_runway,,,,,,,,2.4,,,0.28856166666666666
118,0.0,,59.8265,,0.0,15.1384,59.8266,15.1384,-120.17299999999999,692.6060000000001,monload-611_runway,,,,,,,,2.4,,,0.2885858333333334
119,0.0,,59.8478,,0.0,11.7593,59.8478,11.7593,-120.152,692.8610000000001,monload-611_runway,,,,,,,,2.4,,,0.28869208333333335
120,0.0,,59.8681,,0.0,8.54245,59.8681,8.54245,-120.132,693.105,monload-611_runway,,,,,,,,2.4,,,0.28879375
121,0.0,,59.8748,,0.0,7.475039999999999,59.8748,7.475039999999999,-120.125,693.186,monload-611_runway,,,,,,,,2.4,,,0.2888275
122,0.0,,59.8772,,0.0,7.09848,59.8772,7.09848,-120.12299999999999,693.2139999999999,monload-611_runway,,,,,,,,2.4,,,0.28883916666666665
123,0.0,,59.8801,,0.0,6.64279,59.8801,6.64279,-120.12,693.2489999999999,monload-611_runway,,,,,,,,2.4,,,0.28885374999999996
124,0.0,,59.8812,,0.0,6.46588,59.8812,6.46588,-120.119,693.262,monload-611_runway,,,,,,,,2.4,,,0.28885916666666667
125,0.0,,59.8805,,0.0,6.58977,59.8805,6.58977,-120.119,693.253,monload-611_runway,,,,,,,,2.4,,,0.2888554166666667
126,0.0,,59.8734,,0.0,7.720610000000001,59.8734,7.720610000000001,-120.12700000000001,693.168,monload-611_runway,,,,,,,,2.4,,,0.28882
127,0.0,,59.847,,0.0,11.9239,59.847,11.9239,-120.15299999999999,692.85,monload-611_runway,,,,,,,,2.4,,,0.2886875
128,0.0,,59.8392,,0.0,13.1482,59.8391,13.1482,-120.161,692.757,monload-611_runway,,,,,,,,2.4,,,0.28864874999999995
129,0.0,,59.8427,,0.0,12.7177,59.8427,12.7177,-120.15700000000001,692.794,monload-611_runway,,,,,,,,2.4,,,0.28866416666666667
130,0.0,,59.842,,0.0,12.8043,59.842,12.8043,-120.15799999999999,692.7869999999999,monload-611_runway,,,,,,,,2.4,,,0.28866125
131,0.0,,59.8571,,0.0,11.0632,59.8571,11.0632,-120.14299999999999,692.944,monload-611_runway,,,,,,,,2.4,,,0.28872666666666663
132,0.0,,59.8539,,0.0,11.2741,59.8539,11.2741,-120.146,692.9169999999999,monload-611_runway,,,,,,,,2.4,,,0.2887154166666666
133,0.0,,59.8549,,0.0,11.4768,59.8549,11.4768,-120.145,692.915,monload-611_runway,,,,,,,,2.4,,,0.28871458333333333
134,0.0,,59.854,,0.0,11.640999999999998,59.854,11.640999999999998,-120.146,692.903,monload-611_runway,,,,,,,,2.4,,,0.28870958333333335
135,0.0,,59.8547,,0.0,11.5536,59.8547,11.5536,-120.145,692.9110000000001,monload-611_runway,,,,,,,,2.4,,,0.2887129166666667
136,0.0,,59.8536,,0.0,11.187999999999999,59.8536,11.187999999999999,-120.146,692.918,monload-611_runway,,,,,,,,2.4,,,0.28871583333333334
137,0.0,,59.8544,,0.0,10.9304,59.8544,10.9304,-120.146,692.932,monload-611_runway,,,,,,,,2.4,,,0.28872166666666665
138,0.0,,59.8443,,0.0,12.3841,59.8443,12.3841,-120.156,692.817,monload-611_runway,,,,,,,,2.4,,,0.28867375
139,0.0,,59.8312,,0.0,14.4239,59.8312,14.4239,-120.169,692.6610000000001,monload-611_runway,,,,,,,,2.4,,,0.28860875
140,0.0,,59.8263,,0.0,15.202,59.8263,15.202,-120.17399999999999,692.602,monload-611_runway,,,,,,,,2.4,,,0.28858416666666664
141,0.0,,59.818000000000005,,0.0,16.5012,59.818000000000005,16.5012,-120.182,692.503,monload-611_runway,,,,,,,,2.4,,,0.2885429166666667
142,0.0,,59.828,,0.0,14.9092,59.828,14.9092,-120.17200000000001,692.623,monload-611_runway,,,,,,,,2.4,,,0.2885929166666667
143,0.0,,59.8544,,0.0,10.7073,59.8544,10.7073,-120.146,692.941,monload-611_runway,,,,,,,,2.4,,,0.2887254166666667
144,0.0,,59.8759,,0.0,7.3125100000000005,59.8758,7.3125100000000005,-120.124,693.198,monload-611_runway,,,,,,,,2.4,,,0.2888325
145,0.0,,59.8799,,0.0,6.6767199999999995,59.8799,6.6767199999999995,-120.12,693.2460000000001,monload-611_runway,,,,,,,,2.4,,,0.2888525
146,0.0,,59.8806,,0.0,6.56153,59.8806,6.56153,-120.119,693.255,monload-611_runway,,,,,,,,2.4,,,0.28885625
147,0.0,,59.8865,,0.0,5.63288,59.8865,5.63288,-120.11399999999999,693.325,monload-611_runway,,,,,,,,2.4,,,0.2888854166666667
148,0.0,,59.8871,,0.0,5.53331,59.8871,5.53331,-120.113,693.3330000000001,monload-611_runway,,,,,,,,2.4,,,0.28888875
149,0.0,,59.8866,,0.0,5.61594,59.8866,5.61594,-120.113,693.327,monload-611_runway,,,,,,,,2.4,,,0.28888625
150,0.0,,59.8841,,0.0,6.00629,59.8841,6.00629,-120.116,693.297,monload-611_runway,,,,,,,,2.4,,,0.28887375
151,0.0,,59.8662,,0.0,8.8545,59.8662,8.8545,-120.134,693.082,monload-611_runway,,,,,,,,2.4,,,0.2887841666666667
152,0.0,,59.8628,,0.0,9.40162,59.8628,9.40162,-120.137,693.041,monload-611_runway,,,,,,,,2.4,,,0.28876708333333334
153,0.0,,59.8398,,0.0,13.1468,59.8398,13.1468,-120.16,692.7610000000001,monload-611_runway,,,,,,,,2.4,,,0.2886504166666667
154,0.0,,59.8477,,0.0,11.7266,59.8477,11.7266,-120.152,692.862,monload-611_runway,,,,,,,,2.4,,,0.28869249999999996
155,0.0,,59.8714,,0.0,9.18867,59.8714,9.18867,-120.12899999999999,693.1010000000001,monload-611_runway,,,,,,,,2.4,,,0.2887920833333334
156,0.0,,59.8746,,0.0,9.05189,59.8746,9.05189,-120.125,693.1260000000001,monload-611_runway,,,,,,,,2.4,,,0.2888025
157,0.0,,59.8716,,0.0,9.24945,59.8717,9.24945,-120.12799999999999,693.1,monload-611_runway,,,,,,,,2.4,,,0.28879166666666667
158,0.0,,59.8715,,0.0,9.17383,59.8715,9.17383,-120.12799999999999,693.102,monload-611_runway,,,,,,,,2.4,,,0.2887925
159,0.0,,59.8685,,0.0,9.251510000000001,59.8685,9.251510000000001,-120.131,693.081,monload-611_runway,,,,,,,,2.4,,,0.28878375
160,0.0,,59.8629,,0.0,9.53278,59.8629,9.53278,-120.137,693.0360000000001,monload-611_runway,,,,,,,,2.4,,,0.28876500000000005
161,0.0,,59.861999999999995,,0.0,9.611469999999999,59.861999999999995,9.611469999999999,-120.13799999999999,693.028,monload-611_runway,,,,,,,,2.4,,,0.2887616666666667
162,0.0,,59.8556,,0.0,10.5519,59.8556,10.5519,-120.14399999999999,692.954,monload-611_runway,,,,,,,,2.4,,,0.2887308333333333
163,0.0,,59.8355,,0.0,13.7261,59.8355,13.7261,-120.165,692.7130000000001,monload-611_runway,,,,,,,,2.4,,,0.2886304166666667
164,0.0,,59.8323,,0.0,14.2286,59.8323,14.2286,-120.16799999999999,692.675,monload-611_runway,,,,,,,,2.4,,,0.28861458333333334
165,0.0,,59.8275,,0.0,14.9748,59.8275,14.9748,-120.17200000000001,692.618,monload-611_runway,,,,,,,,2.4,,,0.28859083333333335
